# MHz S MA R 50.0
2000.0000   0.03729482   -29.7268 
2001.0000   0.03872755   -28.4950 
2002.0000   0.03936258   -20.8733 
2003.0000   0.03939495   -24.9505 
2004.0000   0.03809434   -23.4406 
2005.0000   0.04083375   -19.4348 
2006.0000   0.04233246   -23.7312 
2007.0000   0.04202117   -20.2955 
2008.0000   0.04213599   -21.5226 
2009.0000   0.03919795   -19.0313 
2010.0000   0.04251686   -16.4179 
2011.0000   0.04282885   -16.1917 
2012.0000   0.03954406   -13.4676 
2013.0000   0.04305685   -13.7157 
2014.0000   0.04318270   -12.4979 
2015.0000   0.04382603   -10.8726 
2016.0000   0.04209149   -9.9282 
2017.0000   0.04416863   -7.3352 
2018.0000   0.04472356   -7.9143 
2019.0000   0.04262240   -6.4844 
2020.0000   0.04305068   -3.7581 
2021.0000   0.04463364   -3.1033 
2022.0000   0.04347416   -2.5946 
2023.0000   0.04423066   -0.4347 
2024.0000   0.04497616   4.4942 
2025.0000   0.04555805   2.0361 
2026.0000   0.04537341   4.0219 
2027.0000   0.04629786   3.9365 
2028.0000   0.04704297   8.0014 
2029.0000   0.04717609   6.7898 
2030.0000   0.04766077   10.0759 
2031.0000   0.04712192   10.1626 
2032.0000   0.04728342   11.9429 
2033.0000   0.04750355   13.2728 
2034.0000   0.04773197   16.1321 
2035.0000   0.04671571   16.2393 
2036.0000   0.04839493   19.6850 
2037.0000   0.04806107   18.2455 
2038.0000   0.04912927   22.0607 
2039.0000   0.04856595   22.4758 
2040.0000   0.05025957   22.5802 
2041.0000   0.04779173   23.8532 
2042.0000   0.04848738   26.4460 
2043.0000   0.04821248   27.4961 
2044.0000   0.04802467   28.2725 
2045.0000   0.04890078   30.8038 
2046.0000   0.04929636   33.0832 
2047.0000   0.04923908   34.3013 
2048.0000   0.05081692   33.6059 
2049.0000   0.05009678   41.6323 
2050.0000   0.05006028   37.3264 
2051.0000   0.05047188   40.3069 
2052.0000   0.05074821   43.2772 
2053.0000   0.05182139   44.1332 
2054.0000   0.05109784   58.6682 
2055.0000   0.05056725   48.2361 
2056.0000   0.05129485   47.2537 
2057.0000   0.05071357   68.4727 
2058.0000   0.05102973   47.2315 
2059.0000   0.05232741   38.1264 
2060.0000   0.05117616   73.5005 
2061.0000   0.05132875   55.8534 
2062.0000   0.05085547   59.9413 
2063.0000   0.05105343   59.8027 
2064.0000   0.05170129   65.0788 
2065.0000   0.05093900   64.2202 
2066.0000   0.05393483   61.3171 
2067.0000   0.05177312   61.5663 
2068.0000   0.05160205   73.7784 
2069.0000   0.05144113   79.1425 
2070.0000   0.05199241   78.5416 
2071.0000   0.05339773   67.4055 
2072.0000   0.05161405   77.2841 
2073.0000   0.05180999   75.8098 
2074.0000   0.05178910   76.6670 
2075.0000   0.05375417   76.2613 
2076.0000   0.05170056   84.0849 
2077.0000   0.05158048   87.0866 
2078.0000   0.05247959   88.1656 
2079.0000   0.05382720   83.5153 
2080.0000   0.05170546   89.2842 
2081.0000   0.05292436   86.6226 
2082.0000   0.05165130   92.5988 
2083.0000   0.04995316   100.6349 
2084.0000   0.05353169   91.6123 
2085.0000   0.05090669   98.5080 
2086.0000   0.05312561   96.8453 
2087.0000   0.05259903   102.3793 
2088.0000   0.05361276   100.9247 
2089.0000   0.05308573   104.4371 
2090.0000   0.05360210   106.6026 
2091.0000   0.04954824   109.4223 
2092.0000   0.05055205   111.4201 
2093.0000   0.05187818   108.0732 
2094.0000   0.04990313   112.1279 
2095.0000   0.05198269   109.5998 
2096.0000   0.05178019   114.6836 
2097.0000   0.05137613   116.0340 
2098.0000   0.04920232   118.3928 
2099.0000   0.05152177   120.3626 
2100.0000   0.04895960   119.6000 
2101.0000   0.04889301   122.1042 
2102.0000   0.04920232   125.4288 
2103.0000   0.04878307   125.0645 
2104.0000   0.04827679   128.3141 
2105.0000   0.04787086   129.5988 
2106.0000   0.05006981   128.2152 
2107.0000   0.04734319   134.7717 
2108.0000   0.04772519   132.4342 
2109.0000   0.04747936   131.6346 
2110.0000   0.04710399   134.2375 
2111.0000   0.04698331   135.8683 
2112.0000   0.04785294   137.1401 
2113.0000   0.04910686   136.1060 
2114.0000   0.04743743   138.9961 
2115.0000   0.04679945   138.4869 
2116.0000   0.04647326   142.8313 
2117.0000   0.04619453   143.0921 
2118.0000   0.04653779   146.7246 
2119.0000   0.04508808   148.5176 
2120.0000   0.04521262   147.2576 
2121.0000   0.04508617   150.7718 
2122.0000   0.04550736   149.2041 
2123.0000   0.04716255   148.9453 
2124.0000   0.04577272   152.3201 
2125.0000   0.04492220   153.9920 
2126.0000   0.04544026   153.0833 
2127.0000   0.04602713   153.5366 
2128.0000   0.04589476   155.4445 
2129.0000   0.04626888   155.8458 
2130.0000   0.04547076   160.8567 
2131.0000   0.04609043   159.6012 
2132.0000   0.04484347   160.0479 
2133.0000   0.04588376   162.1544 
2134.0000   0.04544910   163.0221 
2135.0000   0.04579460   164.8504 
2136.0000   0.04543644   163.9111 
2137.0000   0.04553707   166.7187 
2138.0000   0.04588248   167.8472 
2139.0000   0.04362648   168.3911 
2140.0000   0.04524675   170.0177 
2141.0000   0.04337118   171.2579 
2142.0000   0.04372525   172.5223 
2143.0000   0.04415048   174.2877 
2144.0000   0.04339191   174.7943 
2145.0000   0.04402805   176.0664 
2146.0000   0.04298846   179.7090 
2147.0000   0.04358561   178.7352 
2148.0000   0.04354676   179.3125 
2149.0000   0.04339794   -178.5934 
2150.0000   0.04369591   -179.6116 
2151.0000   0.04369630   -179.2226 
2152.0000   0.04323796   -177.3450 
2153.0000   0.04265249   -175.6061 
2154.0000   0.04298896   -173.7290 
2155.0000   0.04173581   -173.0209 
2156.0000   0.04264488   -173.1997 
2157.0000   0.04086211   -171.1834 
2158.0000   0.04276825   -170.4734 
2159.0000   0.04259607   -168.4949 
2160.0000   0.04162936   -167.4091 
2161.0000   0.04232211   -167.5528 
2162.0000   0.04248079   -166.4887 
2163.0000   0.03854661   -164.3469 
2164.0000   0.04132140   -164.7784 
2165.0000   0.04063705   -162.3706 
2166.0000   0.04135237   -162.4203 
2167.0000   0.04161042   -160.0499 
2168.0000   0.04159496   -160.0384 
2169.0000   0.04142195   -158.4200 
2170.0000   0.04125558   -158.0279 
2171.0000   0.03959022   -156.2505 
2172.0000   0.04183318   -155.7874 
2173.0000   0.03951107   -151.6977 
2174.0000   0.04209481   -152.0877 
2175.0000   0.04124821   -154.0145 
2176.0000   0.03935827   -148.8851 
2177.0000   0.03837727   -148.2598 
2178.0000   0.04107150   -148.4241 
2179.0000   0.04051354   -147.4348 
2180.0000   0.04066951   -145.9022 
2181.0000   0.04099336   -144.1045 
2182.0000   0.04044818   -142.5088 
2183.0000   0.04056090   -140.2438 
2184.0000   0.04185550   -142.3776 
2185.0000   0.03977353   -139.2381 
2186.0000   0.04115940   -137.5275 
2187.0000   0.03965215   -136.6415 
2188.0000   0.04096935   -136.1489 
2189.0000   0.04005028   -134.7042 
2190.0000   0.03991790   -134.0300 
2191.0000   0.04050946   -130.5638 
2192.0000   0.04077150   -128.5778 
2193.0000   0.04069996   -128.7289 
2194.0000   0.03884381   -127.9883 
2195.0000   0.04016290   -125.8403 
2196.0000   0.04036706   -124.6611 
2197.0000   0.03989745   -124.8588 
2198.0000   0.04136779   -123.8671 
2199.0000   0.04079429   -122.2478 
2200.0000   0.04169253   -121.3833 
2201.0000   0.04173180   -118.1110 
2202.0000   0.04170113   -117.4942 
2203.0000   0.04088365   -114.6774 
2204.0000   0.03975291   -112.7860 
2205.0000   0.04202411   -112.4997 
2206.0000   0.04124361   -111.4428 
2207.0000   0.04159906   -108.7010 
2208.0000   0.04090574   -107.8758 
2209.0000   0.04063429   -105.8892 
2210.0000   0.04069321   -104.1160 
2211.0000   0.04146922   -102.6464 
2212.0000   0.04129082   -100.4857 
2213.0000   0.04122157   -100.1071 
2214.0000   0.04135532   -98.7643 
2215.0000   0.03983187   -96.7017 
2216.0000   0.04146336   -95.1463 
2217.0000   0.04118171   -93.0249 
2218.0000   0.04087632   -91.4485 
2219.0000   0.04081368   -91.1849 
2220.0000   0.04061510   -88.3698 
2221.0000   0.04104380   -88.0302 
2222.0000   0.04085597   -85.7207 
2223.0000   0.03934708   -85.4103 
2224.0000   0.04085003   -82.8874 
2225.0000   0.03984624   -81.8762 
2226.0000   0.04092970   -80.6590 
2227.0000   0.04079616   -77.0773 
2228.0000   0.03964795   -76.2028 
2229.0000   0.04029802   -74.7414 
2230.0000   0.03958035   -73.0094 
2231.0000   0.04052926   -72.2505 
2232.0000   0.03957805   -70.8697 
2233.0000   0.04015812   -68.1370 
2234.0000   0.04054128   -66.9569 
2235.0000   0.03959409   -64.1817 
2236.0000   0.03995584   -64.8354 
2237.0000   0.04009135   -61.2310 
2238.0000   0.03940551   -60.4243 
2239.0000   0.03960448   -59.9507 
2240.0000   0.03922085   -57.6725 
2241.0000   0.03738140   -56.4191 
2242.0000   0.03868229   -55.4908 
2243.0000   0.03738495   -52.9778 
2244.0000   0.03811460   -52.9936 
2245.0000   0.03760786   -51.0641 
2246.0000   0.03738099   -49.7291 
2247.0000   0.03625477   -45.9593 
2248.0000   0.03737818   -47.2910 
2249.0000   0.03691974   -45.3280 
2250.0000   0.03665713   -42.7303 
2251.0000   0.03617825   -42.7690 
2252.0000   0.03618917   -40.5852 
2253.0000   0.03572300   -39.1007 
2254.0000   0.03522234   -39.2785 
2255.0000   0.03554403   -37.6348 
2256.0000   0.03394172   -35.0242 
2257.0000   0.03504879   -35.1754 
2258.0000   0.03538249   -33.3288 
2259.0000   0.03410986   -32.4327 
2260.0000   0.03479053   -30.7726 
2261.0000   0.03320035   -29.3587 
2262.0000   0.03379194   -27.2440 
2263.0000   0.03204127   -27.9406 
2264.0000   0.03321937   -26.4038 
2265.0000   0.03164182   -24.5914 
2266.0000   0.03264329   -24.1288 
2267.0000   0.03053383   -22.2253 
2268.0000   0.03176068   -21.5098 
2269.0000   0.03165842   -20.3277 
2270.0000   0.03047372   -21.1691 
2271.0000   0.03121807   -18.5379 
2272.0000   0.03091955   -17.4295 
2273.0000   0.03094140   -16.3190 
2274.0000   0.03069527   -14.4155 
2275.0000   0.02927357   -14.4887 
2276.0000   0.03044436   -12.7915 
2277.0000   0.03004055   -11.7752 
2278.0000   0.03011469   -12.0602 
2279.0000   0.02962784   -9.7882 
2280.0000   0.03007231   -9.3466 
2281.0000   0.02944793   -8.7041 
2282.0000   0.02982802   -7.2420 
2283.0000   0.02936729   -6.4651 
2284.0000   0.02816999   -4.9611 
2285.0000   0.02884532   -6.3632 
2286.0000   0.02868463   -3.2364 
2287.0000   0.02852342   -4.0212 
2288.0000   0.02840673   -3.5575 
2289.0000   0.02721280   -0.0713 
2290.0000   0.02750819   -0.9682 
2291.0000   0.02750444   1.4493 
2292.0000   0.02653050   1.5717 
2293.0000   0.02703033   2.3256 
2294.0000   0.02760528   2.1837 
2295.0000   0.02718136   2.3267 
2296.0000   0.02745551   5.3882 
2297.0000   0.02744743   6.4908 
2298.0000   0.02667040   7.6299 
2299.0000   0.02663119   7.8419 
2300.0000   0.02675027   8.6996 
2301.0000   0.02601883   9.4096 
2302.0000   0.02629409   10.7672 
2303.0000   0.02607847   11.6276 
2304.0000   0.02709647   11.9230 
2305.0000   0.02556976   13.7928 
2306.0000   0.02614159   14.1854 
2307.0000   0.02708189   13.6743 
2308.0000   0.02689307   15.2351 
2309.0000   0.02664281   13.9772 
2310.0000   0.02701341   15.8670 
2311.0000   0.02697614   16.7945 
2312.0000   0.02550341   19.2180 
2313.0000   0.02695950   18.1189 
2314.0000   0.02693409   19.7502 
2315.0000   0.02528524   19.3462 
2316.0000   0.02699595   19.7391 
2317.0000   0.02640073   19.7228 
2318.0000   0.02663684   21.4430 
2319.0000   0.02638532   22.0075 
2320.0000   0.02663376   23.0308 
2321.0000   0.02674770   23.0711 
2322.0000   0.02566834   24.6112 
2323.0000   0.02720692   25.5312 
2324.0000   0.02748682   24.9591 
2325.0000   0.02746002   26.8557 
2326.0000   0.02752956   27.8060 
2327.0000   0.02760138   28.5136 
2328.0000   0.02744373   28.6818 
2329.0000   0.02787655   29.7872 
2330.0000   0.02698631   31.9589 
2331.0000   0.02826152   30.8670 
2332.0000   0.02657423   33.1218 
2333.0000   0.02719240   33.5962 
2334.0000   0.02830298   33.5916 
2335.0000   0.02690288   36.1893 
2336.0000   0.02859390   35.4999 
2337.0000   0.02775728   36.4808 
2338.0000   0.02877971   37.0170 
2339.0000   0.02836257   36.9589 
2340.0000   0.02894198   38.4305 
2341.0000   0.02898708   39.2974 
2342.0000   0.02790580   41.6150 
2343.0000   0.02921639   40.3194 
2344.0000   0.02978484   41.8908 
2345.0000   0.02836423   42.8644 
2346.0000   0.03028605   44.4693 
2347.0000   0.02988318   44.8876 
2348.0000   0.03056580   45.2080 
2349.0000   0.03092162   46.2329 
2350.0000   0.03093134   48.2076 
2351.0000   0.03120159   48.1967 
2352.0000   0.03031804   50.4423 
2353.0000   0.03152590   53.2329 
2354.0000   0.03151441   54.0234 
2355.0000   0.03103024   52.3330 
2356.0000   0.03171677   54.9946 
2357.0000   0.03090203   54.2123 
2358.0000   0.03076378   55.0149 
2359.0000   0.03110173   57.3220 
2360.0000   0.03088794   58.5493 
2361.0000   0.03136343   58.4512 
2362.0000   0.03193813   59.8597 
2363.0000   0.03184761   60.8831 
2364.0000   0.03186874   61.7000 
2365.0000   0.03201119   65.4770 
2366.0000   0.03221516   66.4468 
2367.0000   0.03260349   67.3118 
2368.0000   0.03404571   67.2060 
2369.0000   0.03271034   70.3119 
2370.0000   0.03527511   68.7252 
2371.0000   0.03327604   75.0799 
2372.0000   0.03312171   75.7762 
2373.0000   0.03330149   76.5742 
2374.0000   0.03376189   78.8934 
2375.0000   0.03404712   80.9598 
2376.0000   0.03529248   82.7083 
2377.0000   0.03632565   83.2230 
2378.0000   0.03471850   83.4021 
2379.0000   0.03502881   83.7275 
2380.0000   0.03523358   84.7729 
2381.0000   0.03469122   90.1626 
2382.0000   0.03506671   88.9292 
2383.0000   0.03520924   91.7323 
2384.0000   0.03643258   91.0961 
2385.0000   0.03515321   93.2781 
2386.0000   0.03468209   92.4927 
2387.0000   0.03514529   95.7338 
2388.0000   0.03642768   96.1614 
2389.0000   0.03444136   96.5602 
2390.0000   0.03459221   99.8906 
2391.0000   0.03503905   102.2674 
2392.0000   0.03666476   102.9229 
2393.0000   0.03627127   100.7560 
2394.0000   0.03429642   102.9972 
2395.0000   0.03452062   107.0101 
2396.0000   0.03477683   106.2689 
2397.0000   0.03416147   109.5652 
2398.0000   0.03533963   108.5077 
2399.0000   0.03420204   111.2000 
2400.0000   0.03604006   109.1276 
2401.0000   0.03544744   110.7292 
2402.0000   0.03434786   117.5144 
2403.0000   0.03291833   112.9078 
2404.0000   0.03503276   113.8373 
2405.0000   0.03333545   115.4957 
2406.0000   0.03247689   115.6958 
2407.0000   0.03301649   116.6336 
2408.0000   0.03224592   119.4386 
2409.0000   0.03163343   119.2791 
2410.0000   0.03186264   121.1341 
2411.0000   0.03185345   126.9196 
2412.0000   0.03341979   123.8611 
2413.0000   0.03155821   128.4825 
2414.0000   0.03150077   127.2381 
2415.0000   0.03136842   126.4581 
2416.0000   0.03088437   128.8943 
2417.0000   0.03015182   129.4077 
2418.0000   0.03068211   130.8492 
2419.0000   0.03094955   131.2856 
2420.0000   0.03088827   134.8605 
2421.0000   0.03052518   135.6621 
2422.0000   0.02993004   137.2401 
2423.0000   0.02962041   139.1807 
2424.0000   0.03025686   141.0350 
2425.0000   0.02956467   141.4519 
2426.0000   0.03167693   140.3902 
2427.0000   0.03046888   154.0912 
2428.0000   0.02936569   144.0632 
2429.0000   0.02905388   144.6936 
2430.0000   0.02954792   145.9111 
2431.0000   0.02915435   146.7009 
2432.0000   0.02912927   146.2337 
2433.0000   0.02909559   147.3925 
2434.0000   0.02878053   150.9919 
2435.0000   0.02898696   150.3269 
2436.0000   0.02844542   152.8020 
2437.0000   0.02835762   151.8309 
2438.0000   0.02838305   152.7663 
2439.0000   0.02853501   153.6416 
2440.0000   0.02855193   154.1719 
2441.0000   0.02882616   155.2785 
2442.0000   0.02869901   155.0082 
2443.0000   0.02878248   157.0005 
2444.0000   0.02881288   156.8947 
2445.0000   0.02961778   157.7286 
2446.0000   0.03006720   158.7681 
2447.0000   0.03029838   160.0171 
2448.0000   0.02938247   162.1223 
2449.0000   0.02880292   162.5757 
2450.0000   0.02928032   161.8438 
2451.0000   0.02919438   162.6376 
2452.0000   0.03020866   162.8908 
2453.0000   0.03033717   166.1862 
2454.0000   0.02940570   165.5088 
2455.0000   0.02953755   167.2903 
2456.0000   0.02945402   168.9868 
2457.0000   0.02939652   168.7674 
2458.0000   0.03102039   166.6732 
2459.0000   0.02925382   171.8557 
2460.0000   0.02976759   170.5284 
2461.0000   0.02981286   172.3847 
2462.0000   0.02979437   173.1704 
2463.0000   0.02978201   174.0690 
2464.0000   0.03175278   175.6086 
2465.0000   0.03193168   175.3135 
2466.0000   0.03059322   178.8574 
2467.0000   0.03234002   177.0055 
2468.0000   0.03187554   179.3287 
2469.0000   0.03208652   178.9140 
2470.0000   0.03270436   178.0062 
2471.0000   0.03294471   -179.1582 
2472.0000   0.03228612   -178.6389 
2473.0000   0.03343120   -177.2833 
2474.0000   0.03337960   -175.2763 
2475.0000   0.03346859   -174.7562 
2476.0000   0.03402106   -175.6623 
2477.0000   0.03391834   -172.7687 
2478.0000   0.03263476   -173.1287 
2479.0000   0.03445289   -171.9478 
2480.0000   0.03335333   -170.8243 
2481.0000   0.03353112   -169.5819 
2482.0000   0.03329923   -169.2858 
2483.0000   0.03367118   -167.3651 
2484.0000   0.03372824   -167.1639 
2485.0000   0.03552742   -167.4297 
2486.0000   0.03457133   -164.3845 
2487.0000   0.03504751   -163.4513 
2488.0000   0.03643921   -164.2060 
2489.0000   0.03454889   -162.2567 
2490.0000   0.03566491   -163.2243 
2491.0000   0.03562966   -159.8896 
2492.0000   0.03805239   -160.4331 
2493.0000   0.03808213   -158.9803 
2494.0000   0.03764126   -156.4746 
2495.0000   0.03900233   -155.7705 
2496.0000   0.03905035   -154.3294 
2497.0000   0.03754466   -153.4530 
2498.0000   0.04029929   -154.2056 
2499.0000   0.04052643   -152.1418 
2500.0000   0.04063941   -149.3879 
2501.0000   0.04120208   -149.2941 
2502.0000   0.04228038   -148.0378 
2503.0000   0.04186645   -148.1951 
2504.0000   0.04199391   -144.3859 
2505.0000   0.04318625   -145.1676 
2506.0000   0.04367435   -142.8977 
2507.0000   0.04395840   -141.9663 
2508.0000   0.04463394   -141.3697 
2509.0000   0.04487299   -138.6187 
2510.0000   0.04443033   -136.0587 
2511.0000   0.04665125   -137.3658 
2512.0000   0.04592112   -134.9780 
2513.0000   0.04799326   -135.0686 
2514.0000   0.04657461   -134.1776 
2515.0000   0.04791488   -131.0525 
2516.0000   0.04962876   -128.8840 
2517.0000   0.04930952   -130.1125 
2518.0000   0.05099768   -126.4496 
2519.0000   0.05142245   -126.0070 
2520.0000   0.05239244   -125.4688 
2521.0000   0.05337861   -124.0882 
2522.0000   0.05459196   -122.6396 
2523.0000   0.05287533   -120.4266 
2524.0000   0.05560038   -120.2477 
2525.0000   0.05470433   -117.1673 
2526.0000   0.05624046   -117.3194 
2527.0000   0.05705281   -114.1009 
2528.0000   0.05554952   -111.7470 
2529.0000   0.05886347   -111.3836 
2530.0000   0.05543860   -107.2952 
2531.0000   0.06006098   -98.6876 
2532.0000   0.05844442   -105.9879 
2533.0000   0.06157071   -103.9529 
2534.0000   0.06181323   -101.8886 
2535.0000   0.06258010   -100.5798 
2536.0000   0.06240937   -98.3682 
2537.0000   0.06220039   -97.7324 
2538.0000   0.06475281   -94.1063 
2539.0000   0.06384942   -93.5118 
2540.0000   0.06482818   -92.6863 
2541.0000   0.06635853   -88.6515 
2542.0000   0.06566742   -89.0397 
2543.0000   0.06720302   -85.1043 
2544.0000   0.06613619   -81.9703 
2545.0000   0.06822386   -80.8587 
2546.0000   0.06873173   -80.1231 
2547.0000   0.06850647   -79.0077 
2548.0000   0.06833619   -75.0474 
2549.0000   0.06715216   -74.1223 
2550.0000   0.06737770   -71.0032 
2551.0000   0.06933763   -69.6355 
2552.0000   0.06865382   -68.1545 
2553.0000   0.06905388   -66.1895 
2554.0000   0.06543416   -64.5827 
2555.0000   0.06908525   -60.8493 
2556.0000   0.06881084   -58.3057 
2557.0000   0.06572165   -57.7974 
2558.0000   0.06740330   -54.8410 
2559.0000   0.06861605   -51.7392 
2560.0000   0.06790308   -50.0333 
2561.0000   0.06733598   -49.9562 
2562.0000   0.06601555   -49.6281 
2563.0000   0.06653128   -45.8065 
2564.0000   0.06494750   -46.3240 
2565.0000   0.06501440   -42.0045 
2566.0000   0.06522719   -43.5530 
2567.0000   0.06410477   -40.5426 
2568.0000   0.06297807   -37.3014 
2569.0000   0.06311578   -36.7889 
2570.0000   0.06344613   -34.7157 
2571.0000   0.06068973   -33.2523 
