# MHz S MA R 50.0
2000.0000   0.07460866   -112.9336 
2001.0000   0.07448051   -115.9860 
2002.0000   0.07164855   -117.4819 
2003.0000   0.07508646   -117.3293 
2004.0000   0.07705243   -114.5206 
2005.0000   0.07569330   -115.0871 
2006.0000   0.07751744   -112.1136 
2007.0000   0.07254913   -115.7571 
2008.0000   0.07699868   -108.9242 
2009.0000   0.07655786   -109.3399 
2010.0000   0.07383018   -110.9551 
2011.0000   0.07738805   -108.1985 
2012.0000   0.07736239   -100.1644 
2013.0000   0.07220755   -108.6569 
2014.0000   0.07775630   -104.5938 
2015.0000   0.07916128   -102.5360 
2016.0000   0.07506531   -104.9436 
2017.0000   0.07617453   -101.9668 
2018.0000   0.07582012   -101.0823 
2019.0000   0.07678623   -95.4385 
2020.0000   0.07715397   -92.2152 
2021.0000   0.07965045   -95.3790 
2022.0000   0.07738607   -97.6373 
2023.0000   0.07976375   -96.2200 
2024.0000   0.08173147   -89.7816 
2025.0000   0.08232732   -93.2034 
2026.0000   0.07784813   -95.3148 
2027.0000   0.08341754   -88.0172 
2028.0000   0.08138200   -90.0743 
2029.0000   0.08394063   -82.7412 
2030.0000   0.08060939   -89.8511 
2031.0000   0.08435116   -75.2616 
2032.0000   0.08277034   -81.6388 
2033.0000   0.08358017   -81.7557 
2034.0000   0.08546595   -79.8629 
2035.0000   0.08613420   -75.2911 
2036.0000   0.08767750   -78.8328 
2037.0000   0.08839438   -78.2364 
2038.0000   0.09233257   -55.8429 
2039.0000   0.09299098   -61.0896 
2040.0000   0.08642842   -80.0885 
2041.0000   0.08561653   -80.4785 
2042.0000   0.09379468   -67.7185 
2043.0000   0.09341024   -67.0745 
2044.0000   0.09367581   -65.6476 
2045.0000   0.09410243   -62.7697 
2046.0000   0.09375126   -60.4320 
2047.0000   0.09267121   -60.9193 
2048.0000   0.09441788   -58.1452 
2049.0000   0.09064725   -57.8808 
2050.0000   0.09457575   -55.1086 
2051.0000   0.09504086   -52.8451 
2052.0000   0.09393026   -51.6841 
2053.0000   0.09157920   -51.7727 
2054.0000   0.09632553   -48.2764 
2055.0000   0.09543518   -46.5266 
2056.0000   0.09473149   -47.7305 
2057.0000   0.09460321   -42.2389 
2058.0000   0.09535142   -41.7350 
2059.0000   0.09546811   -41.3737 
2060.0000   0.09575760   -38.9528 
2061.0000   0.09489595   -36.6707 
2062.0000   0.09620371   -35.5910 
2063.0000   0.09514185   -32.6978 
2064.0000   0.09542833   -31.9174 
2065.0000   0.09597823   -29.6428 
2066.0000   0.09758469   -27.9674 
2067.0000   0.09378869   -27.1634 
2068.0000   0.09598593   -25.5698 
2069.0000   0.09616802   -23.2508 
2070.0000   0.09603821   -21.7989 
2071.0000   0.09612903   -19.2915 
2072.0000   0.09618905   -17.9200 
2073.0000   0.09568653   -17.1065 
2074.0000   0.09549100   -14.4408 
2075.0000   0.09245068   -12.0376 
2076.0000   0.09647874   -10.3313 
2077.0000   0.09597277   -10.8753 
2078.0000   0.09462757   -6.1251 
2079.0000   0.09509553   -6.6792 
2080.0000   0.09316035   -3.6504 
2081.0000   0.09206511   -0.8460 
2082.0000   0.09371985   -1.8003 
2083.0000   0.09410003   1.7446 
2084.0000   0.09428286   -1.8373 
2085.0000   0.09238622   4.2260 
2086.0000   0.09406099   5.6095 
2087.0000   0.09329097   7.5286 
2088.0000   0.09305452   15.4506 
2089.0000   0.09146357   10.4505 
2090.0000   0.09184597   16.7516 
2091.0000   0.09103181   16.2934 
2092.0000   0.09114416   7.4148 
2093.0000   0.08819873   28.2922 
2094.0000   0.09103202   19.4608 
2095.0000   0.09107530   26.4110 
2096.0000   0.09168306   14.4763 
2097.0000   0.08985769   28.0367 
2098.0000   0.09071825   24.2541 
2099.0000   0.09085545   17.8948 
2100.0000   0.08825735   39.0897 
2101.0000   0.09033865   30.5090 
2102.0000   0.09174600   31.2795 
2103.0000   0.08675234   41.7553 
2104.0000   0.09071208   34.8616 
2105.0000   0.09021436   29.5265 
2106.0000   0.09079427   36.1696 
2107.0000   0.08620767   45.8409 
2108.0000   0.08913022   41.8704 
2109.0000   0.08971848   41.6310 
2110.0000   0.09066419   40.6671 
2111.0000   0.08938012   46.0034 
2112.0000   0.09108431   44.7931 
2113.0000   0.09125687   47.6120 
2114.0000   0.09212204   49.2601 
2115.0000   0.09085518   48.7179 
2116.0000   0.08988389   54.2630 
2117.0000   0.09097351   53.6478 
2118.0000   0.09020077   54.3814 
2119.0000   0.09130397   55.4952 
2120.0000   0.09076038   59.4394 
2121.0000   0.09142355   59.7496 
2122.0000   0.09249371   57.7410 
2123.0000   0.08895011   63.1667 
2124.0000   0.09357687   63.7629 
2125.0000   0.09274535   62.2193 
2126.0000   0.09423245   65.0107 
2127.0000   0.09274178   69.3253 
2128.0000   0.09355303   69.3560 
2129.0000   0.09228741   70.9508 
2130.0000   0.09355039   72.2491 
2131.0000   0.09213140   71.8483 
2132.0000   0.09475309   72.7076 
2133.0000   0.09287015   74.6354 
2134.0000   0.09485727   76.5749 
2135.0000   0.09647313   76.8041 
2136.0000   0.09846525   77.0224 
2137.0000   0.09729614   79.8563 
2138.0000   0.09873513   81.4564 
2139.0000   0.09779528   83.8269 
2140.0000   0.09528484   86.3295 
2141.0000   0.09885547   85.4300 
2142.0000   0.09897543   84.7217 
2143.0000   0.09857713   87.1758 
2144.0000   0.09458651   89.3877 
2145.0000   0.10020171   90.4928 
2146.0000   0.10126768   92.8551 
2147.0000   0.09951132   93.7944 
2148.0000   0.10452370   92.9268 
2149.0000   0.09973883   98.8452 
2150.0000   0.10458785   97.1199 
2151.0000   0.10269974   95.9948 
2152.0000   0.10257818   101.5841 
2153.0000   0.10474001   101.8376 
2154.0000   0.10519691   101.0718 
2155.0000   0.10486621   102.4896 
2156.0000   0.10725613   103.2382 
2157.0000   0.10309457   108.8276 
2158.0000   0.10842099   108.7839 
2159.0000   0.10881148   109.7387 
2160.0000   0.11085684   110.7484 
2161.0000   0.11062433   112.5860 
2162.0000   0.11277612   109.6152 
2163.0000   0.10981320   115.5181 
2164.0000   0.11274237   114.7039 
2165.0000   0.11322075   116.7072 
2166.0000   0.11425626   116.3784 
2167.0000   0.11096539   120.8433 
2168.0000   0.11409526   120.4722 
2169.0000   0.11396383   123.3069 
2170.0000   0.11414186   125.4769 
2171.0000   0.11586694   125.8881 
2172.0000   0.11908987   125.9995 
2173.0000   0.11828366   128.1609 
2174.0000   0.11948360   130.1391 
2175.0000   0.11367123   131.6235 
2176.0000   0.11925086   132.8248 
2177.0000   0.12033324   132.7465 
2178.0000   0.11769117   134.0243 
2179.0000   0.11996267   137.8232 
2180.0000   0.12159478   137.5155 
2181.0000   0.11837764   157.3095 
2182.0000   0.12134925   140.9034 
2183.0000   0.12433044   154.3179 
2184.0000   0.11966405   147.8215 
2185.0000   0.12405575   147.8698 
2186.0000   0.12669025   146.6187 
2187.0000   0.12353799   147.2852 
2188.0000   0.12483896   150.4525 
2189.0000   0.12283055   151.3844 
2190.0000   0.12528734   153.3208 
2191.0000   0.12334586   155.8429 
2192.0000   0.12627530   155.9260 
2193.0000   0.12653609   159.8647 
2194.0000   0.12746003   159.7708 
2195.0000   0.12728630   159.9405 
2196.0000   0.12827299   163.3290 
2197.0000   0.12555718   163.6320 
2198.0000   0.12893344   165.4626 
2199.0000   0.12640917   167.5000 
2200.0000   0.13199409   168.6057 
2201.0000   0.13110950   170.6780 
2202.0000   0.13293243   171.5854 
2203.0000   0.12850276   175.1968 
2204.0000   0.13228000   176.6664 
2205.0000   0.13170758   176.4901 
2206.0000   0.12600748   -179.7589 
2207.0000   0.13164025   -178.8389 
2208.0000   0.13237683   -176.8505 
2209.0000   0.12481470   -175.3450 
2210.0000   0.13102084   -173.5680 
2211.0000   0.12570690   -172.9627 
2212.0000   0.12730916   -169.5802 
2213.0000   0.12682806   -168.7771 
2214.0000   0.12544277   -167.3742 
2215.0000   0.11919959   -163.4118 
2216.0000   0.12531480   -162.9492 
2217.0000   0.12079768   -159.4129 
2218.0000   0.12338451   -159.6687 
2219.0000   0.11806477   -158.2352 
2220.0000   0.12166483   -156.2737 
2221.0000   0.12135228   -153.4706 
2222.0000   0.11989908   -145.4847 
2223.0000   0.12041299   -150.1966 
2224.0000   0.11557967   -147.8112 
2225.0000   0.11959871   -146.1609 
2226.0000   0.11920541   -145.4837 
2227.0000   0.11884171   -143.4732 
2228.0000   0.11717687   -143.9158 
2229.0000   0.11607124   -139.3362 
2230.0000   0.11748520   -137.6076 
2231.0000   0.11365265   -135.6347 
2232.0000   0.11767721   -134.8468 
2233.0000   0.11018240   -131.2136 
2234.0000   0.11606240   -131.3728 
2235.0000   0.11014693   -129.0726 
2236.0000   0.11372757   -128.3207 
2237.0000   0.11016224   -125.8141 
2238.0000   0.10489710   -124.1075 
2239.0000   0.10813538   -122.8201 
2240.0000   0.10889714   -121.5098 
2241.0000   0.10689051   -120.7712 
2242.0000   0.10623838   -116.7280 
2243.0000   0.10449020   -116.0191 
2244.0000   0.10391196   -115.5273 
2245.0000   0.10216110   -113.4433 
2246.0000   0.09794073   -110.3402 
2247.0000   0.10020687   -110.1930 
2248.0000   0.09983485   -110.6744 
2249.0000   0.09496825   -106.7033 
2250.0000   0.09716082   -106.4813 
2251.0000   0.09491458   -104.7574 
2252.0000   0.09483467   -103.4624 
2253.0000   0.09397442   -102.1258 
2254.0000   0.08731429   -99.3471 
2255.0000   0.09174456   -98.2808 
2256.0000   0.09018692   -98.3259 
2257.0000   0.08826553   -95.8929 
2258.0000   0.08617575   -83.0427 
2259.0000   0.08690984   -93.8194 
2260.0000   0.08300265   -90.2751 
2261.0000   0.08315235   -90.0942 
2262.0000   0.08267262   -89.3096 
2263.0000   0.08199800   -88.8339 
2264.0000   0.08038686   -79.0773 
2265.0000   0.07934853   -85.8488 
2266.0000   0.07713390   -83.0270 
2267.0000   0.07637382   -84.5552 
2268.0000   0.07317540   -80.9538 
2269.0000   0.07522315   -80.0028 
2270.0000   0.06985829   -78.5474 
2271.0000   0.07269642   -77.6218 
2272.0000   0.07203257   -77.1140 
2273.0000   0.07127203   -75.5821 
2274.0000   0.07031602   -72.5458 
2275.0000   0.06956541   -73.3315 
2276.0000   0.06717846   -71.1393 
2277.0000   0.06771242   -72.7511 
2278.0000   0.06683711   -68.9015 
2279.0000   0.06581607   -67.4454 
2280.0000   0.06705603   -69.9531 
2281.0000   0.06249168   -66.0182 
2282.0000   0.06367172   -65.1785 
2283.0000   0.06355364   -64.5549 
2284.0000   0.06315571   -62.2789 
2285.0000   0.06254807   -63.3291 
2286.0000   0.06024859   -59.2258 
2287.0000   0.06121197   -61.0017 
2288.0000   0.06084065   -59.5471 
2289.0000   0.05705050   -58.2676 
2290.0000   0.05946441   -55.5063 
2291.0000   0.05792954   -57.1515 
2292.0000   0.05591589   -55.4767 
2293.0000   0.05558750   -54.0626 
2294.0000   0.05726272   -54.1106 
2295.0000   0.05721822   -52.9312 
2296.0000   0.05434365   -50.9906 
2297.0000   0.05654513   -51.1612 
2298.0000   0.05565959   -50.7628 
2299.0000   0.05537711   -48.0900 
2300.0000   0.05502102   -47.4460 
2301.0000   0.05468292   -47.2058 
2302.0000   0.05449086   -45.5244 
2303.0000   0.05466934   -45.9569 
2304.0000   0.05451062   -44.3641 
2305.0000   0.05399288   -43.2426 
2306.0000   0.05193116   -41.6365 
2307.0000   0.05265911   -41.8824 
2308.0000   0.05325849   -40.2564 
2309.0000   0.05130722   -38.5097 
2310.0000   0.05231786   -39.2439 
2311.0000   0.05220144   -38.3266 
2312.0000   0.05174026   -38.7409 
2313.0000   0.05201522   -35.8884 
2314.0000   0.05146092   -37.3741 
2315.0000   0.04859001   -34.0854 
2316.0000   0.05126932   -34.5742 
2317.0000   0.05094134   -32.6686 
2318.0000   0.04848584   -31.4126 
2319.0000   0.05049508   -32.1056 
2320.0000   0.05003407   -28.6895 
2321.0000   0.04808231   -25.9153 
2322.0000   0.05028614   -29.2117 
2323.0000   0.05095373   -24.5842 
2324.0000   0.05070067   -26.2494 
2325.0000   0.05074676   -27.2989 
2326.0000   0.04858570   -24.7310 
2327.0000   0.05080748   -23.9219 
2328.0000   0.05129983   -24.6427 
2329.0000   0.05061861   -22.1106 
2330.0000   0.04916476   -19.6634 
2331.0000   0.05087748   -20.5658 
2332.0000   0.05069007   -20.3473 
2333.0000   0.05089293   -19.9479 
2334.0000   0.05010300   -18.2622 
2335.0000   0.05053497   -16.8040 
2336.0000   0.04888569   -14.8249 
2337.0000   0.05047653   -14.9618 
2338.0000   0.05131628   -14.1672 
2339.0000   0.05071251   -14.9583 
2340.0000   0.05120154   -12.6319 
2341.0000   0.05103606   -11.5891 
2342.0000   0.05131504   -11.2627 
2343.0000   0.05110207   -9.9337 
2344.0000   0.05185292   -10.3206 
2345.0000   0.05019680   -7.2679 
2346.0000   0.05165518   -6.2225 
2347.0000   0.05200180   -6.0791 
2348.0000   0.05226325   -6.9823 
2349.0000   0.05213587   -3.4421 
2350.0000   0.05235487   -3.6636 
2351.0000   0.05350553   -2.5033 
2352.0000   0.05204682   0.7805 
2353.0000   0.05325478   0.9909 
2354.0000   0.05495124   0.9896 
2355.0000   0.05323736   2.6137 
2356.0000   0.05493024   3.5645 
2357.0000   0.05448484   4.9884 
2358.0000   0.05197686   6.5956 
2359.0000   0.05521963   7.1272 
2360.0000   0.05483647   6.0329 
2361.0000   0.05581566   9.3617 
2362.0000   0.05618414   8.9443 
2363.0000   0.05359479   12.1994 
2364.0000   0.05639050   13.9535 
2365.0000   0.05508651   15.5219 
2366.0000   0.05655304   15.3035 
2367.0000   0.05674145   14.9223 
2368.0000   0.05523795   18.8060 
2369.0000   0.05754857   18.8191 
2370.0000   0.05781865   18.2876 
2371.0000   0.05773392   22.3456 
2372.0000   0.05849428   22.5964 
2373.0000   0.05598450   26.7710 
2374.0000   0.05929971   25.8502 
2375.0000   0.05862933   27.4536 
2376.0000   0.06037885   29.2809 
2377.0000   0.05882216   30.3556 
2378.0000   0.05837613   32.5518 
2379.0000   0.05921401   33.5681 
2380.0000   0.06070262   34.7383 
2381.0000   0.05991229   33.9272 
2382.0000   0.05780187   38.4671 
2383.0000   0.05974402   38.5032 
2384.0000   0.05960695   40.2885 
2385.0000   0.05954270   43.1422 
2386.0000   0.05943252   41.7356 
2387.0000   0.05610974   45.5166 
2388.0000   0.05919543   46.2304 
2389.0000   0.05966295   46.9937 
2390.0000   0.05951149   48.5634 
2391.0000   0.05921385   50.6240 
2392.0000   0.05941951   50.7155 
2393.0000   0.05903655   52.5628 
2394.0000   0.05924040   53.3937 
2395.0000   0.05778174   53.2301 
2396.0000   0.05869736   64.4743 
2397.0000   0.05864959   57.1049 
2398.0000   0.05552166   61.3952 
2399.0000   0.05811194   62.7104 
2400.0000   0.06093571   64.6747 
2401.0000   0.05848460   62.2160 
2402.0000   0.06057528   68.6607 
2403.0000   0.05655719   67.9569 
2404.0000   0.05774821   70.5161 
2405.0000   0.05925398   70.7831 
2406.0000   0.05845731   72.9752 
2407.0000   0.05816093   76.8495 
2408.0000   0.05427732   75.3408 
2409.0000   0.05805691   79.7775 
2410.0000   0.05214551   77.4900 
2411.0000   0.05663907   81.7529 
2412.0000   0.05788640   82.5597 
2413.0000   0.05732223   81.5568 
2414.0000   0.05706284   86.7143 
2415.0000   0.05540100   87.3206 
2416.0000   0.05560035   90.3391 
2417.0000   0.05090451   86.7769 
2418.0000   0.05671581   88.8791 
2419.0000   0.05186927   92.0557 
2420.0000   0.05541382   93.4260 
2421.0000   0.05505254   93.9089 
2422.0000   0.05386984   98.1976 
2423.0000   0.05322928   98.9267 
2424.0000   0.05141588   90.6919 
2425.0000   0.04836704   91.8128 
2426.0000   0.05053089   94.4357 
2427.0000   0.04914284   94.0205 
2428.0000   0.04979469   95.9588 
2429.0000   0.04899860   96.0029 
2430.0000   0.04899809   97.1395 
2431.0000   0.04862266   100.5624 
2432.0000   0.04801782   98.9485 
2433.0000   0.04811723   99.4276 
2434.0000   0.04692498   99.6516 
2435.0000   0.04713733   99.9739 
2436.0000   0.04602379   101.7489 
2437.0000   0.04686747   100.4866 
2438.0000   0.04614279   99.5984 
2439.0000   0.04745495   102.1124 
2440.0000   0.04676297   99.5854 
2441.0000   0.04733374   98.1109 
2442.0000   0.04668279   101.5984 
2443.0000   0.04773196   100.6415 
2444.0000   0.04668319   100.8138 
2445.0000   0.04767995   113.3605 
2446.0000   0.04797289   104.2210 
2447.0000   0.04751100   113.9561 
2448.0000   0.04702488   102.5676 
2449.0000   0.04668322   108.8361 
2450.0000   0.04818229   107.6270 
2451.0000   0.04822342   106.6151 
2452.0000   0.04792800   110.1922 
2453.0000   0.04805701   109.2055 
2454.0000   0.04779903   110.9145 
2455.0000   0.04637152   115.3376 
2456.0000   0.04845142   114.6712 
2457.0000   0.04819674   114.8357 
2458.0000   0.04901328   116.6216 
2459.0000   0.04902092   113.3856 
2460.0000   0.04943183   117.4989 
2461.0000   0.04974636   118.8342 
2462.0000   0.04747478   115.4284 
2463.0000   0.04869803   119.2825 
2464.0000   0.04991257   121.4885 
2465.0000   0.05021143   122.9864 
2466.0000   0.04902520   123.5948 
2467.0000   0.05113743   124.0835 
2468.0000   0.05167005   122.8653 
2469.0000   0.05207157   123.6292 
2470.0000   0.05056538   127.1485 
2471.0000   0.05174744   127.3177 
2472.0000   0.05208233   127.9090 
2473.0000   0.05251220   129.1176 
2474.0000   0.05234593   129.3884 
2475.0000   0.05289606   129.8945 
2476.0000   0.05348118   131.6346 
2477.0000   0.05165070   134.1503 
2478.0000   0.05395284   132.9233 
2479.0000   0.05362133   134.2074 
2480.0000   0.05224961   136.1861 
2481.0000   0.05384526   135.0098 
2482.0000   0.05439679   135.8779 
2483.0000   0.05264842   138.1406 
2484.0000   0.05449626   140.9046 
2485.0000   0.05424818   140.8195 
2486.0000   0.05548361   140.8789 
2487.0000   0.05584240   140.0311 
2488.0000   0.05604798   143.4062 
2489.0000   0.05654400   142.7534 
2490.0000   0.05694829   146.0416 
2491.0000   0.05732718   144.6328 
2492.0000   0.05642548   148.1235 
2493.0000   0.05570110   149.6202 
2494.0000   0.05784206   148.8977 
2495.0000   0.05644071   150.5659 
2496.0000   0.05986435   150.4298 
2497.0000   0.05986943   149.9679 
2498.0000   0.05985244   152.8899 
2499.0000   0.06034044   155.2604 
2500.0000   0.06147187   155.1977 
2501.0000   0.05990443   157.4461 
2502.0000   0.06252095   158.4546 
2503.0000   0.06156357   159.0292 
2504.0000   0.06348551   159.3596 
2505.0000   0.06452791   160.0703 
2506.0000   0.06488455   161.9893 
2507.0000   0.06559743   162.5535 
2508.0000   0.06753152   163.5533 
2509.0000   0.06855329   164.8013 
2510.0000   0.06889078   164.8327 
2511.0000   0.06869968   168.3934 
2512.0000   0.07147294   169.8886 
2513.0000   0.06990027   171.6180 
2514.0000   0.07347881   172.3934 
2515.0000   0.07475501   172.1580 
2516.0000   0.07578415   172.2403 
2517.0000   0.07457277   177.3852 
2518.0000   0.07820694   176.7133 
2519.0000   0.07816174   179.9771 
2520.0000   0.08245213   179.9158 
2521.0000   0.08117099   -178.5462 
2522.0000   0.08515930   -176.6986 
2523.0000   0.08394190   -174.3144 
2524.0000   0.08761363   -171.8643 
2525.0000   0.08733666   -172.1691 
2526.0000   0.08950934   -169.9844 
2527.0000   0.08872575   -167.1986 
2528.0000   0.09207049   -166.4919 
2529.0000   0.09499593   -165.1092 
2530.0000   0.09409452   -161.9841 
2531.0000   0.09738162   -161.7903 
2532.0000   0.09810648   -158.8749 
2533.0000   0.10144149   -158.2323 
2534.0000   0.10338331   -157.9987 
2535.0000   0.10368603   -154.6844 
2536.0000   0.10542645   -153.5006 
2537.0000   0.10392866   -150.1195 
2538.0000   0.11043229   -150.9456 
2539.0000   0.11185112   -148.0412 
2540.0000   0.11157057   -145.7439 
2541.0000   0.11470228   -143.4530 
2542.0000   0.11543694   -143.4272 
2543.0000   0.11515867   -137.9790 
2544.0000   0.12011546   -137.3272 
2545.0000   0.11644955   -132.5675 
2546.0000   0.12367846   -133.2953 
2547.0000   0.11672222   -130.0093 
2548.0000   0.12154550   -128.5849 
2549.0000   0.12496576   -128.1209 
2550.0000   0.12388324   -122.4189 
2551.0000   0.12512194   -122.3718 
2552.0000   0.12816793   -120.7274 
2553.0000   0.12333444   -116.5215 
2554.0000   0.12573005   -114.8453 
2555.0000   0.12715441   -113.0884 
2556.0000   0.12537132   -111.6770 
2557.0000   0.13045771   -115.9944 
2558.0000   0.13195249   -106.7461 
2559.0000   0.13172223   -107.4438 
2560.0000   0.13036593   -104.3236 
2561.0000   0.13196582   -101.3782 
2562.0000   0.12854761   -89.7612 
2563.0000   0.13085985   -101.4633 
2564.0000   0.13105243   -97.0541 
2565.0000   0.12707680   -92.5300 
2566.0000   0.12851474   -91.8320 
2567.0000   0.13072595   -91.1339 
2568.0000   0.13044176   -86.3813 
2569.0000   0.12892632   -87.7436 
2570.0000   0.12880507   -86.4754 
2571.0000   0.12623952   -81.0606 
2572.0000   0.12765981   -86.0322 
