# MHz S MA R 50.0
2000.0000   0.07745928   -9.6768 
2001.0000   0.07316731   -8.6914 
2002.0000   0.07839573   -7.2261 
2003.0000   0.07725012   -4.0347 
2004.0000   0.08171556   -4.9813 
2005.0000   0.08059216   -0.9637 
2006.0000   0.08200227   -0.8370 
2007.0000   0.08099158   0.7683 
2008.0000   0.08212124   0.0569 
2009.0000   0.08290966   4.4479 
2010.0000   0.08364878   2.0492 
2011.0000   0.08368380   3.0377 
2012.0000   0.08567870   5.8424 
2013.0000   0.08152328   3.8422 
2014.0000   0.08734675   9.1907 
2015.0000   0.08821245   9.8266 
2016.0000   0.08773710   9.5552 
2017.0000   0.08955041   13.0930 
2018.0000   0.09244998   12.7422 
2019.0000   0.08813203   11.1481 
2020.0000   0.09231706   14.9362 
2021.0000   0.08677659   13.9464 
2022.0000   0.09458531   18.4627 
2023.0000   0.09022049   18.3568 
2024.0000   0.09668058   24.9686 
2025.0000   0.09468075   20.9985 
2026.0000   0.09939319   24.2377 
2027.0000   0.09786994   25.1880 
2028.0000   0.10487460   27.0082 
2029.0000   0.10062034   27.1491 
2030.0000   0.10921315   39.9223 
2031.0000   0.10575433   33.1790 
2032.0000   0.10143258   31.4852 
2033.0000   0.11179196   37.9435 
2034.0000   0.11085108   46.7090 
2035.0000   0.11262339   36.6871 
2036.0000   0.11421974   45.4294 
2037.0000   0.11536304   40.6621 
2038.0000   0.11701451   52.0408 
2039.0000   0.11748167   43.6801 
2040.0000   0.12045775   45.3290 
2041.0000   0.11970697   48.1684 
2042.0000   0.12209907   49.0239 
2043.0000   0.12127999   51.8370 
2044.0000   0.11898038   51.3244 
2045.0000   0.12328436   53.0597 
2046.0000   0.12423507   56.1365 
2047.0000   0.12382693   57.9374 
2048.0000   0.12614916   61.3097 
2049.0000   0.12197896   61.2175 
2050.0000   0.12885413   63.8891 
2051.0000   0.12639223   64.4829 
2052.0000   0.13281074   66.5996 
2053.0000   0.12856587   65.9176 
2054.0000   0.13419155   70.3962 
2055.0000   0.13278628   71.8274 
2056.0000   0.13464075   73.0180 
2057.0000   0.13134802   75.6810 
2058.0000   0.13560658   77.1787 
2059.0000   0.13626299   78.7455 
2060.0000   0.13734957   79.8121 
2061.0000   0.13571783   83.3966 
2062.0000   0.13677192   83.9003 
2063.0000   0.13813812   86.9336 
2064.0000   0.14156092   87.8944 
2065.0000   0.14132932   89.5499 
2066.0000   0.14409438   92.2215 
2067.0000   0.13765241   93.3231 
2068.0000   0.14369899   96.3031 
2069.0000   0.14044256   97.3791 
2070.0000   0.14461571   96.8023 
2071.0000   0.14468489   100.2386 
2072.0000   0.14133106   100.5253 
2073.0000   0.14560174   103.1419 
2074.0000   0.14471765   107.9172 
2075.0000   0.14305883   107.3602 
2076.0000   0.14815013   110.1631 
2077.0000   0.14381747   111.1349 
2078.0000   0.14903274   113.1729 
2079.0000   0.14458046   115.5124 
2080.0000   0.14605095   118.1902 
2081.0000   0.14561659   118.5716 
2082.0000   0.14675967   119.5730 
2083.0000   0.14458509   122.0761 
2084.0000   0.14717709   123.8663 
2085.0000   0.14447830   125.8550 
2086.0000   0.14500901   126.5534 
2087.0000   0.14598240   127.2951 
2088.0000   0.14475081   132.0228 
2089.0000   0.14219784   132.0499 
2090.0000   0.14488404   135.9044 
2091.0000   0.14207777   127.2749 
2092.0000   0.14327174   136.2859 
2093.0000   0.14128217   127.5261 
2094.0000   0.13913957   138.6420 
2095.0000   0.14010606   140.8778 
2096.0000   0.13898378   147.8830 
2097.0000   0.14031011   143.7501 
2098.0000   0.13764397   146.5066 
2099.0000   0.13735977   137.2951 
2100.0000   0.14037111   148.7983 
2101.0000   0.13865341   149.6257 
2102.0000   0.13926251   151.9396 
2103.0000   0.13533729   148.0957 
2104.0000   0.13569100   155.4816 
2105.0000   0.13466359   153.5689 
2106.0000   0.13282545   154.9446 
2107.0000   0.13285047   157.9794 
2108.0000   0.13261283   158.7804 
2109.0000   0.13004428   158.9877 
2110.0000   0.13059164   163.3456 
2111.0000   0.12901637   163.8335 
2112.0000   0.12979722   164.1928 
2113.0000   0.12305073   166.6623 
2114.0000   0.12861557   163.7300 
2115.0000   0.12558360   170.1634 
2116.0000   0.12321406   169.5754 
2117.0000   0.12355158   173.1503 
2118.0000   0.12146756   172.6368 
2119.0000   0.12078878   174.3670 
2120.0000   0.12086478   175.5198 
2121.0000   0.11567269   176.6075 
2122.0000   0.11491063   177.9056 
2123.0000   0.11475368   177.8632 
2124.0000   0.11811201   177.4525 
2125.0000   0.11545800   -178.0191 
2126.0000   0.11632416   -178.4526 
2127.0000   0.11401416   -175.3568 
2128.0000   0.10931207   -173.8959 
2129.0000   0.11039627   -174.4159 
2130.0000   0.11017299   -175.0968 
2131.0000   0.10846847   -172.2133 
2132.0000   0.10702464   -168.9108 
2133.0000   0.10599488   -170.0010 
2134.0000   0.10476645   -165.3133 
2135.0000   0.10534146   -167.5019 
2136.0000   0.10319327   -164.4214 
2137.0000   0.10472742   -165.2096 
2138.0000   0.10458771   -161.9330 
2139.0000   0.10149032   -162.7813 
2140.0000   0.10104908   -161.3491 
2141.0000   0.09701356   -156.9200 
2142.0000   0.09955309   -158.3822 
2143.0000   0.09614147   -158.0918 
2144.0000   0.09775237   -156.3401 
2145.0000   0.09187817   -152.0627 
2146.0000   0.09583937   -152.9191 
2147.0000   0.09494888   -155.2581 
2148.0000   0.09631697   -151.8946 
2149.0000   0.09405657   -152.9766 
2150.0000   0.09392615   -149.1359 
2151.0000   0.09160030   -148.9369 
2152.0000   0.09184719   -149.0583 
2153.0000   0.08770341   -145.1632 
2154.0000   0.08824750   -148.1660 
2155.0000   0.09018693   -143.9593 
2156.0000   0.08635685   -142.5976 
2157.0000   0.08667494   -141.9503 
2158.0000   0.08848512   -142.8127 
2159.0000   0.08641739   -141.2491 
2160.0000   0.08752893   -138.5944 
2161.0000   0.08305499   -135.3098 
2162.0000   0.08690928   -136.4277 
2163.0000   0.08052756   -136.0404 
2164.0000   0.08416738   -134.1431 
2165.0000   0.08132020   -131.6467 
2166.0000   0.08321898   -130.6042 
2167.0000   0.08198601   -130.2632 
2168.0000   0.08269883   -129.6840 
2169.0000   0.07959952   -127.6527 
2170.0000   0.08181154   -126.6498 
2171.0000   0.08046354   -124.8836 
2172.0000   0.08254322   -127.0968 
2173.0000   0.08067333   -123.4577 
2174.0000   0.08051611   -125.2867 
2175.0000   0.08000584   -123.2141 
2176.0000   0.07693665   -120.4918 
2177.0000   0.07811341   -119.1677 
2178.0000   0.07441371   -116.8955 
2179.0000   0.07813303   -117.9595 
2180.0000   0.07678526   -118.6582 
2181.0000   0.07448940   -113.0818 
2182.0000   0.07550608   -113.0997 
2183.0000   0.07558713   -112.6894 
2184.0000   0.07806170   -111.3323 
2185.0000   0.07064991   -106.9790 
2186.0000   0.07653561   -110.6930 
2187.0000   0.07461522   -107.7631 
2188.0000   0.07387270   -106.9722 
2189.0000   0.07559370   -107.7836 
2190.0000   0.07353971   -101.3337 
2191.0000   0.07479993   -102.0675 
2192.0000   0.07457361   -103.3583 
2193.0000   0.07082581   -98.5306 
2194.0000   0.07338049   -99.6620 
2195.0000   0.06873146   -95.4744 
2196.0000   0.07272575   -96.5136 
2197.0000   0.07391873   -96.6861 
2198.0000   0.07286019   -91.5261 
2199.0000   0.07220472   -91.4293 
2200.0000   0.07384317   -90.7616 
2201.0000   0.07516352   -91.0291 
2202.0000   0.07285279   -85.3237 
2203.0000   0.07570515   -86.9194 
2204.0000   0.07517463   -85.3674 
2205.0000   0.07529999   -82.7027 
2206.0000   0.07430631   -81.7506 
2207.0000   0.07185272   -79.5290 
2208.0000   0.07518800   -79.7172 
2209.0000   0.07236155   -77.2682 
2210.0000   0.07255778   -74.9112 
2211.0000   0.07342780   -74.9123 
2212.0000   0.07077851   -71.2839 
2213.0000   0.07346674   -71.9408 
2214.0000   0.06970850   -69.5221 
2215.0000   0.07205133   -68.5780 
2216.0000   0.07195624   -65.6465 
2217.0000   0.07219544   -65.8734 
2218.0000   0.07187520   -63.1561 
2219.0000   0.07141067   -62.9554 
2220.0000   0.07153441   -61.0641 
2221.0000   0.06773016   -58.3649 
2222.0000   0.07136923   -57.6862 
2223.0000   0.06884601   -54.4842 
2224.0000   0.07107989   -55.6690 
2225.0000   0.06952868   -52.9507 
2226.0000   0.07071985   -49.7544 
2227.0000   0.07059383   -50.0326 
2228.0000   0.07053577   -49.9114 
2229.0000   0.06923215   -47.9997 
2230.0000   0.06803307   -46.3216 
2231.0000   0.06993657   -44.6883 
2232.0000   0.06885787   -42.5680 
2233.0000   0.06731604   -39.6715 
2234.0000   0.06974088   -39.6141 
2235.0000   0.06901189   -38.3291 
2236.0000   0.06809285   -36.0493 
2237.0000   0.06617294   -35.1084 
2238.0000   0.06843816   -33.9479 
2239.0000   0.06555786   -32.3373 
2240.0000   0.06786438   -30.5474 
2241.0000   0.06678798   -30.1084 
2242.0000   0.06408006   -29.4404 
2243.0000   0.06523148   -25.8196 
2244.0000   0.06556248   -25.5451 
2245.0000   0.06532817   -23.4596 
2246.0000   0.06395853   -21.9256 
2247.0000   0.06471456   -22.3609 
2248.0000   0.06442705   -19.5465 
2249.0000   0.06407096   -18.3944 
2250.0000   0.06212881   -18.3589 
2251.0000   0.06220859   -16.0899 
2252.0000   0.06209642   -15.8102 
2253.0000   0.06191355   -13.5915 
2254.0000   0.06134836   -11.9331 
2255.0000   0.06147223   -11.2375 
2256.0000   0.06130815   -9.8991 
2257.0000   0.06076796   -8.4910 
2258.0000   0.06033549   -7.5102 
2259.0000   0.05982704   -7.4758 
2260.0000   0.05977822   -5.2320 
2261.0000   0.05853936   -4.1739 
2262.0000   0.05830815   -2.7788 
2263.0000   0.05645693   -1.4032 
2264.0000   0.05691656   -0.5625 
2265.0000   0.05672718   -1.0383 
2266.0000   0.05437068   2.3242 
2267.0000   0.05597380   0.0672 
2268.0000   0.05531878   4.1659 
2269.0000   0.05508503   4.3291 
2270.0000   0.05337846   6.2738 
2271.0000   0.05400181   4.7403 
2272.0000   0.05322095   6.3686 
2273.0000   0.05360138   8.4480 
2274.0000   0.05098403   11.1482 
2275.0000   0.05267234   9.5334 
2276.0000   0.05203093   11.2481 
2277.0000   0.05192763   10.8571 
2278.0000   0.05139851   12.9433 
2279.0000   0.05173709   13.6038 
2280.0000   0.05095539   15.6378 
2281.0000   0.04829917   17.3869 
2282.0000   0.05145855   16.8453 
2283.0000   0.04987365   17.6159 
2284.0000   0.04897722   18.7842 
2285.0000   0.04953451   19.4718 
2286.0000   0.04884997   20.5934 
2287.0000   0.04930265   20.5960 
2288.0000   0.04887484   19.9691 
2289.0000   0.04887137   21.7718 
2290.0000   0.04794988   25.3994 
2291.0000   0.04823149   23.9550 
2292.0000   0.04794737   24.3790 
2293.0000   0.04734322   24.1446 
2294.0000   0.04771233   26.8995 
2295.0000   0.04754204   27.5073 
2296.0000   0.04741204   28.5871 
2297.0000   0.04729503   30.1349 
2298.0000   0.04632090   30.0486 
2299.0000   0.04726139   30.0460 
2300.0000   0.04724054   31.5477 
2301.0000   0.04502523   33.4542 
2302.0000   0.04676117   32.0645 
2303.0000   0.04509838   33.0205 
2304.0000   0.04798291   33.5241 
2305.0000   0.04526528   36.9424 
2306.0000   0.04769435   36.0891 
2307.0000   0.04581796   37.5494 
2308.0000   0.04713075   36.6898 
2309.0000   0.04642376   38.1245 
2310.0000   0.04694643   38.3410 
2311.0000   0.04474481   39.6262 
2312.0000   0.04730351   39.6824 
2313.0000   0.04685475   41.9066 
2314.0000   0.04671881   41.8619 
2315.0000   0.04495089   41.2753 
2316.0000   0.04734692   42.1821 
2317.0000   0.04635897   43.2608 
2318.0000   0.04746518   42.8629 
2319.0000   0.04748096   45.2229 
2320.0000   0.04686675   46.3556 
2321.0000   0.04759086   46.8515 
2322.0000   0.04715604   46.9033 
2323.0000   0.04795830   48.0709 
2324.0000   0.04823247   48.6245 
2325.0000   0.04862918   48.1419 
2326.0000   0.04829228   50.5310 
2327.0000   0.04671351   51.7892 
2328.0000   0.05010160   51.0739 
2329.0000   0.04846809   52.8455 
2330.0000   0.05034001   52.0355 
2331.0000   0.04979248   54.4067 
2332.0000   0.05018293   54.2748 
2333.0000   0.04998798   56.3172 
2334.0000   0.05052241   55.0052 
2335.0000   0.05060613   57.0035 
2336.0000   0.05112848   57.2617 
2337.0000   0.05099708   59.3241 
2338.0000   0.04946578   58.8194 
2339.0000   0.05184383   60.4096 
2340.0000   0.04997573   61.0377 
2341.0000   0.05223687   62.0901 
2342.0000   0.05089245   63.7362 
2343.0000   0.05283006   63.4542 
2344.0000   0.05333901   64.7497 
2345.0000   0.05402570   63.9898 
2346.0000   0.05456767   65.8908 
2347.0000   0.05352240   67.5284 
2348.0000   0.05504634   67.7659 
2349.0000   0.05278506   70.1817 
2350.0000   0.05615742   70.3220 
2351.0000   0.05666014   70.4277 
2352.0000   0.05762481   73.1220 
2353.0000   0.05612466   73.3335 
2354.0000   0.05887269   74.2987 
2355.0000   0.05569221   75.2229 
2356.0000   0.05896587   75.9102 
2357.0000   0.05942067   76.8489 
2358.0000   0.05750378   80.0729 
2359.0000   0.06029471   79.6081 
2360.0000   0.05778973   82.2499 
2361.0000   0.06148755   82.2960 
2362.0000   0.06192533   83.4384 
2363.0000   0.06034726   84.6995 
2364.0000   0.06190423   86.2412 
2365.0000   0.06277521   82.9888 
2366.0000   0.06300718   87.2800 
2367.0000   0.06082329   88.9253 
2368.0000   0.06322215   91.2533 
2369.0000   0.06355286   92.9515 
2370.0000   0.06433574   92.3997 
2371.0000   0.06316887   96.2155 
2372.0000   0.06663582   96.5230 
2373.0000   0.06698922   95.2622 
2374.0000   0.06728416   99.8195 
2375.0000   0.06729387   98.1443 
2376.0000   0.07013624   100.6409 
2377.0000   0.06348033   103.4608 
2378.0000   0.07089707   103.9409 
2379.0000   0.06919943   104.8034 
2380.0000   0.06735797   107.3259 
2381.0000   0.07000738   108.3352 
2382.0000   0.06874483   108.3906 
2383.0000   0.07079378   111.4762 
2384.0000   0.06877155   112.1430 
2385.0000   0.07179718   113.7774 
2386.0000   0.06913000   112.0368 
2387.0000   0.07172956   116.3997 
2388.0000   0.06823492   117.6280 
2389.0000   0.07100923   117.7997 
2390.0000   0.07283238   119.5803 
2391.0000   0.07012273   121.5126 
2392.0000   0.07292396   122.5243 
2393.0000   0.06879827   127.7031 
2394.0000   0.07310255   124.3022 
2395.0000   0.07292748   127.5219 
2396.0000   0.07347659   127.2361 
2397.0000   0.07320778   131.0979 
2398.0000   0.07337538   131.2328 
2399.0000   0.07169024   134.2920 
2400.0000   0.07401167   136.1662 
2401.0000   0.07197259   136.6368 
2402.0000   0.07492650   138.8326 
2403.0000   0.06929261   142.7476 
2404.0000   0.06993480   140.1829 
2405.0000   0.07357798   142.1525 
2406.0000   0.07217186   142.9998 
2407.0000   0.07223034   145.3155 
2408.0000   0.07299050   143.9484 
2409.0000   0.07258072   146.8278 
2410.0000   0.06995927   145.2501 
2411.0000   0.07197046   150.4556 
2412.0000   0.07208359   152.9527 
2413.0000   0.06932598   151.2493 
2414.0000   0.07200272   154.9397 
2415.0000   0.06763668   157.9695 
2416.0000   0.07220573   156.1873 
2417.0000   0.06959999   159.0741 
2418.0000   0.06780307   160.0431 
2419.0000   0.06855003   165.5203 
2420.0000   0.06718904   167.1297 
2421.0000   0.06729830   164.3082 
2422.0000   0.06856369   166.4063 
2423.0000   0.06866394   168.3969 
2424.0000   0.06595305   170.6025 
2425.0000   0.06716019   169.4986 
2426.0000   0.06910982   170.7767 
2427.0000   0.06750781   172.7679 
2428.0000   0.06788090   172.6474 
2429.0000   0.06495578   174.5107 
2430.0000   0.06771181   174.6870 
2431.0000   0.06379568   177.0989 
2432.0000   0.06821602   174.2634 
2433.0000   0.06713978   178.1345 
2434.0000   0.06755279   175.9622 
2435.0000   0.06544129   178.1319 
2436.0000   0.06811879   177.3923 
2437.0000   0.06748854   178.4492 
2438.0000   0.06579150   -176.6763 
2439.0000   0.06765245   179.8883 
2440.0000   0.06801297   -177.5511 
2441.0000   0.06753978   179.7812 
2442.0000   0.06920319   179.3524 
2443.0000   0.06927911   -178.0505 
2444.0000   0.06950866   -178.2815 
2445.0000   0.06921321   -175.3778 
2446.0000   0.06979104   -174.8096 
2447.0000   0.06979947   -173.1045 
2448.0000   0.07224054   -174.4292 
2449.0000   0.07084750   -171.0921 
2450.0000   0.07273332   -172.6845 
2451.0000   0.07212669   -169.2019 
2452.0000   0.07201596   -171.2786 
2453.0000   0.07226263   -166.9441 
2454.0000   0.07331003   -167.9001 
2455.0000   0.07406759   -165.8351 
2456.0000   0.07336855   -165.0963 
2457.0000   0.07404688   -163.9390 
2458.0000   0.07431144   -162.7750 
2459.0000   0.07652900   -161.9567 
2460.0000   0.07505571   -159.1468 
2461.0000   0.07316887   -160.6792 
2462.0000   0.07904330   -158.2248 
2463.0000   0.07769760   -157.4917 
2464.0000   0.08006248   -158.0909 
2465.0000   0.08112243   -156.2368 
2466.0000   0.08105208   -153.0317 
2467.0000   0.08219404   -154.9797 
2468.0000   0.08307402   -153.9506 
2469.0000   0.08488748   -153.0138 
2470.0000   0.08578638   -151.7052 
2471.0000   0.08497116   -151.0002 
2472.0000   0.08805879   -149.8986 
2473.0000   0.08778239   -149.0793 
2474.0000   0.08937632   -147.9666 
2475.0000   0.08803163   -146.8084 
2476.0000   0.09135564   -145.2652 
2477.0000   0.09247260   -146.3602 
2478.0000   0.09389765   -144.2899 
2479.0000   0.09412851   -142.6102 
2480.0000   0.09504690   -143.3621 
2481.0000   0.09716910   -140.5340 
2482.0000   0.09747814   -140.3505 
2483.0000   0.09939614   -139.0834 
2484.0000   0.09442969   -136.0484 
2485.0000   0.10161018   -136.5841 
2486.0000   0.10182620   -133.9790 
2487.0000   0.10058917   -135.2992 
2488.0000   0.10393084   -132.3589 
2489.0000   0.10621432   -133.6292 
2490.0000   0.10788172   -130.8266 
2491.0000   0.10748422   -129.4443 
2492.0000   0.10518601   -126.8704 
2493.0000   0.11258617   -127.5872 
2494.0000   0.11091192   -126.0886 
2495.0000   0.11546965   -125.0312 
2496.0000   0.11501274   -123.7110 
2497.0000   0.11622160   -123.6762 
2498.0000   0.12061957   -122.0370 
2499.0000   0.11251500   -120.0104 
2500.0000   0.12265596   -119.7873 
2501.0000   0.12218617   -118.8450 
2502.0000   0.12270646   -116.8780 
2503.0000   0.12546357   -114.8559 
2504.0000   0.12703267   -114.1356 
2505.0000   0.12760114   -113.4828 
2506.0000   0.12861938   -111.9957 
2507.0000   0.12878503   -110.6046 
2508.0000   0.12932405   -108.0354 
2509.0000   0.13136700   -109.2473 
2510.0000   0.13618451   -105.0397 
2511.0000   0.13398977   -104.4813 
2512.0000   0.13768632   -102.7634 
2513.0000   0.13543841   -102.8925 
2514.0000   0.14042335   -99.4396 
2515.0000   0.14084003   -101.0533 
2516.0000   0.13909922   -97.7224 
2517.0000   0.14556788   -95.2996 
2518.0000   0.14016210   -94.3181 
2519.0000   0.14783575   -92.2199 
2520.0000   0.14839535   -91.4888 
2521.0000   0.14907994   -90.5717 
2522.0000   0.15193946   -88.1493 
2523.0000   0.14917522   -86.5950 
2524.0000   0.15356847   -85.8605 
2525.0000   0.15192215   -81.6104 
2526.0000   0.15651347   -80.2236 
2527.0000   0.15471243   -80.3288 
2528.0000   0.15264423   -79.3392 
2529.0000   0.15816649   -76.5487 
2530.0000   0.15924727   -75.3018 
2531.0000   0.15874223   -73.9923 
2532.0000   0.15777814   -72.6672 
2533.0000   0.15559343   -68.7443 
2534.0000   0.16161724   -68.4845 
2535.0000   0.16064533   -65.0810 
2536.0000   0.16182341   -62.8153 
2537.0000   0.16311772   -60.9089 
2538.0000   0.16074806   -59.4763 
2539.0000   0.15771251   -55.4814 
2540.0000   0.16230008   -54.6751 
2541.0000   0.16357740   -53.9325 
2542.0000   0.16522976   -50.6461 
2543.0000   0.15907787   -47.6974 
2544.0000   0.16596710   -47.4061 
2545.0000   0.16082231   -44.3435 
2546.0000   0.16616401   -44.9669 
2547.0000   0.15924004   -39.9427 
2548.0000   0.16216449   -40.9633 
2549.0000   0.16077526   -37.9754 
2550.0000   0.16292935   -34.3278 
2551.0000   0.15641834   -31.1971 
2552.0000   0.15925221   -29.8786 
2553.0000   0.15794849   -28.4591 
2554.0000   0.15582037   -28.0931 
2555.0000   0.15538431   -25.3439 
2556.0000   0.15490633   -23.9753 
2557.0000   0.15521074   -19.6463 
2558.0000   0.15058218   -17.7736 
2559.0000   0.15170917   -16.5349 
2560.0000   0.14809143   -12.3025 
2561.0000   0.14921300   -13.8437 
2562.0000   0.14719188   -5.9635 
2563.0000   0.14538458   -9.5754 
2564.0000   0.14418423   -6.7497 
2565.0000   0.14118623   -5.1761 
2566.0000   0.13970723   -2.6010 
2567.0000   0.13780465   -0.3270 
2568.0000   0.13732449   1.3319 
2569.0000   0.13148974   2.9863 
2570.0000   0.13445700   4.7171 
2571.0000   0.12863184   7.2704 
2572.0000   0.12737053   9.6390 
