!Created with skrf (http://scikit-rf.org).
# MHz S RI R 50.0 
!freq ReS11 ImS11 ReS21 ImS21 ReS12 ImS12 ReS22 ImS22
140.0 0.01249757724301748 0.010263725275250239 0.0013165930808815452 0.001361327405880065 0.03636249431436059 0.006038206737687539 0.003245493964554201 -0.0006977988355929081
150.0 0.007147997447806263 0.008284131060752636 -0.0009569090753767201 -0.001047568790411919 0.036441308579922914 0.005945012285227346 0.0027899010243242345 -0.0012084177415812383
160.0 0.009842559401937543 0.007934498284720006 -0.001964774556050733 -0.004300686896041598 0.03662367790924692 0.0060258832302641065 0.002689888936911814 -0.0015592946743456394
170.0 0.029072683824011424 -0.02136656117378176 -0.0011729892795772378 -0.008327039553956916 0.03671487079538952 0.002700605215893141 0.002516920794215417 -0.0017939048106617142
180.0 0.007134797780562294 0.004624805308604143 0.0004655625766412417 -0.010805171917277008 0.0358135044385873 0.00712066618544384 0.0028174086386490195 -0.002506073235186492
190.0 -0.012273738347890775 0.030085122241027988 -0.004886669806386566 -0.016033243503028323 0.035217970022477806 0.005358917264726382 0.003397481690213568 -0.0032801406802429843
200.0 0.006921609163977215 0.007106415080314571 0.005307064142971921 -0.012567637013602301 0.03560046715390444 0.006895710362448995 0.0035923816910456963 -0.0029283699247478778
210.0 0.005619939094546405 0.00686089534341021 0.007495855116552183 -0.011053951052267152 0.03465248723215689 0.006645958542061988 0.0035493968752539976 -0.003026523793642401
220.0 0.005201027151547823 0.007669840550053696 0.009349175813522091 -0.010300911125093137 0.034139176432749836 0.006967125671978638 0.0036593196823978625 -0.0031160378894596543
230.0 0.003643857323257872 0.006578253715975755 0.010081452743862218 -0.00815106883652709 0.034064987103455145 0.007680978594346256 0.003774585933033648 -0.0030974824428502087
240.0 0.0037719398026409964 0.007446311501295508 0.008618129530423754 -0.006412150038688991 0.034208009617289044 0.008622272538532478 0.0037794036390521755 -0.003366741360900139
250.0 0.004085936741330372 0.010545531046803426 0.007592781378910216 -0.005321954603808531 0.03378175871690872 0.008702909369404587 0.0037287295930288934 -0.0034387241453891055
260.0 0.005747946198752077 0.006850325343191266 0.005253216896962536 -0.0051247244909038755 0.03375709417696262 0.008812303992770882 0.0038134635114182424 -0.0034758302516127494
270.0 0.003202476066650886 0.006600968702301444 0.004385295333895148 -0.0056224662123005205 0.03409197432171561 0.009017480309460075 0.003998488035559098 -0.003669482592185141
280.0 0.004780693182303648 0.008264161569772447 0.0034526855415023517 -0.006881521180223609 0.03443642825353434 0.009265933680154246 0.004019646465579742 -0.003516096573200975
290.0 -0.010027318888063724 0.024495740133692868 -0.0024805570583703827 -0.003107172296968855 0.03474312543130515 0.009953892359309437 0.004195079190707844 -0.0035622278056736574
300.0 0.00570544539814991 0.010375414772089557 0.004480740903257898 -0.009841885058606356 0.03375883993094202 0.00995221458727675 0.004016870838001849 -0.0034035295548282465
310.0 0.003723348593235541 -0.0012740268647609056 0.009198230522544218 -0.01694572476376616 0.032328276533101184 0.011757090113981196 0.0029870844931567018 -0.0037732287563254103
320.0 0.003707438271088599 0.008106223873098412 0.007534933518207679 -0.009985435488573198 0.03366022151930267 0.010697284101611932 0.0037928323709934446 -0.003512733885234184
330.0 0.004067217807455876 0.00772245189445836 0.00925404358896538 -0.009437919488946908 0.033272248939869735 0.011081596084361529 0.0036931895216504975 -0.003669353014750709
340.0 0.002462786812271593 0.009064342634527154 0.01158252639157911 -0.00833006745825647 0.03318225817386373 0.011349203464830836 0.0034457075183898286 -0.0037124386699952383
350.0 0.003735014142016552 0.010175338880620997 0.01253653566686675 -0.007910151673682825 0.03307162768434462 0.011743808374965456 0.0034802093083279454 -0.0037921654372741046
360.0 0.005075117533288083 0.008290585152995241 0.013385068492724474 -0.007210724439959665 0.03309490506251767 0.01210057881091134 0.003233113904707591 -0.004116093547937117
370.0 0.0045860147972723725 0.006576295190482908 0.013912239686336966 -0.005674467548185006 0.032713886691765656 0.012075796804385095 0.0030905975705369316 -0.004469908405199539
380.0 0.004347139935628948 0.0072025216281602 0.013760897267249387 -0.005596512741584271 0.03275087152938703 0.012374234813283685 0.002988416199809335 -0.004820324420982356
390.0 0.004768768685363987 0.007889247087056387 0.013250700493933778 -0.00556282213973648 0.03293845316281698 0.012845162435323822 0.0029168619163925627 -0.005217437456980619
400.0 0.004049870811074599 0.006688691790791286 0.012856385627717333 -0.00649699280767723 0.03312240335852914 0.013099153800115254 0.0030903465565196198 -0.005540620399124371
410.0 0.029172131017219292 -0.05310240158849958 0.004179654374479493 -0.00855405923885846 0.03062731307458669 0.010777233848748374 0.0034058716439510223 -0.0063932348819688775
420.0 0.005042319200458303 0.006788113656085348 0.012277052346435363 -0.009657410485889532 0.03251958125030694 0.013206394841145323 0.003042230900003178 -0.006305230620322512
430.0 -0.016323067080885868 -0.007926404341259853 0.013377410083437498 -0.012883921027691352 0.032278472715552446 0.012148061887381472 0.0028511194063799705 -0.007358807803953051
440.0 0.0055211937709803505 0.007010678650876968 0.013388104277539616 -0.012832845279090125 0.03240771634364243 0.013577087751858187 0.0030926021559687512 -0.007343058954297979
450.0 0.005614346943246317 0.00604150907183016 0.014380929331205085 -0.013171353574692247 0.031753283345793595 0.013759994161376458 0.003130253474425268 -0.007656295662003506
460.0 0.005265555966468521 0.00566167381791129 0.014880581873765465 -0.013402056203381155 0.03126601261944609 0.013859343546747588 0.003261210350952445 -0.00802704102629742
470.0 0.005056516471201584 0.006979521335384496 0.01582391850342856 -0.013257824268398995 0.03091113221889796 0.014209459177754229 0.0036091838423100908 -0.00834596071029764
480.0 0.004942196852770824 0.0056541462939774904 0.01574151231214287 -0.012557910828050902 0.030923989459803576 0.014366105601076698 0.0037474934380403425 -0.008562145967211787
490.0 0.0047868236926786175 0.005456047916249166 0.015402869248144201 -0.011366626679753704 0.030611720136886716 0.014649743992174787 0.0038051929452856898 -0.008884728196266968
500.0 0.005036574011544445 0.005301984969107674 0.013624487873119255 -0.010313577449001162 0.03063160647432952 0.015208132953480395 0.003932697774476206 -0.008948238464868368
510.0 0.005319171661579872 0.00549241322289672 0.013345084633847558 -0.009256208660471183 0.030699717316718875 0.015558876190169551 0.004009566719548096 -0.008973267662158677
520.0 0.004680847863308402 0.0055807507341679545 0.012945799905091412 -0.008405541400290383 0.030979446682009748 0.01593223695007349 0.004192482164422449 -0.008967407777244541
530.0 0.010341342767671673 0.009488359036990723 0.01177634942450918 -0.010185603381866724 0.031269124678321894 0.016774173161062337 0.004348729068130528 -0.009041310846252494
540.0 0.004975164649488556 0.006231561238545908 0.012999148541286988 -0.008832006085561851 0.030680158261118445 0.016312411007952 0.00427174234021352 -0.009086709094821609
550.0 0.007919258724658082 0.006439099884820059 0.015472329328989747 -0.008176034124930225 0.030697638838979267 0.016740623546875815 0.003663627549217442 -0.008877998731270749
560.0 0.004367967362844569 0.005980624594573734 0.015341884678364922 -0.008360253703897053 0.0305858329131701 0.01699850762541575 0.0042721044939030405 -0.008755727754916297
570.0 0.004927086074049558 0.005084317769538818 0.017576863290253854 -0.008009969259509754 0.030271629900244554 0.017238113865206697 0.00416844226557047 -0.008648934242402189
580.0 0.004275964887319169 0.005093107227749816 0.019107886453240654 -0.007483734967865874 0.030164167083717375 0.017269035720494905 0.0040588450862263665 -0.008562009173656713
590.0 0.004185158631255614 0.005551635501100916 0.02132775202446686 -0.006844007046905961 0.03009454341377416 0.017335563558131286 0.0038350414855640247 -0.008515177356223138
600.0 0.005356603225324925 0.005224280575737625 0.02364894896043613 -0.0061964355568148236 0.029901831379962343 0.017691474065622496 0.0036926515292526633 -0.008465964965854104
610.0 0.005134264181767116 0.00532430905775202 0.025247083413510663 -0.005720930498770009 0.02945461471923472 0.01781490867078053 0.003723389599121412 -0.00854826498988544
620.0 0.0054567223969769285 0.004851144937838169 0.02642968161584583 -0.005649030683004057 0.029296656202602116 0.01816410757323339 0.0035793634956168777 -0.00871508939149409
630.0 0.005629888145318685 0.005457284527601641 0.026622760369121395 -0.005893209408737412 0.028948434566845926 0.0185149954255326 0.003645301980591315 -0.008867448798777022
640.0 0.005977096113529635 0.006137893806390185 0.02636338127063432 -0.006679725240135297 0.029141550330397323 0.01893181746082235 0.003560652899858721 -0.008983711581413145
650.0 0.004998727723709565 0.0064509059994236955 0.0268354822335698 -0.007553264128855895 0.02900299603312927 0.019004262643437318 0.003648550989134379 -0.009217476550174561
660.0 0.005027153011684403 0.006063444553326853 0.02516848479727571 -0.008063131776199087 0.028843935361482942 0.019281012355136712 0.0036796170767873396 -0.009293954499542534
670.0 0.0020109931188451308 0.011921358402707903 0.022596150725869346 -0.00870193828368122 0.028559456411224968 0.0197494685031454 0.0037746298639998537 -0.009429645000395307
680.0 0.005835881353064292 0.0068695060819665725 0.024533312960591427 -0.009269676175836952 0.0282228787014602 0.01936718396851555 0.003841519980848376 -0.00979841754754754
690.0 0.006003288538707705 0.007392612106622166 0.02395478859356711 -0.00997697928611797 0.027658000070774617 0.019409217433302962 0.003985793807330446 -0.010170337546194818
700.0 0.006066159839458904 0.007094455510757011 0.0239108323002406 -0.010429189881126212 0.02714281043938759 0.01962440526895713 0.004228474333468183 -0.010494623477305122
710.0 0.006642880500299926 0.007138068148812456 0.02308790960929503 -0.010567809919764087 0.026772875205990965 0.020105214350651237 0.004346169849109699 -0.010790292498954052
720.0 0.006314803844509311 0.00696263653109319 0.022317917160788705 -0.009533148733475183 0.026298984414578536 0.020736497521671855 0.004658421491800381 -0.011225929688911788
730.0 0.006889619366209536 0.00711003613512582 0.021390653687888426 -0.008555266861402974 0.025979927955331265 0.020970001663985976 0.004833922897144948 -0.011563436142409796
740.0 0.007308260700670876 0.007522652362038154 0.020291811308251858 -0.0064687689488916456 0.025803263735569657 0.021225453839893074 0.005020426774598395 -0.01184219895335507
750.0 0.007542522727487363 0.007952138734263203 0.01940057794430098 -0.00488811348545778 0.025948278838215787 0.021708022908212166 0.005261904771614554 -0.011995901002159585
760.0 0.007996510748614674 0.007859539755500168 0.018871699276031797 -0.003130019980114493 0.026072196773800006 0.022112901700913058 0.005344322095675083 -0.012210557204216658
770.0 0.007005268147471713 0.011087798499248213 0.019286967871659698 -0.0013464581337495427 0.025873153702182967 0.022231987416716614 0.00502189890994195 -0.012219845060213104
780.0 0.008456558832384537 0.008074747642416896 0.018262413373764077 -0.0008983291735724072 0.025526985599426507 0.02259982092828092 0.005574987662397924 -0.012595959135334673
790.0 0.009079735211575485 0.008167620558572647 0.01895052107330735 -0.00030965889757486256 0.02543298167108904 0.02270637846608668 0.005915932135797773 -0.012889419986254367
800.0 0.008795235326641844 0.00799255191088941 0.018516717607715675 4.464701854154739e-05 0.02536329554430353 0.02294940964722566 0.005686070688680782 -0.013020017564991973
810.0 0.009528877983861248 0.00817361969161122 0.019226307611150576 0.0006061802493484157 0.024956931049803954 0.023061138948214432 0.005647954320432468 -0.013123341589650445
820.0 0.009543394593336698 0.007576186534823033 0.02049085782829728 0.0009235621046896853 0.024829969657945393 0.02316891478493289 0.005659294443215974 -0.013191507293124878
830.0 0.010390691698778503 0.007272075771583134 0.021487028253692426 0.0013794835518054192 0.024506028535799064 0.023352284935326238 0.005683318536705479 -0.013171354976920116
840.0 0.009923844424825409 0.007096005203503002 0.022542885655284537 0.001626046666693302 0.02423462362650829 0.023425961251237876 0.005743968215897351 -0.013191453587712907
850.0 0.01015935695881517 0.0067595931815672495 0.02343233981845284 0.0016703062636063701 0.024040013210926917 0.023514416685649717 0.005503224161588022 -0.012889107322901773
860.0 0.010456270845486153 0.00617747786297355 0.023846629901257597 0.0017907198787788018 0.02388668250185732 0.023972961740888594 0.005479413763444543 -0.012811229389726364
870.0 0.010543254285760695 0.005982546215925966 0.023990734913776863 0.002249019369143076 0.02390298075603101 0.02457777531673315 0.005449542247105807 -0.012763335086981612
880.0 0.011265818690359206 0.005993631045127638 0.023612785761422776 0.002906303846006597 0.02390054891866174 0.02500652350970594 0.005236025693139287 -0.012720769549190453
890.0 0.011374989383044577 0.0056419693909247675 0.02272873345596597 0.0021416932857277107 0.023758401201490004 0.025249275763822698 0.005373822335633118 -0.01242376402380284
900.0 0.01031384784050667 0.00522101220457532 0.023602917045597884 0.00305122575356071 0.02404816160669777 0.02501677964779546 0.0053099362443882765 -0.01258054435430373
910.0 0.011232318848796106 0.0042567554401167496 0.023523445219184234 0.004065869020848689 0.02399109888407253 0.02528751932834782 0.005292986563360098 -0.012698187393754517
920.0 0.010026608214516387 0.005021075226904935 0.02344493854978902 0.0034493645048698975 0.02388548435523741 0.025310588940200662 0.005412023403308885 -0.012399826803154853
930.0 0.009819620562281233 0.00533662809328996 0.02360009450352438 0.0038780000733423265 0.023501246014545868 0.025323704229536628 0.005344074235136792 -0.012331998026523875
940.0 0.009517698349109907 0.005306828006365054 0.023458320871814035 0.00418460013331522 0.022806037917366982 0.02536249418082267 0.005495931111467938 -0.01225432850683812
950.0 0.00940627248814749 0.004988051383601705 0.02325271107556685 0.004536011997634338 0.022623354742789818 0.025540764370807177 0.005528173375359554 -0.012237968730169945
960.0 0.009352926773598037 0.004872438515151634 0.02302330005703576 0.005548690554943986 0.02253528334467876 0.02587710330866393 0.0058259131117008684 -0.012428421550014996
970.0 0.009780437297699396 0.00573280276253556 0.022764923297676567 0.006542012375552878 0.022289224425428106 0.02607278010993218 0.005964507310900987 -0.012525608705675872
980.0 0.01019813194816385 0.005302183557267035 0.022201717907283425 0.007890472753883012 0.022069650450954388 0.02617625086343316 0.0064523586097880925 -0.012703134670744243
990.0 0.010339933750445065 0.005911345004301203 0.022220001157058644 0.009051396215866508 0.02185605009137216 0.026298381634201954 0.006757796859562878 -0.012975936614302441
1000.0 0.010068460556539665 0.006293146358044025 0.022194566683474325 0.010075822893671177 0.0216534010474356 0.026399905546457787 0.0071434022660525264 -0.01304130968313588
1010.0 0.013594185952008704 0.004298997028858817 0.02334326109222596 0.01162382740906666 0.021420936449402322 0.026030094676273617 0.0075716995963277505 -0.012805911492412071
1020.0 0.01042804729993105 0.00661534094382477 0.02335339342502344 0.010570941001426571 0.020632657344755872 0.026447696491343747 0.007931659465769762 -0.013434235052115317
1030.0 0.011068587187124463 0.006576696464893921 0.024568474710372264 0.010402028205513872 0.02017513308325236 0.02653340739677305 0.008374339988845222 -0.013683706183856014
1040.0 0.01184380585356105 0.006644199135264882 0.02551288085296859 0.009856635784673735 0.019571623059240394 0.02666966234104951 0.00887993436110897 -0.013901749364262098
1050.0 0.012113420896999605 0.006841825251482725 0.026453509813657673 0.00981355802155484 0.01912811449955121 0.02658026067088127 0.009388399131080052 -0.01416884184655232
1060.0 0.013190407101896865 0.005968288628318297 0.027208576252546086 0.009413727252753265 0.018623948784342054 0.02675950231393087 0.009803594371695864 -0.014614889276740279
1070.0 0.014093749962808579 0.00621879764292726 0.027328366594716567 0.008824078304235617 0.018342683464311012 0.027221656039638928 0.010167980538215245 -0.014971764654451677
1080.0 0.014713293016259366 0.005888574873146198 0.027339282882321195 0.008953508143269112 0.018159876221110722 0.027824448836997053 0.010578315542234644 -0.01530354285713363
1090.0 0.014912277814732477 0.005788013656845946 0.026528631828930633 0.008938601004180334 0.017983196599699398 0.02822296012950597 0.010707965586815154 -0.015744133664704257
1100.0 0.015962600951320096 0.0055630290354956894 0.025247911393499703 0.009234990264588917 0.01802768462377901 0.02861710052418684 0.01099583330618123 -0.016285082006552744
1110.0 0.016663861918999018 0.004843782472481317 0.023990044651498635 0.009870203141102997 0.018374115709633626 0.029076927789440345 0.011221920426147974 -0.016751965778589666
1120.0 0.017266976320968946 0.004941849280351056 0.02285701810439962 0.010410782346362668 0.018523078705285263 0.029452618998813712 0.011218387238044797 -0.017253480576351107
1130.0 0.01719143721478985 0.004393959444306165 0.02124519446802817 0.011080713107484014 0.018813999458971654 0.029538629830097928 0.011023518849992748 -0.01777577506543751
1140.0 0.01787833294805816 0.0037937189381246953 0.021206927391034115 0.011120365953158358 0.018436442260589856 0.02925830797862111 0.01097505549165536 -0.01825868714830107
1150.0 0.02017950879050157 0.003673457834225854 0.021162904787274086 0.010726530861902416 0.018286255242781435 0.029053210612947255 0.01061723362486552 -0.018698216856253745
1160.0 0.018116753589967557 0.0035675140004575866 0.020610752532106744 0.01061604137395237 0.018084607757663528 0.029083817546018246 0.010197678570839102 -0.019253956338098507
1170.0 0.01854512224104087 0.0034658286532180805 0.020898175962879215 0.010811199921631216 0.017703653722321668 0.028766653664585144 0.009734283000718536 -0.01955641763100969
1180.0 0.01861037455666504 0.00331880865667534 0.021608107795220457 0.011004983425162065 0.017350925324067262 0.028804361939723532 0.008938995017114829 -0.019951333497572304
1190.0 0.018269104054135735 0.002630306394006336 0.022442382564774755 0.011694394892958856 0.017075764981566443 0.028982300747868395 0.00818514995192464 -0.020327848825840725
1200.0 0.01827880662648191 0.002491691360786335 0.022838688580151305 0.013086106632416942 0.016651964549836015 0.02912339186085975 0.007311187960590603 -0.020440475586246926
1210.0 0.017940511216404872 0.0022298058720354895 0.02359124359719668 0.014096625535488697 0.01626652815730518 0.029109999980592095 0.006409246411986748 -0.02050345132740345
1220.0 0.0179229227782881 0.0020035586321136786 0.02408362725267991 0.01572185782061109 0.015753910877894243 0.02921221927002935 0.005264818619569525 -0.020439315678681486
1230.0 0.018153949184830938 0.002394348982794866 0.024088661073698257 0.016461428343730267 0.01542525827308891 0.02965393506191991 0.004041068716579762 -0.02001685427502205
1240.0 0.01725096440937794 0.0020065932544883337 0.023899189882549347 0.01753795547188573 0.01494026404833391 0.03028071171078742 0.0028498626921269793 -0.01956536783042466
1250.0 0.017173285608751976 0.002150153125344893 0.02310728274196024 0.017544913413829258 0.014484571777996563 0.030505261201141436 0.0015510291291112265 -0.01834900880672817
1260.0 0.01718276963098946 0.002139255034170192 0.022599305215236804 0.018109078582182248 0.013861887668953387 0.03093598473421569 0.00011897009553962444 -0.017098856300413242
