!Created with skrf (http://scikit-rf.org).
# MHz S RI R 50.0 
!freq ReS11 ImS11 ReS21 ImS21 ReS12 ImS12 ReS22 ImS22
2000.0 -0.08593630206117145 -0.03325673483447436 0.423682272584084 -0.23748509354973005 -0.10380184754877038 0.44433244543427686 0.014353756664682435 -0.03128609373207454
2010.0 -0.09749884134627929 -0.05104822008292519 0.4472612809665311 -0.1850792495617864 -0.16104253219000725 0.42205908738499104 0.02176030758986057 -0.025289315057872037
2020.0 -0.10580073658865514 -0.07165404405892943 0.46405768343844306 -0.12985444077357214 -0.2141467345778296 0.3920300569215297 0.02709600692568185 -0.017366280294117437
2030.0 -0.1102564289798558 -0.09386150856055403 0.47437867269286105 -0.07321448682901263 -0.2613690779361998 0.35646204576056156 0.02966944988638929 -0.008109435460955956
2040.0 -0.11043920316817692 -0.1176185547539572 0.477995616251368 -0.01512685802983811 -0.30327690814471897 0.31500277784152214 0.029632116957135263 0.0013958741913868422
2050.0 -0.10574297007318861 -0.14125276558571837 0.47455495899261013 0.0417674427946381 -0.338733704590506 0.27045146254559993 0.026545227876954913 0.010247646811783044
2060.0 -0.09676102830839883 -0.16439571564437894 0.46448716222874925 0.09841920712155111 -0.3675631382743099 0.2226485237825334 0.020884665022446243 0.017633098747456284
2070.0 -0.0833775759003605 -0.18593213192511887 0.44785226752942764 0.15232263922175537 -0.39032393706514623 0.17312185615260683 0.013434215010808416 0.022984328566809098
2080.0 -0.06583141726254313 -0.20465718343463712 0.42485071066375674 0.204705065583597 -0.40675692563542043 0.12181799003151844 0.004955581737733864 0.025690977838945583
2090.0 -0.04548027347764627 -0.22032338869781365 0.3966051153097913 0.25314042179944063 -0.41717930066607717 0.06937561046255895 -0.003941405537579141 0.025453791954141058
2100.0 -0.0217187989458358 -0.2326216720703195 0.3624688324279038 0.29854554587074766 -0.42175555828628275 0.015816700541692198 -0.012337945662736861 0.02288607452205526
2110.0 0.003625560041174942 -0.24014654649280404 0.32411732038835783 0.33906388730618603 -0.4204472388217251 -0.0373493285879577 -0.019254570501031295 0.017946289457822413
2120.0 0.030639367340091463 -0.2432796301152223 0.28099984348645546 0.37494412761410423 -0.41281283142330377 -0.09135268104608374 -0.024390338467299936 0.01122556622086112
2130.0 0.05787467096636405 -0.24248454003197142 0.23441562020368722 0.40626793328032007 -0.3988624263730874 -0.14407255306540598 -0.02728671763249799 0.003015042697078179
2140.0 0.08488046036148614 -0.23670952860884836 0.184278858550438 0.4318990934449117 -0.37798290180698874 -0.19584620192198526 -0.02758722169881799 -0.005515863558483974
2150.0 0.11034476384666378 -0.2259436867289124 0.13149560231178387 0.45150724012929916 -0.35035501147612885 -0.24525276404037857 -0.025426342031771746 -0.013871500241893034
2160.0 0.1341726391945624 -0.21122486358940917 0.07540602175823272 0.4653375123378147 -0.3153581482059159 -0.29219323510593065 -0.020771074904250744 -0.021280543457039842
2170.0 0.15491602147105393 -0.1929908155628337 0.019350498382276725 0.472380049190536 -0.27484182933231416 -0.33443195266646014 -0.01410709543924129 -0.026968931439777473
2180.0 0.17260652585616704 -0.17134336732691996 -0.038591037572886414 0.47230466327057274 -0.2272605390140622 -0.3707631506951519 -0.006228026937520892 -0.030431696878178958
2190.0 0.18626515706544028 -0.14736327909943098 -0.09553419805567459 0.46571047636946367 -0.17434224517536412 -0.4007708881292316 0.0026079157413646317 -0.03137909522375885
2200.0 0.19474124058817963 -0.12390045582931984 -0.1556512755726742 0.44852535962212425 -0.11286477582698634 -0.4218252457677816 0.012051471484429283 -0.029395946848244994
2210.0 0.19991528757600624 -0.09692321454779276 -0.20603902924779735 0.42804561272427005 -0.05554569527881811 -0.43307175911192664 0.019045709585350207 -0.02519218984430638
2220.0 0.2019917059381329 -0.0693065434388422 0.25871258067438657 -0.40078780636793754 -0.005884081847461113 0.4375521669575434 0.024658462087738788 -0.01921607844029559
2230.0 0.19871675809096145 -0.042791576468148504 0.3066374948587607 -0.36736397287203215 -0.06604961469173386 0.4324771215940127 0.028227264712912835 -0.011984247833128951
2240.0 0.19140471498389466 -0.01668949546654154 0.3495137737717694 -0.328764425980794 -0.12531528751435242 0.4184988977064076 0.029473402932050436 -0.004395143863720974
2250.0 0.1800325196758419 0.007037524284900874 0.3880157342041659 -0.28413724551335184 -0.18113159258745748 0.39628110149604473 0.02819166722188294 0.002716843885764292
2260.0 0.16566144415278716 0.028732272673110754 0.4210104561496886 -0.23469426068450186 -0.23284538329783028 0.36643451412441225 0.025047682904094676 0.008939544214946988
2270.0 0.148065588675422 0.047420248256094144 0.4476715335781552 -0.18144683524008826 -0.27877132932523674 0.3303877368189459 0.02069417302737081 0.013538373245297754
2280.0 0.12838186238777313 0.06266752376720389 0.46700574215904045 -0.12500610427679645 -0.31902233986188605 0.28847208117706785 0.0156816924462646 0.016317330222961314
2290.0 0.1069392753314035 0.0748013752661548 0.4799342103512167 -0.06646617881534596 -0.3529145810066953 0.24299384336965527 0.010611007234350704 0.01730984680756247
2300.0 0.08426987393067291 0.08317715551017286 0.48507958239029514 -0.0067396430936222905 -0.3806064474530368 0.19291821927449082 0.006051722768437764 0.016637572896691995
2310.0 0.06128812630201157 0.08804709442394487 0.48255058713057947 0.054627438185816 -0.4014623968671535 0.14090951864428197 0.0025231101754313243 0.015348136544857456
2320.0 0.038452076443869124 0.0901276027226673 0.47243403894255037 0.11407666669058203 -0.4154180949316747 0.08677993345140182 5.3056563178161334e-05 0.013365866608777872
2330.0 0.01598333459726707 0.08821395682673792 0.45434366409809 0.17026844756378343 -0.42203770797113954 0.032359663403978826 -0.001432954890329503 0.011137112197707015
2340.0 -0.005953300392851545 0.08360338869907663 0.4300856692522711 0.2253784420765328 -0.4222478105356499 -0.023598112738090753 -0.001855583112295972 0.009136711753125352
2350.0 -0.025559551269843484 0.07686108654453087 0.39802050788616883 0.27632496085610303 -0.41482555673220967 -0.07926306939386314 -0.0016524113846419948 0.007839748918197383
2360.0 -0.0440399326526319 0.0671282382447028 0.36036198289200927 0.32275339787226753 -0.40037504706227045 -0.13365591046259417 -0.0011718871468898578 0.00744098121089495
2370.0 -0.060482650880673464 0.05570820101244752 0.31765520258719143 0.36286770703485355 -0.37833894091885917 -0.18574955623460856 -0.0008708097977894805 0.007629186723796349
2380.0 -0.07584280347546109 0.04281299897322382 0.2701116128198962 0.3972554358693326 -0.34947071418211084 -0.23461043185179603 -0.0013114362215564251 0.008105048841369507
2390.0 -0.08943742841581911 0.02841381542646946 0.2189258974666788 0.42566090674821144 -0.3135872512369621 -0.27978937122631115 -0.0022087983051070487 0.008942216870896842
2400.0 -0.10046677512637217 0.012944764401937765 0.16577388384642933 0.44646153067602806 -0.27181399837614506 -0.31881661967025593 -0.003796320158975422 0.00932145065815471
2410.0 -0.11045717973963332 -0.0031549060744115037 0.11073804191710043 0.4608663323486466 -0.22457687213555502 -0.35209958022122567 -0.005680011243140763 0.009135851818367735
2420.0 -0.11857756524087648 -0.020835389389029835 0.05451568204410265 0.4684211553194117 -0.17317848831104615 -0.3776080856137007 -0.007962489956792582 0.008403112028445184
2430.0 -0.12468089972737784 -0.03920481719467846 -0.0019453495336015883 0.46831745642753 -0.11910173990994515 -0.3957818231379898 -0.010063265783492429 0.006547371923533669
2440.0 -0.12892923552375202 -0.05816430659988553 -0.05778305127220651 0.46243246724341186 -0.06252117132159561 -0.40524468549002357 -0.011783097594406206 0.004034360793544769
2450.0 -0.1313980108352248 -0.07747531517809311 -0.11079079492509784 0.4497473697111392 -0.007340278999248404 -0.4080002655620124 -0.012595301918655762 0.0008124459812494864
2460.0 -0.1314616594040656 -0.09788501391393951 -0.1637596028365707 0.4307706232834901 0.04879546672949957 -0.4022673578683429 -0.0123344470922192 -0.0026007748022255483
2470.0 -0.12927670638161143 -0.11869651250781534 -0.21292368669119233 0.40498806697298567 0.101939668942233 -0.38869297115392926 -0.010885623274879332 -0.006106152462736759
2480.0 -0.12493091477097634 -0.13921209318481315 -0.25837045580639945 0.3748431142353198 0.15214835053080453 -0.3682913975742324 -0.008374638695877543 -0.008944520339882864
2490.0 -0.11847734456659871 -0.15897442597392403 -0.2998524207108421 0.338898089037953 0.1988475485011141 -0.3412190240948091 -0.0048660970460499345 -0.010812277980667813
2500.0 -0.10814773656806564 -0.1805344150288498 -0.33670978740825386 0.29859665660922347 0.2402908705205998 -0.30889896240029124 -0.0009080194315207006 -0.011578613694401987
2510.0 -0.09571165523931083 -0.19997611213601718 -0.3688408817032496 0.2541027282280222 0.2769839298734867 -0.27187437727548397 0.003204019810531457 -0.010941640065814471
2520.0 -0.08039254658458257 -0.21886403202116173 -0.394744773564158 0.20658898632115577 0.3077842744298892 -0.2305213810752452 0.007150382746063772 -0.008888181401496997
2530.0 -0.06197136726855085 -0.23578939190278428 -0.415509949003175 0.15657083447025744 0.33265511401829395 -0.18659350055776114 0.010323188388884649 -0.005536703105374692
2540.0 -0.041084409534652505 -0.2509016847011492 -0.430207839246421 0.1045797116426488 0.3514142854812298 -0.1398012396625551 0.012413151470373213 -0.0010687104913591552
2550.0 -0.017740262890431936 -0.2630157218911837 -0.4382404946827045 0.052068049226819534 0.3634087615949742 -0.09254824475678053 0.012624515958003749 0.004071629407355577
2560.0 0.007514834696515982 -0.27249910703788754 -0.4410024548212373 -0.0011633571884748669 0.3694881339602341 -0.044953492233818435 0.011397036488692943 0.009316379876296282
2570.0 0.034388881929761646 -0.27773249475063777 -0.4367066440908051 -0.05263930913883342 0.3693239752882906 0.0013910527290443143 0.00834459446721612 0.01419230517004994
2580.0 0.06397533906494773 -0.28006525894835865 -0.42727629049852245 -0.10533127797803167 0.3634890844325523 0.04853479267998756 0.0035485310155137784 0.01818307126946491
2590.0 0.0922422057547356 -0.2774251336612732 -0.4119210037146018 -0.15506119080144198 0.35216967038537017 0.09248234676851451 -0.002659381272629456 0.02080516902355129
2600.0 0.1217784272976767 -0.270538005930478 -0.3909298383293714 -0.20256205157798418 0.3360380454013586 0.13405494822434888 -0.009784644575555324 0.02145204468843033
2610.0 0.15041649461923098 -0.2596544741228508 -0.36533654073870586 -0.24740934190499989 0.31527826858920444 0.1728439452070209 -0.0172201994468501 0.019829917501545502
2620.0 0.17743743496839917 -0.2434680448962775 -0.3344292653267032 -0.28914092404896957 0.29049474569680545 0.20855753536933308 -0.024368199852336715 0.015838120477882342
2630.0 0.2028212774157253 -0.22266646564108095 -0.29889062007535777 -0.3275939663993527 0.26202936656858644 0.24151496093258554 -0.030311582003937687 0.009618344537255713
2640.0 0.22479988760827938 -0.1982527697735826 -0.2595351991132403 -0.361707559868752 0.2305326457050932 0.2706204081052616 -0.03453593108798712 0.0013995565759571532
2650.0 0.24317195844365075 -0.16995594919764595 -0.2162693308598419 -0.3914559569523293 0.19654880738773506 0.2963510339770211 -0.03631452259289983 -0.007963701028881082
2660.0 0.25697051718522274 -0.13841371446041756 -0.1697214469527607 -0.4156999304444526 0.15953659435448334 0.31841854518014273 -0.03536591637819206 -0.018094967142887754
2670.0 0.26553530486127114 -0.10456663066055738 -0.12050555922598692 -0.4349642279495163 0.12028358024342656 0.3363452339789138 -0.03163177544874263 -0.02791876612921835
2680.0 0.2692220587689675 -0.06842505990185158 -0.06759490944485291 -0.4487724402660717 0.07756639731663545 0.35079184563201243 -0.02477502934091549 -0.03687623747611591
2690.0 0.26588161049320547 -0.03286488749991441 -0.014918859209095444 -0.45538231351844916 0.034234698183640735 0.35987201082294434 -0.015761181450078564 -0.04323757968360651
2700.0 0.2571380877492119 0.003696470482289105 0.04065964039491417 -0.4564196665951191 -0.012577111192649341 0.36374841585213874 -0.00444053536614023 -0.04749241019518518
2710.0 0.24194125382910248 0.03877638812824522 0.09530432100483144 -0.45015707727397086 -0.06002691584282056 0.36163051888584824 0.00755368754919741 -0.048443638162391
2720.0 0.22081397941257758 0.07019788134453106 0.1501741218549372 -0.4370712466149558 -0.10789058292221614 0.35360694902219764 0.019253538643600014 -0.04566013390189415
2730.0 0.19395329403359357 0.09838034291579364 0.2039562408343497 -0.4165966668386037 -0.15590341759370957 0.33859841059650986 0.030087094136865326 -0.03979693875571192
2740.0 0.1623601421843875 0.12145546046188807 -0.2541078305981509 0.38900373933780397 0.20147580635838275 -0.31635890100416764 0.0386938461107513 -0.03119871215682536
2750.0 0.12732057245096898 0.13915451364435757 -0.3012927570764073 0.35575336977046096 0.2441421382710841 -0.2869527553337706 0.044613231884524145 -0.02076376603142616
2760.0 0.0890316694785588 0.14991895943055328 -0.34371819235688444 0.3151503944958801 0.2818887922056828 -0.2509047624697955 0.04719536643859559 -0.009156095776631321
2770.0 0.04947106527427343 0.1537409281152971 -0.38059190063324827 0.26991643767278845 0.3144200235668157 -0.21014933032881386 0.04647910192552317 0.0023348219530614695
2780.0 0.010025878259644351 0.1508405113480571 -0.4114213587332638 0.2197204759266111 0.3407923691467063 -0.1647105668544047 0.04292068595290213 0.012861105403263686
2790.0 -0.028090382245177153 0.14006422098603605 -0.43514230613806115 0.16485781263859556 0.3593068381574466 -0.11574533721106427 0.03662433134645146 0.021619000254748055
2800.0 -0.06391525276417667 0.12319401621125575 -0.45203001308380936 0.10783889875469282 0.3703156446622812 -0.06497553699076376 0.028587633365134126 0.028038065588400128
2810.0 -0.0948157821863233 0.09958607879074093 -0.45991855309071855 0.05026398491739537 0.3732801899411268 -0.016020611225976755 0.019760043394688048 0.03117839474360263
2820.0 -0.12199235874747497 0.07120374777414522 -0.46069932524553836 -0.00909788474120754 0.3698197705608513 0.03501510911429912 0.010864768092365636 0.03209225595951344
2830.0 -0.14285679221820144 0.038557976572418204 -0.4533844167700863 -0.06682089555238699 0.35866619587499693 0.08237571080142192 0.002906107320767447 0.030353210008170456
2840.0 -0.15717712432531902 0.0033265144512798495 -0.43400329701005197 -0.14078014501602448 0.33800412076815545 0.14140339650092484 -0.0056615287846796345 0.026544360427197086
2850.0 -0.1647670501259857 -0.033529474488055405 -0.4104052523681233 -0.19374882780106137 0.3145535053884325 0.18205725762547287 -0.009861316681242073 0.02123552525767279
2860.0 -0.16478709658842772 -0.06949362667277838 -0.37998109466719937 -0.2426621909802216 0.28681717379117005 0.21905654042070805 -0.011772872521559508 0.015607989773421082
2870.0 -0.15918670511551578 -0.10475194088040074 -0.34380577878752006 -0.28689717317125724 0.2550329666683398 0.2525483480905977 -0.011836249578670287 0.010361408125217185
2880.0 -0.14694775972932114 -0.1368611343964433 -0.30250655784009156 -0.325850806522727 0.21960627143233927 0.28158664149257295 -0.010374222644827 0.006130605470213744
2890.0 -0.12996307072580016 -0.16553133531475803 -0.2577661322044422 -0.36003908085092395 0.18330651532760667 0.3073194533609985 -0.00767807327270174 0.002712492728474054
2900.0 -0.10830175291344034 -0.19006506634391412 -0.209553009802757 -0.386589668346175 0.14230477109341774 0.32747008777311454 -0.004628746309827197 0.0013591371452291497
2910.0 -0.08325711586001439 -0.21008955096105986 -0.15921863097468378 -0.40679691706459964 0.09927330089285306 0.3429837867955445 -0.0016967522333783628 0.001484273068658632
2920.0 -0.055584622489243375 -0.22490072379990153 -0.10786391497119427 -0.4210035039153906 0.05387240514091522 0.35328861842710746 0.0004830753133135768 0.0027858325559019514
2930.0 -0.026649845275109493 -0.23295082147896243 -0.05610323829837313 -0.42806797709003214 0.008003115692982815 0.3575878158906212 0.0016673400957601166 0.004728249613954177
2940.0 0.002072807594475327 -0.23536245175743015 -0.003339992659109039 -0.42907490450769664 -0.04032815186200633 0.3563492772834839 0.0017474962925621926 0.007038286274067433
2950.0 0.029503749515272855 -0.23315549656571416 0.04717706512812263 -0.4242153554155674 -0.08734882579257354 0.3482493040267553 0.000837413046732528 0.009142337788003392
2960.0 0.05495241726311846 -0.22674241491833808 0.0970318508958625 -0.4130317529443803 -0.13405716857862324 0.3342169529620147 -0.0008973490637415619 0.010984311502279577
2970.0 0.0784031776943605 -0.21541643035390512 0.1446796025220656 -0.39692693307073534 -0.17828559858793974 0.3133723231586914 -0.0032291764444937134 0.01193208400264037
2980.0 0.09861403645786981 -0.1993359329779847 0.18963572830668934 -0.3749307622673697 -0.21947526651873736 0.28625874424280934 -0.005710328460928538 0.012011856815269749
2990.0 0.11391307209004202 -0.18009600358729458 0.23186800776086472 -0.34795978372995506 -0.25727800198380424 0.25314721190553907 -0.008253919899672406 0.01138957061591759
