!Created with skrf (http://scikit-rf.org).
# MHz S RI R 50.0 
!freq ReS11 ImS11
140.0 0.5607943002029316 -0.024488117349757657
150.0 0.5636242446731605 -0.03640461426447306
160.0 0.5503729719594966 -0.039097900406709345
170.0 0.5808659383124206 -0.037753870445046626
180.0 0.5347632315868796 -0.059741343815223655
190.0 0.5206109049496002 -0.02728022291107092
200.0 0.5268513565484737 -0.03933523011011835
210.0 0.5245255482460339 -0.039638098841564294
220.0 0.5279103812470706 -0.04119715710763516
230.0 0.5023716648821966 -0.05504619855554283
240.0 0.480341788953582 -0.05060216459830962
250.0 0.4778546250944274 -0.056653246281597514
260.0 0.4976280895391897 -0.05227962930761118
270.0 0.5036678906598174 -0.0580658724196296
280.0 0.5287267166949805 -0.06242135043637291
290.0 0.5494577273738506 -0.05469772598681502
300.0 0.5477145215910311 -0.06902283728626563
310.0 0.5446500846101023 -0.06719016059055052
320.0 0.5578660169922065 -0.06776051456061552
330.0 0.5635156807893632 -0.07400343116607805
340.0 0.5659239640446705 -0.07319596015511592
350.0 0.556799717148003 -0.08012845039740021
360.0 0.5587204559632819 -0.08409469892847057
370.0 0.5294434045709696 -0.08509395745410286
380.0 0.5421327383811809 -0.08939737097438687
390.0 0.5469961018183601 -0.09404828896675782
400.0 0.5494066026543509 -0.09864953363117376
410.0 0.558514653004508 -0.10516958762921483
420.0 0.5640411269978668 -0.10724058608731249
430.0 0.5638847193975575 -0.10688973716464953
440.0 0.5727461958644974 -0.11589726318193956
450.0 0.5751164827666797 -0.11978675312830181
460.0 0.5436581975837222 -0.12093267656798604
470.0 0.5189087665357772 -0.12333737058801686
480.0 0.516553981771691 -0.12836341432416942
490.0 0.5175962597501265 -0.13173009942962255
500.0 0.5263263981857176 -0.13728273653049666
510.0 0.5281407684806673 -0.14013823390482893
520.0 0.5264896880333678 -0.14496972469481484
530.0 0.5346942874813658 -0.14777178281196993
540.0 0.544018992641942 -0.15358975753813744
550.0 0.5496223173328829 -0.15891173706163955
560.0 0.5711686418731763 -0.16499909633274237
570.0 0.5697128615203467 -0.16779818935153076
580.0 0.5668978847058463 -0.1717436466016463
590.0 0.5826593436915005 -0.17770041157320346
600.0 0.5779171184448275 -0.18032365455239008
610.0 0.5759052638218238 -0.18311019818217553
620.0 0.5856014244051451 -0.18747831680747146
630.0 0.586102862202564 -0.19025083945311133
640.0 0.5800224136035724 -0.19082811652482118
650.0 0.5945196141360383 -0.194470814326921
660.0 0.5980447610421257 -0.19782423033709912
670.0 0.5948885626334391 -0.19703599082790196
680.0 0.6085843377940344 -0.20242251717031803
690.0 0.6137166348828133 -0.2052989002004012
700.0 0.612028189459477 -0.20399795791852418
710.0 0.6009112524230896 -0.20382223145543427
720.0 0.6064087200526005 -0.20679604288279052
730.0 0.5709799484039285 -0.19786073311039395
740.0 0.58820522693807 -0.20161943345792777
750.0 0.5886313901722441 -0.20246489538724938
760.0 0.5835067438309677 -0.19893434955804257
770.0 0.5981265743249001 -0.2013373002376
780.0 0.6034393806743714 -0.20439407686276456
790.0 0.598684694001324 -0.20012393951354504
800.0 0.6151151654548856 -0.2037767858605767
810.0 0.6192482024885 -0.2066764634502427
820.0 0.6181233447372431 -0.2038777539747813
830.0 0.6261561789330853 -0.20689556585783253
840.0 0.627763762743764 -0.21016759375891692
850.0 0.6230544575431309 -0.20563317045708307
860.0 0.633961260053794 -0.21067423525979642
870.0 0.6326963416106814 -0.21182669971132298
880.0 0.6250750735729507 -0.2068354146810945
890.0 0.6295019913133224 -0.2117404943881597
900.0 0.6320371662477882 -0.21213018711842163
910.0 0.595007313152254 -0.19962843062238453
920.0 0.5989317687050404 -0.20240370950909142
930.0 0.5676890396559666 -0.1941065631670793
940.0 0.5646283332558171 -0.1933078531999671
950.0 0.56966932496035 -0.1964490694295092
960.0 0.5658797210076795 -0.1961168428267948
970.0 0.5595696783802812 -0.1952049044087971
980.0 0.5620187068208219 -0.1972049883322157
990.0 0.5595002524304807 -0.19782689064566084
1000.0 0.5484558679213569 -0.19541126914435458
1010.0 0.5502215792564428 -0.19760887276814385
1020.0 0.548167097247141 -0.19904318898537274
1030.0 0.5381054586225168 -0.19723049467982778
1040.0 0.5404466161912134 -0.20100394532490723
1050.0 0.5420955589030303 -0.20585648667977852
1060.0 0.5268424894320147 -0.20121507562481286
1070.0 0.5351870231540435 -0.20812550550304842
1080.0 0.5311798071925441 -0.21022068506084518
1090.0 0.522690624799298 -0.2103816990706085
1100.0 0.5295153212263917 -0.21724114852360563
1110.0 0.5280988651159059 -0.22124437280968828
1120.0 0.52588227465816 -0.22436394137089055
1130.0 0.5342937887767683 -0.23254784693261055
1140.0 0.5255866363687287 -0.23424105983194593
1150.0 0.5158045248570764 -0.23603209171064515
1160.0 0.5131973346620735 -0.2396148225319274
1170.0 0.509657684384192 -0.24364445019299502
1180.0 0.5107542130185155 -0.2496682968732983
1190.0 0.5137856947206875 -0.2564617012255759
1200.0 0.5167221365242257 -0.26330452039696417
1210.0 0.5092209794618692 -0.26484851864838604
1220.0 0.5082368677527387 -0.270325662056662
1230.0 0.5101839874228146 -0.27596564783357186
1240.0 0.5122437524349716 -0.28102490516597156
1250.0 0.5193074197034484 -0.2864181975653881
1260.0 0.5192472679571833 -0.2929517678873269
1270.0 0.5149106798968284 -0.29540945842030103
1280.0 0.5134485417942456 -0.2995524174519017
1290.0 0.5157850246144191 -0.3046724262668955
1300.0 0.5172023698517305 -0.30925244303661314
1310.0 0.5226212272963915 -0.31582417787570116
1320.0 0.5220953618898634 -0.3206168676299082
1330.0 0.5182368650175315 -0.3240791061921864
1340.0 0.5176935067886407 -0.3285019888714899
1350.0 0.5200979936455482 -0.3346124018287803
1360.0 0.5218621175720802 -0.3404241101842119
1370.0 0.531545419238233 -0.3489443486910848
1380.0 0.5292203454647327 -0.3535733515042664
1390.0 0.5240339987403786 -0.3568934437921749
1400.0 0.5227563078139323 -0.36245909372711704
1410.0 0.5245970730646391 -0.3680845844199097
1420.0 0.504673064727176 -0.3652303112750392
1430.0 0.5113462354277851 -0.37279381617237545
1440.0 0.510998830252979 -0.3781880531957668
1450.0 0.4858990959053089 -0.37269420086939764
1460.0 0.4864915558854683 -0.3787844707298245
1470.0 0.48855671596746486 -0.38515285936961097
1480.0 0.4874817473899571 -0.3897156512461323
1490.0 0.49885261453311974 -0.39995186652774095
1500.0 0.4995310952305393 -0.4058007063252317
1510.0 0.4940144008526876 -0.4075428241963124
1520.0 0.49115992775065753 -0.41203511957851563
1530.0 0.49984094055562683 -0.42064292998213687
1540.0 0.5045356520632164 -0.4273435368612052
1550.0 0.51102237606214 -0.4332340531016515
1560.0 0.5144385574721252 -0.4384098093135839
1570.0 0.4977879865085737 -0.4346988025007159
1580.0 0.4967509033661592 -0.4359946321774378
1590.0 0.5140612943542185 -0.4448508872830687
1600.0 0.5114466840528032 -0.44397976236681286
1610.0 0.526403514861094 -0.4506044395193961
1620.0 0.5303741277771148 -0.45150689287164175
1630.0 0.5176111081990596 -0.4440115984396478
1640.0 0.5259614485817231 -0.44666671676039765
1650.0 0.5348225221847592 -0.45091004833192855
1660.0 0.5251826942069935 -0.4431189224048468
1670.0 0.5388176875900742 -0.44910692433283084
1680.0 0.5393821969577285 -0.4473919142171531
1690.0 0.5311619167855967 -0.44254555997732825
1700.0 0.534426404819933 -0.4418990518525093
1710.0 0.5407257157603133 -0.4437535828768195
1720.0 0.54090238393607 -0.44370428647393423
1730.0 0.5445745785946041 -0.44275708006368664
1740.0 0.5450299732851442 -0.44304501587842204
1750.0 0.5395044127362314 -0.43923419008720077
1760.0 0.5369055639045888 -0.43901991573884497
1770.0 0.5370226251601914 -0.43950811344727625
1780.0 0.5339247262412008 -0.43816872650885624
1790.0 0.538779331553987 -0.44274559050413287
1800.0 0.5378735072064865 -0.4433638079225441
1810.0 0.530463758985865 -0.44076274060465737
1820.0 0.505980457335193 -0.42901482838519817
1830.0 0.5057323713776807 -0.43058841452703744
1840.0 0.5047367385252716 -0.4321029672379162
1850.0 0.48376093825885136 -0.421013900255681
1860.0 0.4824885651659946 -0.4226227054700645
1870.0 0.4794875719388684 -0.4226258578253471
1880.0 0.4791399679131739 -0.42432151223461595
1890.0 0.47667548936943793 -0.42478355328123796
1900.0 0.475976960884816 -0.42577205351247616
1910.0 0.47867434012006643 -0.42824646046609505
1920.0 0.4780639475817014 -0.43088029927185256
1930.0 0.47266896224626737 -0.4285033072416754
1940.0 0.4707029826106528 -0.42903991068351427
1950.0 0.47024184628155186 -0.43001082462367163
1960.0 0.47072566325042164 -0.43132565989343036
1970.0 0.47279159369040996 -0.43478284130350053
1980.0 0.47222590674081827 -0.43584872197002544
1990.0 0.4639546891147343 -0.433389828438735
2000.0 0.45988599907611344 -0.43468025227211093
2010.0 0.45671779061166584 -0.43554179850171093
2020.0 0.453511813603911 -0.43788163983498646
2030.0 0.44858478525505047 -0.44027557120288163
2040.0 0.4442095794989267 -0.44507170495472675
2050.0 0.4323028205908582 -0.44460476318552977
2060.0 0.42519468939809435 -0.4481807633979603
2070.0 0.4197839670090302 -0.4535042724662486
2080.0 0.41318283087842156 -0.45729951373534905
2090.0 0.410292453411341 -0.46528325966873685
2100.0 0.4055746679497435 -0.47215136215982034
2110.0 0.3958473623943479 -0.47583430856412123
2120.0 0.3889431347625582 -0.4828497824262884
2130.0 0.3833180568544688 -0.48979794109952846
2140.0 0.3783177534804989 -0.4965924288515526
2150.0 0.38131508539644665 -0.5097427875830782
2160.0 0.37647035355887193 -0.5157181436492194
2170.0 0.3680172995347458 -0.5180551164523755
2180.0 0.3636359457691615 -0.5233565923458746
2190.0 0.3623144517513035 -0.5313392493802093
2200.0 0.3726517306174758 -0.5375352934996492
2210.0 0.38268034512166116 -0.5532294981288683
2220.0 0.3761915115733788 -0.5570180731410221
2230.0 0.376884318801323 -0.5645157152667657
2240.0 0.37484678411134187 -0.5681042957395945
2250.0 0.3760605582376769 -0.5739933835840139
2260.0 0.3768700937309195 -0.5792573435116786
2270.0 0.3775256974489077 -0.5844244086274745
2280.0 0.38600689305620073 -0.5937943414462525
2290.0 0.3812869781905487 -0.5934037354596746
2300.0 0.3874740326541949 -0.6001243934170991
2310.0 0.38646726480946947 -0.6030161074096093
2320.0 0.3881456264521611 -0.607899360085012
2330.0 0.3992496092485798 -0.613826787275195
2340.0 0.39521803562335334 -0.6157937654766017
2350.0 0.4021902096156797 -0.6208926924254522
2360.0 0.40350245259720985 -0.6255162163255864
2370.0 0.4040729716795865 -0.6286528713061986
2380.0 0.40778493711466024 -0.6341199077940263
2390.0 0.40895526049898595 -0.6368703535003382
2400.0 0.4169791146540837 -0.6457402674406181
2410.0 0.4129940845514863 -0.6477595927131433
2420.0 0.4139538292244478 -0.6523299377807634
2430.0 0.4158496791408094 -0.6576859935030869
2440.0 0.4158362446712505 -0.6607244215708109
2450.0 0.4243060414426337 -0.669149134832573
2460.0 0.4166450405718172 -0.6714038625683916
2470.0 0.41782568321895586 -0.6779642399343107
2480.0 0.4220451811450071 -0.6817494577940122
2490.0 0.4228579055795888 -0.6893456452216902
2500.0 0.4249633618402543 -0.692296567324161
2510.0 0.42598413565031185 -0.6963626668598026
2520.0 0.42663746184555534 -0.7010505823796496
2530.0 0.42302283276829944 -0.7006787472091062
2540.0 0.42070391702333193 -0.7023004123996337
2550.0 0.41879578496264336 -0.7020852975043783
2560.0 0.41940983902494533 -0.7013299139755895
2570.0 0.4232882845257519 -0.7020974730003579
2580.0 0.4174073344857936 -0.6979677900323392
2590.0 0.4193642192465488 -0.6964382929390863
2600.0 0.41714931930782645 -0.6922909351586827
2610.0 0.4177826359727814 -0.6879972389304474
2620.0 0.41833569315429303 -0.6843841003371681
2630.0 0.4190773092680767 -0.6799654052990038
2640.0 0.42382449141485157 -0.6794369613867729
2650.0 0.4223974891511428 -0.6725000920269367
2660.0 0.4246192642878322 -0.670989287435894
2670.0 0.42588394291733905 -0.6640342393470567
2680.0 0.424893149323568 -0.6597151884796134
2690.0 0.430609306420433 -0.6596129667397999
2700.0 0.4278617242651461 -0.65360200500097
2710.0 0.4288151751964603 -0.6497372708997291
2720.0 0.4292993048907021 -0.6463303814419277
2730.0 0.4281552543874305 -0.6429967693777595
2740.0 0.42762353740135056 -0.6400147024305134
2750.0 0.42683816278383524 -0.6366541728810099
2760.0 0.4305635793085355 -0.6374382866333751
2770.0 0.42405391975379414 -0.6312045556587937
2780.0 0.4243882206234985 -0.6309525049940355
2790.0 0.42319371495045105 -0.6307871079250449
2800.0 0.4202226693127414 -0.624909932088484
2810.0 0.42104291959692414 -0.6286081966107153
2820.0 0.4150517369306298 -0.6245745592057144
2830.0 0.4138785228273874 -0.6257159775221096
2840.0 0.39714717667371047 -0.6116527404345368
2850.0 0.3946863199581564 -0.611842849543716
2860.0 0.39116842471945046 -0.615056922310704
2870.0 0.3867618489822586 -0.6138816000711607
2880.0 0.36966935522335487 -0.5848080920555015
2890.0 0.3652469838167044 -0.5989446198044428
2900.0 0.3642372058900946 -0.6046008937048053
2910.0 0.35842845748878677 -0.6037031914662051
2920.0 0.35218902030824345 -0.6039347545828546
2930.0 0.35455605920105 -0.6127749861010243
2940.0 0.3449087842617302 -0.6072091370219385
2950.0 0.34221921689962775 -0.6144508121883204
2960.0 0.33749099972845353 -0.6114533743044283
2970.0 0.33547869498609717 -0.6143648132862354
2980.0 0.33427091294909433 -0.6164821716849878
2990.0 0.3301742595947073 -0.6177290567059168
3000.0 0.33166433038367715 -0.6220649347754148
3010.0 0.326459983816119 -0.6224214540611237
3020.0 0.32260207235013183 -0.6206355133489199
3030.0 0.3217869381342491 -0.624706122048104
3040.0 0.3184097411121175 -0.623363223772228
3050.0 0.3206630186749899 -0.6304626888045901
3060.0 0.3141528127449403 -0.6244681573379982
3070.0 0.31401943879243477 -0.6264668544256814
3080.0 0.3060061882281201 -0.6238487620501134
3090.0 0.30224463459489687 -0.6257900222997317
3100.0 0.298515764141963 -0.6258574023165853
3110.0 0.2939462527263576 -0.6265339018135383
3120.0 0.2912640083682705 -0.630833226355129
3130.0 0.2833075269875289 -0.6283337611039933
3140.0 0.2784431916364396 -0.626392841431942
3150.0 0.2734760786411083 -0.6285141856300671
3160.0 0.2720698309193447 -0.6325629462704399
3170.0 0.2715972784662041 -0.6383302148375091
3180.0 0.2643776067210302 -0.6355241968143039
3190.0 0.26270397714182064 -0.642356090071865
3200.0 0.25759639669956536 -0.6438295335146691
3210.0 0.25442289604151425 -0.6520335383385333
3220.0 0.2601352300540235 -0.6676642695289206
3230.0 0.2547948393686458 -0.6702058699117035
3240.0 0.2565221724851047 -0.6802506093121296
3250.0 0.2499888112784905 -0.681689393251502
3260.0 0.24728092586922096 -0.6857397444544254
3270.0 0.24873183879171473 -0.6951479251056198
3280.0 0.24824399789005436 -0.6999453299986751
3290.0 0.251403895222346 -0.7073171797651467
3300.0 0.246382888116694 -0.7076264380709634
3310.0 0.2464139606380108 -0.7137217384204511
3320.0 0.24825184646302112 -0.7205333197631301
3330.0 0.24893292915959622 -0.7247580157995476
3340.0 0.2522182331210414 -0.7308765145437165
3350.0 0.25388640477455116 -0.7371617349225663
3360.0 0.2612261200796543 -0.7466362443517581
3370.0 0.25874750846848626 -0.7480517612752086
3380.0 0.2602997756463024 -0.753918779960823
3390.0 0.2609830377842252 -0.7582282551433077
3400.0 0.2635773674795804 -0.7643859056878147
3410.0 0.26427595407469767 -0.7689790148821549
3420.0 0.2616339444701146 -0.7707181591453173
3430.0 0.2567678166469338 -0.7678705687281961
3440.0 0.263375441746801 -0.7772213575145118
3450.0 0.26302619617190226 -0.7807659185185641
3460.0 0.2630494190985958 -0.7824888824983146
3470.0 0.2622165108219213 -0.7829465919538754
3480.0 0.2613340706558939 -0.7885764848208492
3490.0 0.2562318971121676 -0.7855706082387229
3500.0 0.252518034379146 -0.7856321287764638
3510.0 0.25125503461946536 -0.7865634597930555
3520.0 0.24913353984982542 -0.7854296731134909
3530.0 0.24812178946533955 -0.7845520282652345
3540.0 0.2440359838852636 -0.7816218234379271
3550.0 0.24123665552495904 -0.7769569625538313
3560.0 0.23936810281149248 -0.7750681494531797
3570.0 0.2379714461052063 -0.7738264412506087
3580.0 0.23626835556932152 -0.7716665396980483
3590.0 0.23559683718535154 -0.7667485331060648
3600.0 0.2379664724751916 -0.766253575053431
3610.0 0.23462351189208303 -0.7625305498381854
3620.0 0.23398583970268022 -0.7575497227622926
3630.0 0.23314272122964086 -0.7571652873722448
3640.0 0.22637437772707522 -0.7422619149112141
3650.0 0.2279008847800831 -0.741958300767434
3660.0 0.2233730391327182 -0.7376992200937089
3670.0 0.22253789492370532 -0.7339698925453142
3680.0 0.2228447176824349 -0.7339246297854232
3690.0 0.2228512733376512 -0.734202487042145
3700.0 0.21659625733448531 -0.7176356636474565
3710.0 0.21566400795833013 -0.7154909262856178
3720.0 0.21670945718922582 -0.718236039078945
3730.0 0.21554686294946526 -0.716203386247156
3740.0 0.21542326796240227 -0.7183080249710276
3750.0 0.2134781837537461 -0.7182777806266079
3760.0 0.21213528912399754 -0.719890991540265
3770.0 0.2112455027723543 -0.7255065804261949
3780.0 0.20830591501308454 -0.7205026000219327
3790.0 0.20450429423553831 -0.722426591351478
3800.0 0.20071052297752665 -0.7245533145295021
3810.0 0.19526241249714588 -0.7250863798951857
3820.0 0.19022479772153617 -0.7260210362821251
3830.0 0.18593380833760376 -0.7279794597892726
3840.0 0.18270620832661338 -0.7315641755103831
3850.0 0.17517827688293267 -0.7248249903722842
3860.0 0.16953509266347055 -0.7219285867383182
3870.0 0.16345268943272545 -0.7219177751230675
3880.0 0.1547592763234168 -0.7176204014843477
3890.0 0.14949031454716233 -0.7212550601798557
3900.0 0.1438495575441358 -0.7175729700764716
3910.0 0.13635919795560336 -0.7169873920940536
3920.0 0.13010584198759229 -0.715464418678021
3930.0 0.12383405728018206 -0.7166611158097984
3940.0 0.11795849974884781 -0.7143939849346396
3950.0 0.11074969835661758 -0.713630784771045
3960.0 0.10906492143517399 -0.7168606640659999
3970.0 0.0997729967602396 -0.711652524936002
3980.0 0.09418031733141008 -0.7146108876911653
3990.0 0.08684882385231105 -0.7164522561490401
