!Created with skrf (http://scikit-rf.org).
# MHz S RI R 50.0 
!freq ReS11 ImS11 ReS21 ImS21 ReS12 ImS12 ReS22 ImS22
140.0 -3.677878142398178e-05 -0.0005652047368139946 0.00015549131387727896 0.00027380185798806683 -0.013719354627616923 0.006898065538281361 0.002726150707443131 0.00963072311488383
150.0 -3.128841336112822e-05 -0.0006633957661393259 6.032457392501696e-05 0.000374364234916111 -0.016163262539763416 0.002501379280340538 0.001176594681442616 0.010258531929232496
160.0 4.5026274937579355e-05 -0.000695447125765493 -9.000320968263712e-05 0.0003835723904830915 -0.015931508641355355 -0.0039208559344940325 -0.0013779749357484717 0.00987270829351174
170.0 4.567389803033643e-06 -0.00041813545541911077 -0.0002833761099081848 0.0003028258827999258 -0.012629635683848948 -0.0097062934301733 -0.004534666180194375 0.00833131109492027
180.0 0.00028550395692837356 -0.0007411563731441911 -0.00037706447055746185 0.00024780432493294184 -0.007822429914022365 -0.014082916880695934 -0.006164446124997894 0.006798332436167868
190.0 0.0008351348149953535 -0.0007019675202492753 -0.00042809134084583964 0.0004577086536213306 -0.0033199198668808446 -0.015235748315255053 -0.007127385757545517 0.005106433254087091
200.0 0.0004597594478348684 -0.0007355818718811775 -0.0004595849708787225 1.636074685941296e-07 0.002594303531448963 -0.015146115416487999 -0.007603250801492261 0.002392626237743013
210.0 0.0005563134465740808 -0.0007336606689643567 -0.0004310419400181778 -0.00013618101098029648 0.00706828391547811 -0.013333288796827714 -0.0073740678341967835 0.0003969756622698636
220.0 0.0006548189842533018 -0.0007571734270839898 -0.0004320609531476237 -0.0002786259587065909 0.010978012028317654 -0.010723859065987822 -0.006884179052916055 -0.0013730965835147615
230.0 0.000806242859758858 -0.0007052400162975851 -0.0003439013515690751 -0.00041934964308214614 0.013913982192554327 -0.006630030902558079 -0.0057669168976922066 -0.0030969607730828262
240.0 0.0008852220135477433 -0.0006699647413256006 -0.00022391541134259848 -0.00047673532420638276 0.015173372162490793 -0.002063744197220058 -0.004283032109921745 -0.004268403703740509
250.0 0.0010437680987627183 -0.0006453650772576329 -6.602069060578359e-05 -0.0005586565428389302 0.01519939818479474 0.002858016652175875 -0.0025690400779962235 -0.0049658005820816965
260.0 0.0011535099551453019 -0.0005629644673856189 9.049502844638298e-05 -0.0005418804463850844 0.013436452445383574 0.008091801225810939 -0.0006012129971200956 -0.005169524845647877
270.0 0.0013066181194457012 -0.0003672873496462131 0.0003175611169906747 -0.0004927024618324177 0.009934410326497566 0.012314557657460331 0.0013045355737244017 -0.004656096814434479
280.0 0.0013774238374573784 -0.00021229849165992605 0.0004583976263654649 -0.000370186011900109 0.005179338656524126 0.015033932096066379 0.0027414385879606703 -0.003574827380967151
290.0 0.0015452571282633862 0.0002742036926075263 4.053733898143143e-05 -0.00025874477376230134 -0.0004507684623373655 0.01619478363017165 0.0037870117515258284 -0.002513111739284442
300.0 0.0014910565424257683 0.00020535485757342786 0.0006077821563001221 1.6266753923688924e-05 -0.005801688512314071 0.014952498970646284 0.004045614649818978 -0.00032795242871982375
310.0 0.0008230660925760906 -0.00012189309869363491 0.0008466667950715068 0.0003095065492931501 -0.010826901688062503 0.011170816399447336 0.0040917062829116365 0.0014105713487988954
320.0 0.001448314805285925 0.0005962086127265216 0.0004290841043887183 0.0003947559601874195 -0.013968879154237225 0.007908584187793633 0.0029867816571139206 0.0027638918171106817
330.0 0.0014405666278365886 0.0007625240032448289 0.0002822281733108963 0.0005261802324110577 -0.015809144242822586 0.002899161063848597 0.0017612652713753427 0.003844500719950401
340.0 0.0013376979952487435 0.0009761025592150922 7.320274457367336e-05 0.0006478886496211224 -0.01595745138138085 -0.002390950730307921 0.0002979173226096225 0.0044121246894702325
350.0 0.0012624646894837611 0.0011532812034146227 -0.00011029296702381761 0.0006976702272911201 -0.014344151742733745 -0.007441152678613049 -0.0013733500737422761 0.004475405093394546
360.0 0.0011500533092458423 0.0013556012549560056 -0.0003451613791496293 0.0006974758481416872 -0.011226868364633904 -0.011720989589438693 -0.0029478887500508392 0.004145596264496877
370.0 0.0010042810292142494 0.0015333807607251396 -0.0006246697267318611 0.0005725997074663085 -0.006842103123916321 -0.014803918293108013 -0.004475676226599969 0.0032624695812793134
380.0 0.0008495265174534643 0.0016715602961168343 -0.0008408259158113373 0.0003930910962169278 -0.0017054188551279704 -0.016304925699764175 -0.005764416647731882 0.001807090698836344
390.0 0.0006370915011696189 0.0018090191655086056 -0.0009758544588440915 0.00010750003099253208 0.0036616434145767254 -0.01595347260950558 -0.006579562997047934 -2.2770813849270643e-05
400.0 0.0004742491784982463 0.00191554956990572 -0.0010239625573219692 -0.00019574180498067536 0.008580716587314772 -0.013974425269008066 -0.006751319767374635 -0.002252596006802043
410.0 -0.00037525326417649316 0.0027697743458481553 -0.0007238593854452843 2.85273552308204e-05 0.011722447091090323 -0.01005221650885566 -0.005735784367384102 -0.004769803397950345
420.0 -2.1054579155518958e-05 0.0021046712903929066 -0.000829439358330356 -0.0007470754038580625 0.01534215806680726 -0.005648470643409428 -0.004851870478373835 -0.00653930779769692
430.0 -0.0006140927980318224 0.0025617720935501285 -0.0007306810723319431 -0.0010774036219500338 0.016253415064765783 -0.0009333717639256264 -0.0030489536209393872 -0.008284777498942105
440.0 -0.0005688408743217269 0.002111249226294637 -0.00037598513100217456 -0.0011624140189941653 0.015592597494055921 0.0049957036346505385 -0.0003762349075155022 -0.009241720317904403
450.0 -0.0008421408382329923 0.0020871634432684553 -2.295370325945361e-05 -0.0012500669800550555 0.013057160331421232 0.009766045855687236 0.0024349418421359507 -0.009463707526298503
460.0 -0.0011129096806624889 0.0020162351536345447 0.0003128060457302395 -0.001234353629562056 0.009228677058387385 0.013457961015545843 0.0053775252629607315 -0.008755958960145449
470.0 -0.0013266625253742735 0.0019177760561232362 0.0006839571077162465 -0.0011387162453223001 0.004284494499337544 0.01573377449410451 0.008100517811357698 -0.0070264991175919165
480.0 -0.0015852139033808296 0.0017712348645016348 0.000984228866530453 -0.0009025827416884389 -0.0010823679050458686 0.016242656771747365 0.010216221478422759 -0.0044872217112870965
490.0 -0.0018178651135091568 0.0016220829613479515 0.001210462679418385 -0.0005497812429547808 -0.006380996023465152 0.014923428844049343 0.01146277583591163 -0.0012895628104070496
500.0 -0.002057410338118265 0.0014303800502661263 0.0012412546616311514 -0.00017645767825769473 -0.011015398640557459 0.012031060554566873 0.011562118312696401 0.002306625823795395
510.0 -0.002218735959726409 0.0012423085080528464 0.001226644273871321 0.0002735461155979173 -0.014342825583378174 0.007759341208770339 0.010520181689313873 0.005769132310660671
520.0 -0.0024161677242992676 0.001043403613539678 0.0010357905851062468 0.0006914648614694014 -0.01612871753625924 0.0026674881844461346 0.008439489785368215 0.008774432999645951
530.0 -0.0022973398315036904 0.0009344448700808183 0.000898127382188946 0.0009138557104011937 -0.016351947793977174 -0.0029049360667053096 0.0056241078880891185 0.011078735758330334
540.0 -0.0027235532764760084 0.0005174645423139249 0.00038496022295544496 0.001224865285553519 -0.014308330779312506 -0.007859715267692628 0.002115716270797143 0.012177351172990175
550.0 -0.0028476187452790526 0.0002574684046101903 -0.0001922237445989778 0.0013820091306388815 -0.011008207033985635 -0.01207642824732262 -0.001395237104382324 0.012388582499778662
560.0 -0.002933977710508468 -9.929923804969045e-05 -0.0005802223194749592 0.0012345814484080618 -0.006532742850286593 -0.015019096158689016 -0.004992096472306927 0.011325638591151174
570.0 -0.003030132581240327 -0.00039808799773666964 -0.0010700808006388928 0.0010260357406704631 -0.0013294460233675485 -0.016422104949854098 -0.00805104616922508 0.009429929945401299
580.0 -0.003131584211128718 -0.0007503369573618342 -0.00142447593167601 0.0006493955768991455 0.004020187422823936 -0.01609495766901207 -0.010426548154497232 0.006774996954483424
590.0 -0.003231358621735076 -0.0011575751498675156 -0.0017127006416887442 0.00015755406867423038 0.008979394550485948 -0.014012365441134777 -0.011932251025337027 0.003501811686692146
600.0 -0.003332502839422166 -0.0015761627547173191 -0.0018649474905254523 -0.0004442282518962835 0.01305516143949249 -0.010399147706074299 -0.01245182689045954 -4.54669962359898e-05
610.0 -0.0033297478294732163 -0.0020277000269023258 -0.0017977061673151295 -0.0010831988534669836 0.015701633548562764 -0.00560744487228131 -0.011915881141168998 -0.003624265690353464
620.0 -0.0032910456745120164 -0.002496817489239803 -0.0015277906229778308 -0.001701407582051594 0.016693533410739963 -0.0001829878043102389 -0.010383421737206296 -0.006857831790934207
630.0 -0.0031662725942233827 -0.0030180025057759945 -0.0010381863048349858 -0.0021865723984272364 0.015757450649711756 0.005265541200152329 -0.007918423252266936 -0.00944986737133626
640.0 -0.0029335495365693963 -0.003538388054401717 -0.00040543852963004933 -0.002492242844051565 0.01314258950501249 0.010124596554896668 -0.004890336277871628 -0.011236192472045962
650.0 -0.002563277637964749 -0.0040645902055231045 0.0003695877048698557 -0.0026642881075906923 0.009058290715089498 0.013775685621855618 -0.0014331623939160727 -0.011834620970883308
660.0 -0.0021526082932659817 -0.004495613288485315 0.0011151627998748016 -0.0023681769585634014 0.003999070768401791 0.0159936883058779 0.002114172367971979 -0.011655740955667127
670.0 -0.0015102258970032187 -0.004740603692820236 0.0016172246949261605 -0.0018121216521111347 -0.0016634260428681836 0.016376532059405254 0.005334990070203073 -0.010476189629941278
680.0 -0.0008891957347735184 -0.005266770666458591 0.0023082407784524687 -0.0012556689924477637 -0.006751613942351772 0.01491365007181444 0.008071830568357436 -0.008013840917978602
690.0 -0.00015431376751861415 -0.005487598842201553 0.0025252072669528338 -0.0005055412967434918 -0.011264182149680694 0.011747197851248775 0.009929484048670272 -0.004997910862403318
700.0 0.0006540462893531335 -0.00562691196891853 0.002536832155718088 0.0002799697238239894 -0.014450193935812322 0.007318207818948509 0.010670092170266257 -0.001582509455235682
710.0 0.0014497034079051343 -0.005596142101865288 0.0022508527340001894 0.0009615500889407073 -0.01602576217390922 0.0021573307552033346 0.010239099518840406 0.001828444836402601
720.0 0.0022356730061872947 -0.00545030202173758 0.0017145822660244083 0.0015578417802429765 -0.01576120905924839 -0.0033505151504427647 0.008693125895770804 0.0049085930426352765
730.0 0.0029884596543910675 -0.00517302685038113 0.0010621130166743348 0.0019192767305052975 -0.013767584798575063 -0.008330418005710197 0.00618925754137555 0.0073122732253785684
740.0 0.0037196016364618814 -0.004782422353408588 0.00025951521844342127 0.002028212470613144 -0.010232379528895144 -0.012430248790895264 0.0030123261466280886 0.008708681523065457
750.0 0.00434026331356384 -0.004284673811081432 -0.0004725002955286344 0.0018937568786724216 -0.005556178040230863 -0.015125392548137917 -0.00047958647517283624 0.008933729719390304
760.0 0.0049084376737817586 -0.003656569018929751 -0.0011478059663081414 0.0015251090905275216 -0.00030951883936872676 -0.016091464682505857 -0.003880770218124383 0.007949842924632217
770.0 0.005357552320816225 -0.003120267842953354 -0.0017334135875680407 0.0009603917832439552 0.004835431361279888 -0.015286789438142446 -0.006748207826473835 0.006002198958324702
780.0 0.005752478686501965 -0.0022625322554818603 -0.0018817785047308567 0.00029087414453756523 0.009700785424117056 -0.012875395872393064 -0.008746651390436724 0.0028319220605499676
790.0 0.005960294006189433 -0.0014819062570737762 -0.001953855032595832 -0.0004259494997289007 0.013308818291748535 -0.009003327357023508 -0.00959457452535249 -0.0008537661185402438
800.0 0.006115131334865383 -0.0006811397687246955 -0.0016501095013693957 -0.0010547332095149394 0.015535971359323612 -0.004192251646941995 -0.009225562251029775 -0.004567675124320368
810.0 0.006103766998170936 5.810940320053572e-05 -0.001210904721127101 -0.0016192893237818211 0.015992375982478227 0.0010975056670178799 -0.00753910127279343 -0.008054359309116813
820.0 0.005971542550520739 0.0007711526505257626 -0.0006339896691998606 -0.0020325149682672477 0.014788992485228709 0.006151193278690249 -0.0047030616816947386 -0.010905562653906742
830.0 0.005764988798654791 0.0014278942564086377 7.564735822004915e-05 -0.002197476818821208 0.011944704353913692 0.010563399525984302 -0.0010490051271616198 -0.01274383541051841
840.0 0.005459578598822495 0.002007671903415347 0.0007851283564885652 -0.0021306338578332166 0.007819429149205774 0.013726110843483262 0.0031119324554868474 -0.013352575028503672
850.0 0.005096768102970028 0.0025371977560246475 0.0014268606711110247 -0.00184219250896806 0.00291566647008392 0.015482751463881912 0.007251597534195253 -0.012648360026865492
860.0 0.00472578319169139 0.0029924230707376815 0.0019370404295562431 -0.0013344620038066293 -0.002314853102999474 0.015531984988669997 0.01112367842099733 -0.010700405963316645
870.0 0.004315451653566788 0.0034199155641520336 0.0022686186525127123 -0.0006477816552370534 -0.0072565370577101634 0.013920239019325091 0.01436994008278821 -0.007607975028506798
880.0 0.003933807039271043 0.003838540962542073 0.0023191542600538703 0.0001392796382455991 -0.011363540207028087 0.010788205055288312 0.0166220095060853 -0.003697699180458998
890.0 0.003518989396460867 0.004112764217329209 0.002094082013973526 0.0007459220399534195 -0.014266308438178929 0.00645813696285627 0.017551543775965205 0.0008383735776169899
900.0 0.0030514084925515545 0.00442763828775629 0.001776285992060291 0.0014737248810268583 -0.015579364113799316 0.0015823347086346036 0.017325083625518736 0.00549269445428911
910.0 0.0026768284757547616 0.004644560301483602 0.0011362014376808548 0.00199588364289574 -0.0152084495128595 -0.0035994189685829665 0.015751137276130433 0.009985688410585255
920.0 0.0022198472037343836 0.0049414862704182435 0.0005123172193209123 0.0021940963334902363 -0.013166476015326932 -0.008265419309094017 0.013038907596358371 0.013765677483576976
930.0 0.001743223090320949 0.005194945314673413 -0.00022483089884871058 0.0022378170072629468 -0.009735576348878923 -0.012066813567833748 0.009379803183488062 0.01678444272150513
940.0 0.0012608533845402685 0.005414155106150964 -0.0009083507765020787 0.002018623440818399 -0.005131678465034411 -0.014534330284435237 0.004978325912663574 0.01862410940168978
950.0 0.0007541129743399313 0.005644669130542214 -0.0014753597866325773 0.0016081413685265717 -7.750858695590442e-05 -0.015372017694849291 0.0002893357642170721 0.01927592002583272
960.0 0.00020528583674002586 0.005804635280724843 -0.0019222132940540496 0.0010113069450782585 0.005019690657722406 -0.014519881769007337 -0.004424956389792331 0.018556653298348175
970.0 -0.00044285419833640943 0.005917157007672842 -0.002156051004435255 0.00030633968789689703 0.009533058043313045 -0.011996893174278777 -0.008692190976271436 0.016574600923151783
980.0 -0.0011173640524164868 0.005994971620618955 -0.002128985216024172 -0.0004787334684791419 0.012930886606835558 -0.008181616542678788 -0.012151654189372552 0.013410191802905189
990.0 -0.0018649596011073018 0.005922321739349859 -0.0018896792416793356 -0.0012179151506862126 0.014850256076188345 -0.0034243649445161606 -0.014537998758789916 0.00946541964426297
1000.0 -0.0026223280898214955 0.005761157937496779 -0.0013966586846135276 -0.0018500023924225885 0.015085619769050306 0.0016929848074234493 -0.015560943547747827 0.005097322916244521
1010.0 -0.003556006982311901 0.005417216591198698 -0.0007255247688385591 -0.0024147266624231748 0.013613107736967235 0.006444474034813867 -0.01534273325085838 0.0009092028652261463
1020.0 -0.004159534341200843 0.005033357794179324 -4.713200106716228e-06 -0.0025007357584600565 0.01047775623589587 0.010740975928807198 -0.013663790886544451 -0.0031326654385725166
1030.0 -0.004882946974800764 0.00450008336135779 0.0007770224169835446 -0.0024939857694348 0.0062225949896762 0.01353517173897253 -0.010975227586506727 -0.00615920503880534
1040.0 -0.0054655489826152155 0.003833435909726967 0.001499263459975843 -0.0022036060553399066 0.0012411193141339762 0.01475503193772926 -0.007609692865704087 -0.00788717132102289
1050.0 -0.005978674969136569 0.003118835881378475 0.0021424251211808396 -0.0016706157758905142 -0.003757134574791526 0.014258561506074928 -0.003999890664998889 -0.00836448977463324
1060.0 -0.0063850023358391775 0.0022816183370876777 0.0025413786874470094 -0.0009805738874042104 -0.00834434491655413 0.012107655398088172 -0.0006507027975103256 -0.007564707122809919
1070.0 -0.006669572463242832 0.001432963559782213 0.002661530304698192 -0.00022145145774737977 -0.01192500294671384 0.00863254379373903 0.0020169086775671616 -0.005637349249510777
1080.0 -0.006857174381909786 0.0005149983788011725 0.002573026858985656 0.0005790297520542884 -0.014199687598342777 0.004150315094649662 0.003711831410785578 -0.0028976961432580248
1090.0 -0.006887625225055952 -0.0003958862624784864 0.002204400072418547 0.0012656503651965279 -0.014817735042586497 -0.0007705742917882765 0.004220483993337171 0.00018077579915235068
1100.0 -0.006784965811368374 -0.0012913035625936836 0.0016358624668548496 0.0018093401033779735 -0.013776346118749097 -0.005539970516459245 0.003473862024406457 0.0032863698052583608
1110.0 -0.006525338322680022 -0.002123624949365996 0.0009346984142740992 0.002182193061277754 -0.011288407520394795 -0.009665893436182618 0.0015670407742575548 0.005917011632590756
1120.0 -0.006175110958287592 -0.002883320916074329 0.000165729827345448 0.002331799696024358 -0.007560741209826571 -0.012729609995363277 -0.0011839387300397067 0.007717777735225083
1130.0 -0.005698484035852801 -0.003473498381179956 -0.0006412858834377085 0.0021776221717571937 -0.003222716770952991 -0.014450837605018486 -0.004436848602746079 0.008563609703225863
1140.0 -0.005211684500972365 -0.004074539857839831 -0.001306722346693599 0.0019059710944492269 0.0015210603468341969 -0.01450302009869251 -0.007985073368040815 0.008119312557578043
1150.0 -0.004698375728349771 -0.004485562687299367 -0.0018277964472086005 0.001423825119383567 0.005892597622048776 -0.01312296312998478 -0.011305159405790518 0.006646854289454269
1160.0 -0.004062971749976565 -0.0048996862485963305 -0.0021381420822634235 0.0007319340205547507 0.009674075516703119 -0.010511154024506801 -0.01408996742956321 0.004082215917460663
1170.0 -0.0034702831607578352 -0.0051356286532304495 -0.0022569306005144956 8.938307119850142e-06 0.012270488938200317 -0.006852820861811439 -0.016065850910998023 0.0006954939078153892
1180.0 -0.0028856810033850763 -0.005313133657327203 -0.002160316866852836 -0.0006845751713832132 0.01362060554295043 -0.002602016857792624 -0.017077449772074073 -0.0031652637474724214
1190.0 -0.002333461738926353 -0.0053501634887836175 -0.0018580101636004448 -0.0013302596894528107 0.0135806300697294 0.0018007093790320065 -0.017019898220098393 -0.007352243218091714
1200.0 -0.00183310187695082 -0.005414257665729036 -0.001323586015892822 -0.0018728307268469986 0.012131677123842716 0.005972823060022921 -0.015768847564364735 -0.011479506358679262
1210.0 -0.0014068909609903945 -0.005413790887604132 -0.0007153118322176927 -0.002207495992837735 0.009451434113923188 0.009424051329623253 -0.013438144451013467 -0.015269083527062655
1220.0 -0.001002457968106021 -0.005398694374173537 6.1928103784671865e-06 -0.00237529642714754 0.0057714978573768765 0.011837195072728159 -0.010125492236082879 -0.018448834759683834
