# MHz S MA R 50.0
140.0000   0.24475097   108.0440 
150.0000   0.26764284   118.0967 
160.0000   0.26488010   131.5833 
170.0000   0.27132736   149.1613 
180.0000   0.25838358   156.5204 
190.0000   0.24172674   168.6712 
200.0000   0.24016124   177.6129 
210.0000   0.23877591   -173.7074 
220.0000   0.24372172   -165.4263 
230.0000   0.23360307   -157.6502 
240.0000   0.21961601   -149.0562 
250.0000   0.22157011   -140.4059 
260.0000   0.23003829   -129.2128 
270.0000   0.23386973   -119.2014 
280.0000   0.24329431   -109.5528 
290.0000   0.25003656   -98.6043 
300.0000   0.25243703   -89.8808 
310.0000   0.24880818   -80.0434 
320.0000   0.25431356   -70.5984 
330.0000   0.25717944   -61.8391 
340.0000   0.25585249   -52.8121 
350.0000   0.25229736   -44.4408 
360.0000   0.25146789   -35.7332 
370.0000   0.23641126   -27.0148 
380.0000   0.24217644   -18.2610 
390.0000   0.24465756   -9.5581 
400.0000   0.24555987   -1.0099 
410.0000   0.25200055   7.6716 
420.0000   0.25347176   16.4696 
430.0000   0.25337687   25.5318 
440.0000   0.25929952   33.8561 
450.0000   0.26157686   42.5154 
460.0000   0.24586442   51.1955 
470.0000   0.23393905   59.8906 
480.0000   0.23324950   68.6756 
490.0000   0.23425478   77.6542 
500.0000   0.23881969   86.4663 
510.0000   0.24100160   95.4618 
520.0000   0.24030540   104.2466 
530.0000   0.24422780   113.1993 
540.0000   0.24911074   122.0256 
550.0000   0.25216341   130.6383 
560.0000   0.26337259   139.3975 
570.0000   0.26400941   148.2913 
580.0000   0.26330876   157.0213 
590.0000   0.27037963   165.8904 
600.0000   0.27003122   174.9334 
610.0000   0.26997930   -175.9374 
620.0000   0.27459650   -166.7398 
630.0000   0.27659600   -157.5397 
640.0000   0.27464935   -148.1649 
650.0000   0.28101467   -138.7638 
660.0000   0.28415220   -129.3466 
670.0000   0.28542709   -119.7624 
680.0000   0.29075912   -110.2752 
690.0000   0.29485218   -100.7311 
700.0000   0.29694791   -91.0838 
710.0000   0.28945281   -81.6226 
720.0000   0.29374802   -71.9543 
730.0000   0.27783589   -61.9939 
740.0000   0.28499697   -52.2482 
750.0000   0.28695170   -42.4604 
760.0000   0.28702288   -32.6641 
770.0000   0.29367858   -22.9193 
780.0000   0.29759191   -13.1423 
790.0000   0.29675643   -3.2105 
800.0000   0.30569417   6.4735 
810.0000   0.30908176   16.1865 
820.0000   0.30943257   25.8808 
830.0000   0.31369104   35.4988 
840.0000   0.31588979   45.2359 
850.0000   0.31409505   55.0898 
860.0000   0.31913166   64.8879 
870.0000   0.31986411   74.7597 
880.0000   0.31608226   84.6570 
890.0000   0.31680253   94.4734 
900.0000   0.31786526   104.4206 
910.0000   0.29482702   114.4983 
920.0000   0.29573576   124.2781 
930.0000   0.27479444   134.2270 
940.0000   0.27070262   144.2171 
950.0000   0.27136248   154.0861 
960.0000   0.26659965   164.0068 
970.0000   0.26080803   173.9202 
980.0000   0.26010489   -176.2077 
990.0000   0.25649781   -166.3190 
1000.0000   0.24830182   -156.4499 
1010.0000   0.24730060   -146.6843 
1020.0000   0.24409745   -136.9345 
1030.0000   0.23649321   -127.2881 
1040.0000   0.23583783   -117.7630 
1050.0000   0.23257929   -108.3143 
1060.0000   0.22572596   -99.0869 
1070.0000   0.22782122   -89.9581 
1080.0000   0.22436542   -80.8458 
1090.0000   0.21923433   -71.8660 
1100.0000   0.22093679   -63.0405 
1110.0000   0.21905283   -54.2773 
1120.0000   0.21711000   -45.6373 
1130.0000   0.21887548   -37.0495 
1140.0000   0.21476673   -28.5920 
1150.0000   0.20977369   -20.1962 
1160.0000   0.20769528   -11.8551 
1170.0000   0.20546145   -3.5739 
1180.0000   0.20503073   4.7284 
1190.0000   0.20611033   13.0711 
1200.0000   0.20643937   21.5645 
1210.0000   0.20345217   30.0576 
1220.0000   0.20266381   38.6326 
1230.0000   0.20308796   47.2535 
1240.0000   0.20361202   55.9297 
1250.0000   0.20557356   64.6512 
1260.0000   0.20595068   73.2386 
1270.0000   0.20417017   81.8361 
1280.0000   0.20349286   90.3265 
1290.0000   0.20468403   98.9122 
1300.0000   0.20527799   107.5194 
1310.0000   0.20774177   116.0627 
1320.0000   0.20807504   124.5811 
1330.0000   0.20688412   132.9645 
1340.0000   0.20700091   141.3642 
1350.0000   0.20797137   149.8314 
1360.0000   0.20889793   158.2983 
1370.0000   0.21248751   166.9795 
1380.0000   0.21162105   175.7015 
1390.0000   0.20973964   -175.6372 
1400.0000   0.20946220   -166.8627 
1410.0000   0.21009841   -157.9932 
1420.0000   0.20368442   -149.1051 
1430.0000   0.20627985   -140.2139 
1440.0000   0.20671749   -131.3088 
1450.0000   0.19818816   -122.8472 
1460.0000   0.19897757   -114.0299 
1470.0000   0.20051658   -105.1872 
1480.0000   0.20122803   -96.3678 
1490.0000   0.20654055   -87.4204 
1500.0000   0.20853275   -78.6013 
1510.0000   0.20872726   -69.9808 
1520.0000   0.21060751   -61.3053 
1530.0000   0.21634561   -52.4560 
1540.0000   0.22107218   -43.4757 
1550.0000   0.22701478   -34.3389 
1560.0000   0.23152412   -25.0150 
1570.0000   0.22897299   -15.9743 
1580.0000   0.23187539   -6.4226 
1590.0000   0.24076067   3.6229 
1600.0000   0.24270952   13.4964 
1610.0000   0.25111430   23.6945 
1620.0000   0.25478604   33.9400 
1630.0000   0.25157906   43.8270 
1640.0000   0.25599513   54.1310 
1650.0000   0.26055421   64.4569 
1660.0000   0.25687283   74.6158 
1670.0000   0.26226030   85.0666 
1680.0000   0.26121808   95.4592 
1690.0000   0.25625627   105.5064 
1700.0000   0.25516276   115.8318 
1710.0000   0.25528897   126.1501 
1720.0000   0.25269549   136.2249 
1730.0000   0.25157187   146.3588 
1740.0000   0.24877851   156.3882 
1750.0000   0.24337587   166.0692 
1760.0000   0.23999897   175.6393 
1770.0000   0.23700560   -174.8034 
1780.0000   0.23283170   -165.3812 
1790.0000   0.23208258   -155.9703 
1800.0000   0.22853515   -146.5648 
1810.0000   0.22327928   -137.5061 
1820.0000   0.21172302   -129.4124 
1830.0000   0.20924421   -120.3298 
1840.0000   0.20665723   -111.3221 
1850.0000   0.19670095   -102.9679 
1860.0000   0.19411473   -94.0513 
1870.0000   0.19123130   -85.4006 
1880.0000   0.18913100   -76.6894 
1890.0000   0.18657760   -68.0207 
1900.0000   0.18455714   -59.3435 
1910.0000   0.18357640   -50.5913 
1920.0000   0.18157649   -41.7813 
1930.0000   0.17819899   -33.2687 
1940.0000   0.17577534   -24.6346 
1950.0000   0.17385264   -15.9897 
1960.0000   0.17203571   -7.2997 
1970.0000   0.17107183   1.3393 
1980.0000   0.16884821   10.1146 
1990.0000   0.16506606   18.5277 
2000.0000   0.16217022   27.1398 
2010.0000   0.15954694   35.7982 
2020.0000   0.15676151   44.5114 
2030.0000   0.15405521   53.0527 
2040.0000   0.15135708   61.6600 
2050.0000   0.14721399   69.9146 
2060.0000   0.14431406   78.2674 
2070.0000   0.14235550   86.6067 
2080.0000   0.14009243   94.9826 
2090.0000   0.13933904   103.2806 
2100.0000   0.13798665   111.5487 
2110.0000   0.13608910   119.5223 
2120.0000   0.13516130   127.5532 
2130.0000   0.13467307   135.6414 
2140.0000   0.13425584   143.7370 
2150.0000   0.13567003   152.1022 
2160.0000   0.13525659   160.5351 
2170.0000   0.13442880   168.7049 
2180.0000   0.13439851   177.0070 
2190.0000   0.13510431   -174.6246 
2200.0000   0.13606779   -164.1116 
2210.0000   0.14357549   -156.1962 
2220.0000   0.14353516   -148.0676 
2230.0000   0.14493358   -139.9392 
2240.0000   0.14593452   -131.7466 
2250.0000   0.14749297   -123.4888 
2260.0000   0.14890150   -115.0608 
2270.0000   0.15044104   -106.6279 
2280.0000   0.15383963   -98.1481 
2290.0000   0.15439964   -89.9151 
2300.0000   0.15709721   -81.3612 
2310.0000   0.15860396   -72.9699 
2320.0000   0.16056013   -64.5110 
2330.0000   0.16430565   -55.8758 
2340.0000   0.16528370   -47.4432 
2350.0000   0.16790298   -38.6126 
2360.0000   0.16985008   -30.0491 
2370.0000   0.17191023   -21.4736 
2380.0000   0.17414403   -12.8775 
2390.0000   0.17559589   -4.1672 
2400.0000   0.17896341   4.5882 
2410.0000   0.17942815   13.1514 
2420.0000   0.18119950   21.7611 
2430.0000   0.18291442   30.4280 
2440.0000   0.18377521   39.2541 
2450.0000   0.18666887   48.0507 
2460.0000   0.18612096   56.7866 
2470.0000   0.18814586   65.6657 
2480.0000   0.18921273   74.6931 
2490.0000   0.19027425   83.8154 
2500.0000   0.19153593   93.0773 
2510.0000   0.19190797   102.3597 
2520.0000   0.19391932   111.8909 
2530.0000   0.19297856   121.4124 
2540.0000   0.19307858   131.0775 
2550.0000   0.19297999   140.8276 
2560.0000   0.19294908   150.7488 
2570.0000   0.19408836   160.6095 
2580.0000   0.19217355   170.5592 
2590.0000   0.19176702   -179.4564 
2600.0000   0.19063884   -169.5530 
2610.0000   0.18987248   -159.5840 
2620.0000   0.18855118   -149.6580 
2630.0000   0.18700458   -139.6382 
2640.0000   0.18641801   -129.6558 
2650.0000   0.18336937   -119.8513 
2660.0000   0.18169757   -110.0427 
2670.0000   0.17893288   -100.3278 
2680.0000   0.17584322   -90.6223 
2690.0000   0.17449317   -81.0305 
2700.0000   0.17034209   -71.4241 
2710.0000   0.16712128   -62.0275 
2720.0000   0.16389250   -52.7154 
2730.0000   0.16032675   -43.4077 
2740.0000   0.15686049   -34.2432 
2750.0000   0.15303348   -25.1034 
2760.0000   0.15036671   -15.9635 
2770.0000   0.14594120   -7.1905 
2780.0000   0.14276760   1.7551 
2790.0000   0.13950425   10.7699 
2800.0000   0.13537150   19.5445 
2810.0000   0.13332517   28.2178 
2820.0000   0.12918504   36.9193 
2830.0000   0.12694282   45.4632 
2840.0000   0.12123333   58.1137 
2850.0000   0.11870270   66.6462 
2860.0000   0.11656878   75.0989 
2870.0000   0.11397488   83.5520 
2880.0000   0.10788676   91.8115 
2890.0000   0.10489139   99.9779 
2900.0000   0.10390050   108.5218 
2910.0000   0.10210911   116.8716 
2920.0000   0.10065754   125.2763 
2930.0000   0.10080694   133.7564 
2940.0000   0.09867651   142.1723 
2950.0000   0.09837281   150.6434 
2960.0000   0.09705831   159.1516 
2970.0000   0.09649802   167.6319 
2980.0000   0.09593683   176.1491 
2990.0000   0.09521250   -175.3336 
3000.0000   0.09518128   -166.5419 
3010.0000   0.09423996   -158.1006 
3020.0000   0.09336558   -149.5046 
3030.0000   0.09283516   -140.8276 
3040.0000   0.09172100   -132.1501 
3050.0000   0.09175049   -123.4609 
3060.0000   0.09001091   -114.7975 
3070.0000   0.08926774   -106.0661 
3080.0000   0.08777815   -97.5738 
3090.0000   0.08684421   -88.8668 
3100.0000   0.08558015   -80.2557 
3110.0000   0.08434945   -71.7546 
3120.0000   0.08349697   -63.1724 
3130.0000   0.08172989   -54.7780 
3140.0000   0.08022434   -46.2662 
3150.0000   0.07905861   -37.8290 
3160.0000   0.07819342   -29.3718 
3170.0000   0.07775194   -21.0627 
3180.0000   0.07617729   -12.6017 
3190.0000   0.07568767   -4.1398 
3200.0000   0.07487609   4.1563 
3210.0000   0.07467916   12.4112 
3220.0000   0.07540085   20.8996 
3230.0000   0.07495236   29.1261 
3240.0000   0.07550299   37.6779 
3250.0000   0.07512051   45.7977 
3260.0000   0.07528938   54.1128 
3270.0000   0.07596789   62.3939 
3280.0000   0.07644116   70.8156 
3290.0000   0.07769552   79.3831 
3300.0000   0.07785674   87.9225 
3310.0000   0.07889882   96.5275 
3320.0000   0.07996472   105.2346 
3330.0000   0.08088930   113.9717 
3340.0000   0.08227773   122.9279 
3350.0000   0.08346734   131.8381 
3360.0000   0.08536519   141.2314 
3370.0000   0.08599234   150.2100 
3380.0000   0.08706861   159.3165 
3390.0000   0.08796760   168.6022 
3400.0000   0.08899606   178.0599 
3410.0000   0.08990210   -172.5490 
3420.0000   0.08981445   -162.8700 
3430.0000   0.08926927   -153.3734 
3440.0000   0.09015784   -143.5659 
3450.0000   0.09018761   -133.7464 
3460.0000   0.08998899   -123.8632 
3470.0000   0.08935770   -113.9728 
3480.0000   0.08912182   -103.9083 
3490.0000   0.08760655   -94.1957 
3500.0000   0.08648177   -84.4314 
3510.0000   0.08539552   -74.5696 
3520.0000   0.08388056   -64.6371 
3530.0000   0.08278410   -54.6968 
3540.0000   0.08080727   -44.7726 
3550.0000   0.07913005   -34.9050 
3560.0000   0.07743721   -25.0798 
3570.0000   0.07573131   -15.2475 
3580.0000   0.07401598   -5.4136 
3590.0000   0.07202676   4.2780 
3600.0000   0.07068481   14.1920 
3610.0000   0.06875979   23.5589 
3620.0000   0.06702468   32.9650 
3630.0000   0.06552289   42.1623 
3640.0000   0.06242654   48.1724 
3650.0000   0.06148036   57.5812 
3660.0000   0.05981915   66.8906 
3670.0000   0.05850699   76.1532 
3680.0000   0.05733705   85.4141 
3690.0000   0.05630905   94.6521 
3700.0000   0.05284073   103.1122 
3710.0000   0.05157142   112.2889 
3720.0000   0.05076704   121.8015 
3730.0000   0.04943609   130.8820 
3740.0000   0.04838337   140.1238 
3750.0000   0.04715522   149.3285 
3760.0000   0.04596786   158.5945 
3770.0000   0.04520301   167.8976 
3780.0000   0.04350989   177.0536 
3790.0000   0.04229453   -173.9597 
3800.0000   0.04097505   -164.8232 
3810.0000   0.03961268   -155.9189 
3820.0000   0.03826908   -147.0652 
3830.0000   0.03695940   -138.3338 
3840.0000   0.03591119   -129.4808 
3850.0000   0.03431743   -121.1348 
3860.0000   0.03304784   -112.7261 
3870.0000   0.03190248   -104.3753 
3880.0000   0.03074438   -96.2491 
3890.0000   0.03003892   -88.1180 
3900.0000   0.02886737   -80.1010 
3910.0000   0.02811919   -72.0759 
3920.0000   0.02735633   -64.3260 
3930.0000   0.02670887   -56.5047 
3940.0000   0.02609673   -48.8011 
3950.0000   0.02562938   -41.1828 
3960.0000   0.02529545   -33.2978 
3970.0000   0.02482184   -25.8821 
3980.0000   0.02458638   -18.0879 
3990.0000   0.02442728   -10.4077 
