# MHz S MA R 50.0
1500.0000   0.00899002   160.6323 
1503.0000   0.00893851   163.0077 
1506.0000   0.00891776   165.0600 
1509.0000   0.00891559   167.6430 
1512.0000   0.00887612   170.0985 
1515.0000   0.00889005   172.2521 
1518.0000   0.00883299   174.9449 
1521.0000   0.00880554   177.2555 
1524.0000   0.00878561   179.6039 
1527.0000   0.00883619   -178.2312 
1530.0000   0.00879877   -175.6855 
1533.0000   0.00879468   -172.9054 
1536.0000   0.00878588   -170.8589 
1539.0000   0.00878134   -168.4465 
1542.0000   0.00880151   -165.9895 
1545.0000   0.00878061   -163.6617 
1548.0000   0.00876423   -161.0178 
1551.0000   0.00875907   -158.7656 
1554.0000   0.00876634   -156.1052 
1557.0000   0.00879222   -153.5675 
1560.0000   0.00871951   -151.0397 
1563.0000   0.00871825   -148.5561 
1566.0000   0.00872731   -145.8240 
1569.0000   0.00868152   -143.6423 
1572.0000   0.00866891   -141.1585 
1575.0000   0.00864166   -138.5605 
1578.0000   0.00861915   -135.7627 
1581.0000   0.00861809   -133.5752 
1584.0000   0.00859967   -130.8098 
1587.0000   0.00859579   -128.1726 
1590.0000   0.00856526   -125.8535 
1593.0000   0.00857360   -123.2038 
1596.0000   0.00854870   -120.5952 
1599.0000   0.00856657   -118.2286 
1602.0000   0.00848783   -115.8021 
1605.0000   0.00852062   -113.0651 
1608.0000   0.00855771   -110.5098 
1611.0000   0.00852854   -108.1221 
1614.0000   0.00849874   -105.5187 
1617.0000   0.00853634   -102.9742 
1620.0000   0.00850452   -100.5529 
1623.0000   0.00852841   -97.8646 
1626.0000   0.00849863   -95.6553 
1629.0000   0.00853374   -92.8403 
1632.0000   0.00850489   -90.4972 
1635.0000   0.00852785   -88.1876 
1638.0000   0.00850159   -85.1759 
1641.0000   0.00849031   -83.0156 
1644.0000   0.00850298   -80.3757 
1647.0000   0.00849947   -77.9555 
1650.0000   0.00847665   -75.4349 
1653.0000   0.00847700   -73.2715 
1656.0000   0.00853416   -70.6843 
1659.0000   0.00852755   -68.3097 
1662.0000   0.00850934   -65.9166 
1665.0000   0.00849798   -63.1948 
1668.0000   0.00849840   -60.7826 
1671.0000   0.00853518   -58.4812 
1674.0000   0.00854987   -56.4295 
1677.0000   0.00856670   -53.7227 
1680.0000   0.00858626   -51.4276 
1683.0000   0.00856460   -49.0180 
1686.0000   0.00854717   -46.8058 
1689.0000   0.00851651   -44.4176 
1692.0000   0.00855834   -41.9918 
1695.0000   0.00856847   -39.8031 
1698.0000   0.00854543   -37.5362 
1701.0000   0.00861943   -35.2388 
1704.0000   0.00862862   -32.8160 
1707.0000   0.00862028   -30.5187 
1710.0000   0.00861524   -28.5676 
1713.0000   0.00865792   -26.3429 
1716.0000   0.00859945   -24.0222 
1719.0000   0.00860766   -21.7384 
1722.0000   0.00863623   -19.0903 
1725.0000   0.00861296   -17.2533 
1728.0000   0.00863328   -14.8216 
1731.0000   0.00861082   -12.7099 
1734.0000   0.00859589   -10.2106 
1737.0000   0.00861278   -8.0224 
1740.0000   0.00866865   -5.6939 
1743.0000   0.00862710   -4.0199 
1746.0000   0.00871406   -1.5554 
1749.0000   0.00864709   0.6366 
1752.0000   0.00863546   2.7788 
1755.0000   0.00864792   4.9338 
1758.0000   0.00869423   7.2066 
1761.0000   0.00864249   9.3560 
1764.0000   0.00868167   11.6001 
1767.0000   0.00866649   13.5873 
1770.0000   0.00864532   16.1078 
1773.0000   0.00866055   17.9568 
1776.0000   0.00864993   20.2340 
1779.0000   0.00866623   22.4578 
1782.0000   0.00864825   24.4100 
1785.0000   0.00867660   26.5149 
1788.0000   0.00867956   28.5358 
1791.0000   0.00867581   30.5534 
1794.0000   0.00866202   32.8421 
1797.0000   0.00866771   35.3450 
1800.0000   0.00864015   36.7462 
1803.0000   0.00859952   39.4638 
1806.0000   0.00862035   41.3031 
1809.0000   0.00865089   43.0745 
1812.0000   0.00859530   45.6411 
1815.0000   0.00862113   47.5402 
1818.0000   0.00862414   48.9825 
1821.0000   0.00857646   50.9393 
1824.0000   0.00865471   52.8260 
1827.0000   0.00862336   54.9212 
1830.0000   0.00868130   57.3039 
1833.0000   0.00864588   59.2468 
1836.0000   0.00863218   61.6115 
1839.0000   0.00865779   63.7306 
1842.0000   0.00859998   65.4749 
1845.0000   0.00864393   68.1681 
1848.0000   0.00865300   69.9434 
1851.0000   0.00861029   72.4798 
1854.0000   0.00868924   74.2599 
1857.0000   0.00863502   76.1858 
1860.0000   0.00871420   78.4495 
1863.0000   0.00867113   80.3921 
1866.0000   0.00866663   82.5397 
1869.0000   0.00867610   84.7042 
1872.0000   0.00870910   86.5610 
1875.0000   0.00876592   89.0399 
1878.0000   0.00876063   90.8120 
1881.0000   0.00876528   93.0649 
1884.0000   0.00876757   95.3906 
1887.0000   0.00876321   97.6864 
1890.0000   0.00877430   99.7041 
1893.0000   0.00878181   101.9072 
1896.0000   0.00874958   104.1708 
1899.0000   0.00875386   106.2989 
1902.0000   0.00871996   108.7112 
1905.0000   0.00869580   110.5758 
1908.0000   0.00868121   112.8061 
1911.0000   0.00875194   115.0680 
1914.0000   0.00873073   117.4501 
1917.0000   0.00870432   119.7418 
1920.0000   0.00865220   121.9867 
1923.0000   0.00870401   124.0638 
1926.0000   0.00868311   125.8969 
1929.0000   0.00867672   128.2973 
1932.0000   0.00857443   130.6525 
1935.0000   0.00857775   133.0629 
1938.0000   0.00855511   135.2272 
1941.0000   0.00851575   137.4098 
1944.0000   0.00850908   139.5514 
1947.0000   0.00841861   141.7793 
1950.0000   0.00847093   143.9907 
1953.0000   0.00838906   146.4711 
1956.0000   0.00837322   148.7370 
1959.0000   0.00837459   150.4800 
1962.0000   0.00834414   152.9095 
1965.0000   0.00829288   155.1923 
1968.0000   0.00826578   157.1837 
1971.0000   0.00822994   159.7796 
1974.0000   0.00817373   161.7922 
1977.0000   0.00813791   163.9196 
1980.0000   0.00809455   165.7333 
1983.0000   0.00804595   167.7548 
1986.0000   0.00803647   170.2458 
1989.0000   0.00799690   172.2907 
1992.0000   0.00796233   174.3529 
1995.0000   0.00797541   176.3754 
1998.0000   0.00796048   178.4034 
2001.0000   0.00788966   -179.7916 
2004.0000   0.00789741   -177.3232 
2007.0000   0.00792483   -175.3090 
2010.0000   0.00788530   -173.5580 
2013.0000   0.00786908   -171.2581 
2016.0000   0.00790703   -169.2082 
2019.0000   0.00790456   -167.2795 
2022.0000   0.00795830   -164.9229 
2025.0000   0.00801507   -162.4673 
2028.0000   0.00799879   -160.2794 
2031.0000   0.00807393   -158.0843 
2034.0000   0.00811612   -155.5509 
2037.0000   0.00819858   -152.9720 
2040.0000   0.00820676   -150.1798 
2043.0000   0.00825590   -147.7478 
2046.0000   0.00836635   -144.7973 
2049.0000   0.00837412   -141.8221 
2052.0000   0.00837252   -138.9203 
2055.0000   0.00841388   -136.1127 
2058.0000   0.00845617   -132.9622 
2061.0000   0.00850023   -130.0998 
2064.0000   0.00851912   -127.1198 
2067.0000   0.00849544   -124.0825 
2070.0000   0.00849364   -120.8626 
2073.0000   0.00847536   -117.7341 
2076.0000   0.00851405   -114.4469 
2079.0000   0.00852012   -111.6728 
2082.0000   0.00850257   -108.4246 
2085.0000   0.00853734   -105.2755 
2088.0000   0.00850954   -102.0799 
2091.0000   0.00847380   -99.1414 
2094.0000   0.00848082   -96.0481 
2097.0000   0.00847625   -92.6580 
2100.0000   0.00845050   -89.5624 
2103.0000   0.00841223   -86.6133 
2106.0000   0.00841549   -83.2234 
2109.0000   0.00839580   -80.5267 
2112.0000   0.00834527   -77.7320 
2115.0000   0.00834214   -74.5925 
2118.0000   0.00828755   -71.6826 
2121.0000   0.00824780   -68.9156 
2124.0000   0.00823825   -66.2437 
2127.0000   0.00822433   -63.3839 
2130.0000   0.00817558   -60.6089 
2133.0000   0.00813819   -58.2123 
2136.0000   0.00816664   -55.7475 
2139.0000   0.00811833   -52.6844 
2142.0000   0.00815818   -50.2708 
2145.0000   0.00816796   -47.8009 
2148.0000   0.00813156   -44.9340 
2151.0000   0.00818140   -42.5433 
2154.0000   0.00815686   -39.6874 
2157.0000   0.00817582   -37.0847 
2160.0000   0.00815929   -34.5904 
2163.0000   0.00818968   -31.5907 
2166.0000   0.00821418   -29.2841 
2169.0000   0.00820000   -26.7045 
2172.0000   0.00819064   -23.9087 
2175.0000   0.00822064   -21.2812 
2178.0000   0.00820304   -18.7379 
2181.0000   0.00820902   -16.1822 
2184.0000   0.00822846   -13.5738 
2187.0000   0.00821514   -11.2529 
2190.0000   0.00819821   -8.4188 
2193.0000   0.00828670   -5.9510 
2196.0000   0.00826975   -3.1009 
2199.0000   0.00829389   -0.8312 
2202.0000   0.00823645   4.8571 
2205.0000   0.00824831   7.3525 
2208.0000   0.00826183   9.8104 
2211.0000   0.00829513   12.3259 
2214.0000   0.00827365   14.6152 
2217.0000   0.00834770   17.3423 
2220.0000   0.00832443   20.0415 
2223.0000   0.00836029   22.1333 
2226.0000   0.00837290   24.8467 
2229.0000   0.00835115   27.4534 
2232.0000   0.00836700   29.7112 
2235.0000   0.00838792   32.2963 
2238.0000   0.00837658   34.8506 
2241.0000   0.00839003   37.4143 
2244.0000   0.00838344   39.8032 
2247.0000   0.00841040   42.3107 
2250.0000   0.00842447   44.8554 
2253.0000   0.00840548   47.2274 
2256.0000   0.00844381   49.4770 
2259.0000   0.00846393   51.6156 
2262.0000   0.00844532   54.5246 
2265.0000   0.00848717   56.9834 
2268.0000   0.00850230   59.3337 
2271.0000   0.00847743   62.0827 
2274.0000   0.00846459   64.7119 
2277.0000   0.00851930   67.0325 
2280.0000   0.00854857   69.5918 
2283.0000   0.00855898   72.0789 
2286.0000   0.00854535   74.3703 
2289.0000   0.00853345   77.1788 
2292.0000   0.00861157   79.7028 
2295.0000   0.00860240   82.0085 
2298.0000   0.00860859   84.5376 
2301.0000   0.00862944   87.1722 
2304.0000   0.00861820   89.7443 
2307.0000   0.00864202   92.0764 
2310.0000   0.00867438   94.9667 
2313.0000   0.00865967   97.5714 
2316.0000   0.00862435   99.9389 
2319.0000   0.00862607   102.5887 
2322.0000   0.00862884   105.0409 
2325.0000   0.00861929   107.7219 
2328.0000   0.00862409   110.0377 
2331.0000   0.00854201   113.1529 
2334.0000   0.00860513   115.1465 
2337.0000   0.00853462   116.3192 
2340.0000   0.00862607   120.0251 
2343.0000   0.00865556   122.4455 
2346.0000   0.00862173   125.1762 
2349.0000   0.00865007   127.9189 
2352.0000   0.00864069   130.1478 
2355.0000   0.00866836   132.4704 
2358.0000   0.00867505   134.9184 
2361.0000   0.00873136   137.4976 
2364.0000   0.00870761   140.2660 
2367.0000   0.00869970   142.7090 
2370.0000   0.00872516   145.5314 
2373.0000   0.00875494   148.2041 
2376.0000   0.00874369   150.4474 
2379.0000   0.00873391   153.0219 
2382.0000   0.00875807   155.6224 
2385.0000   0.00875923   158.0155 
2388.0000   0.00874804   160.5008 
2391.0000   0.00874869   163.3686 
2394.0000   0.00871586   165.5875 
2397.0000   0.00874330   168.0441 
2400.0000   0.00876744   170.2899 
2403.0000   0.00868582   172.9152 
2406.0000   0.00870997   175.0911 
2409.0000   0.00875977   177.6226 
2412.0000   0.00874163   179.9768 
2415.0000   0.00882435   -177.4104 
2418.0000   0.00875126   -175.0025 
2421.0000   0.00875507   -172.3435 
2424.0000   0.00876641   -170.2925 
2427.0000   0.00864785   -167.6416 
2430.0000   0.00875835   -165.1830 
2433.0000   0.00876241   -163.0277 
2436.0000   0.00876324   -160.4466 
2439.0000   0.00874840   -158.0156 
2442.0000   0.00875145   -155.4252 
2445.0000   0.00874504   -152.8976 
2448.0000   0.00876047   -150.7643 
2451.0000   0.00874148   -148.2351 
2454.0000   0.00868656   -145.8303 
2457.0000   0.00872781   -143.5480 
2460.0000   0.00869160   -141.1760 
2463.0000   0.00863156   -138.5054 
2466.0000   0.00869632   -136.1451 
2469.0000   0.00869919   -133.7456 
2472.0000   0.00872149   -131.4751 
2475.0000   0.00867156   -128.9508 
2478.0000   0.00865954   -126.7548 
2481.0000   0.00864388   -124.1942 
2484.0000   0.00863210   -121.9556 
2487.0000   0.00863062   -119.3686 
2490.0000   0.00864115   -117.0250 
2493.0000   0.00860288   -114.7090 
2496.0000   0.00859049   -112.4104 
2499.0000   0.00861980   -109.8750 
2502.0000   0.00858861   -107.4763 
2505.0000   0.00861388   -105.0240 
2508.0000   0.00856910   -102.4307 
2511.0000   0.00856672   -100.4847 
2514.0000   0.00854838   -97.3334 
2517.0000   0.00852955   -95.0163 
2520.0000   0.00853277   -92.6981 
2523.0000   0.00851387   -90.6076 
2526.0000   0.00852466   -87.6792 
2529.0000   0.00851890   -85.0053 
2532.0000   0.00850724   -82.5838 
2535.0000   0.00849325   -80.1724 
2538.0000   0.00850990   -77.7160 
2541.0000   0.00845920   -74.8779 
2544.0000   0.00869751   -76.6459 
2547.0000   0.00841488   -70.1764 
2550.0000   0.00842171   -67.5805 
2553.0000   0.00842371   -64.9885 
2556.0000   0.00841921   -62.3469 
2559.0000   0.00843452   -60.1259 
2562.0000   0.00841922   -57.5307 
2565.0000   0.00841426   -54.9587 
2568.0000   0.00837164   -52.3934 
2571.0000   0.00836835   -50.0688 
2574.0000   0.00839162   -47.7145 
2577.0000   0.00834380   -45.2804 
2580.0000   0.00832038   -42.4725 
2583.0000   0.00832196   -39.9525 
2586.0000   0.00831351   -37.2408 
2589.0000   0.00830639   -34.9485 
2592.0000   0.00828009   -32.4012 
2595.0000   0.00827482   -30.1833 
2598.0000   0.00821606   -27.5956 
2601.0000   0.00819866   -25.1034 
2604.0000   0.00820989   -22.5267 
2607.0000   0.00819153   -20.0455 
2610.0000   0.00819312   -17.6366 
2613.0000   0.00814903   -15.2205 
2616.0000   0.00811028   -12.9423 
2619.0000   0.00810711   -10.4975 
2622.0000   0.00813596   -8.2525 
2625.0000   0.00806164   -5.5042 
2628.0000   0.00803006   -2.6013 
2631.0000   0.00802547   -0.4447 
2634.0000   0.00799194   2.0526 
2637.0000   0.00796944   4.4479 
2640.0000   0.00792631   6.8002 
2643.0000   0.00791167   9.1982 
2646.0000   0.00788375   11.7596 
2649.0000   0.00788771   14.2417 
2652.0000   0.00785234   16.9511 
2655.0000   0.00784472   18.9368 
2658.0000   0.00782216   21.5077 
2661.0000   0.00776956   24.2391 
2664.0000   0.00774009   26.5151 
2667.0000   0.00773876   29.1167 
2670.0000   0.00775167   31.3274 
2673.0000   0.00771678   34.2252 
2676.0000   0.00770193   36.6569 
2679.0000   0.00766308   39.3167 
2682.0000   0.00766505   42.2886 
2685.0000   0.00764163   44.3266 
2688.0000   0.00763057   46.8625 
2691.0000   0.00757563   49.6608 
2694.0000   0.00752886   52.0990 
2697.0000   0.00751803   54.7414 
2700.0000   0.00751556   56.9051 
2703.0000   0.00745948   59.7755 
2706.0000   0.00746514   62.0010 
2709.0000   0.00744163   64.7031 
2712.0000   0.00741068   67.3866 
2715.0000   0.00741759   70.0525 
2718.0000   0.00738923   71.9894 
2721.0000   0.00734921   74.8915 
2724.0000   0.00736551   77.5859 
2727.0000   0.00732302   79.9953 
2730.0000   0.00731312   82.4681 
2733.0000   0.00732424   85.0272 
2736.0000   0.00727797   87.3283 
2739.0000   0.00728828   90.4523 
2742.0000   0.00723852   92.8027 
2745.0000   0.00721461   95.4444 
2748.0000   0.00725837   97.8412 
2751.0000   0.00720132   100.5941 
2754.0000   0.00718721   103.3487 
2757.0000   0.00715307   105.5019 
2760.0000   0.00719168   108.2818 
2763.0000   0.00719750   110.6381 
2766.0000   0.00721254   113.4225 
2769.0000   0.00715277   115.9632 
2772.0000   0.00717787   118.1602 
2775.0000   0.00715018   120.7364 
2778.0000   0.00715913   123.3361 
2781.0000   0.00713413   125.8813 
2784.0000   0.00713986   128.5575 
2787.0000   0.00716877   131.1958 
2790.0000   0.00713384   133.7791 
2793.0000   0.00715326   136.2457 
2796.0000   0.00715949   138.9512 
2799.0000   0.00714235   141.4295 
2802.0000   0.00714733   143.8940 
2805.0000   0.00717962   146.3085 
2808.0000   0.00713288   149.0244 
2811.0000   0.00716939   151.7062 
2814.0000   0.00717170   154.0090 
2817.0000   0.00718244   156.7736 
2820.0000   0.00716765   159.2328 
2823.0000   0.00718309   161.8791 
2826.0000   0.00717186   164.1037 
2829.0000   0.00719324   166.7584 
2832.0000   0.00719956   169.1816 
2835.0000   0.00722400   171.4601 
2838.0000   0.00729030   178.6777 
2841.0000   0.00725906   -178.4952 
2844.0000   0.00731548   -175.9590 
2847.0000   0.00732976   -173.8046 
2850.0000   0.00728453   -171.2208 
2853.0000   0.00730641   -168.6626 
2856.0000   0.00727414   -166.0725 
2859.0000   0.00729347   -163.8542 
2862.0000   0.00726575   -161.1456 
2865.0000   0.00730585   -158.7174 
2868.0000   0.00730340   -156.4831 
2871.0000   0.00731673   -153.7569 
2874.0000   0.00727134   -151.4850 
2877.0000   0.00731387   -149.0936 
2880.0000   0.00731115   -146.6809 
2883.0000   0.00759606   -140.6355 
2886.0000   0.00762287   -138.5144 
2889.0000   0.00762535   -135.7996 
2892.0000   0.00764726   -133.5474 
2895.0000   0.00767393   -131.0649 
2898.0000   0.00768248   -128.7663 
2901.0000   0.00771484   -126.3351 
2904.0000   0.00771929   -123.7517 
2907.0000   0.00771467   -121.5157 
2910.0000   0.00775011   -119.0788 
2913.0000   0.00773857   -116.7709 
2916.0000   0.00774609   -114.4329 
2919.0000   0.00778535   -112.0539 
2922.0000   0.00778644   -109.8348 
2925.0000   0.00779537   -107.4531 
2928.0000   0.00778599   -105.3334 
2931.0000   0.00782859   -103.0550 
2934.0000   0.00783258   -100.7782 
2937.0000   0.00786236   -98.3162 
2940.0000   0.00789483   -96.1358 
2943.0000   0.00788435   -93.6419 
2946.0000   0.00784397   -91.4104 
2949.0000   0.00788700   -88.9479 
2952.0000   0.00789090   -86.7561 
2955.0000   0.00788280   -84.4432 
2958.0000   0.00789692   -82.1352 
2961.0000   0.00789483   -79.9171 
2964.0000   0.00787719   -77.4675 
2967.0000   0.00786297   -74.9474 
2970.0000   0.00790106   -73.0178 
2973.0000   0.00788478   -70.5358 
2976.0000   0.00787697   -68.2206 
2979.0000   0.00786950   -65.8237 
2982.0000   0.00788379   -63.7497 
2985.0000   0.00788069   -61.0421 
2988.0000   0.00786733   -58.4081 
2991.0000   0.00784164   -55.9305 
2994.0000   0.00777690   -53.5469 
2997.0000   0.00776209   -51.2740 
3000.0000   0.00773602   -48.7046 
3003.0000   0.00772697   -46.1773 
3006.0000   0.00768171   -43.9980 
3009.0000   0.00769453   -41.2658 
3012.0000   0.00766993   -38.6835 
3015.0000   0.00765196   -36.6795 
3018.0000   0.00759629   -34.2158 
3021.0000   0.00753678   -31.7514 
3024.0000   0.00750418   -28.9330 
3027.0000   0.00749870   -26.5986 
3030.0000   0.00741597   -24.0404 
3033.0000   0.00733198   -21.3438 
3036.0000   0.00730713   -18.6244 
3039.0000   0.00725604   -16.0335 
3042.0000   0.00714703   -13.3811 
3045.0000   0.00713915   -11.2065 
3048.0000   0.00711909   -8.4929 
3051.0000   0.00708254   -6.0036 
3054.0000   0.00701651   -3.7352 
3057.0000   0.00699464   -1.2193 
3060.0000   0.00696554   1.0645 
3063.0000   0.00689971   3.6967 
3066.0000   0.00688195   6.0966 
3069.0000   0.00685587   9.1375 
3072.0000   0.00680175   11.9345 
3075.0000   0.00675768   14.6536 
3078.0000   0.00668446   17.4744 
3081.0000   0.00669244   20.0781 
3084.0000   0.00666114   23.0940 
3087.0000   0.00658460   26.1640 
3090.0000   0.00651590   28.6082 
3093.0000   0.00645392   31.5787 
3096.0000   0.00638615   34.7584 
3099.0000   0.00628897   37.3273 
3102.0000   0.00626494   39.9644 
3105.0000   0.00623957   42.7509 
3108.0000   0.00621431   45.3994 
3111.0000   0.00607996   47.7936 
3114.0000   0.00603885   50.5721 
3117.0000   0.00599443   53.0635 
3120.0000   0.00597515   55.7969 
3123.0000   0.00595163   58.1468 
3126.0000   0.00589774   61.2951 
3129.0000   0.00586933   64.5673 
3132.0000   0.00581013   67.4088 
3135.0000   0.00576244   70.0404 
3138.0000   0.00576238   73.1262 
3141.0000   0.00572324   75.8153 
3144.0000   0.00570938   78.6616 
3147.0000   0.00566315   81.6492 
3150.0000   0.00561920   84.3605 
3153.0000   0.00560113   87.4972 
3156.0000   0.00556554   90.1982 
3159.0000   0.00545883   92.8561 
3162.0000   0.00542288   95.6481 
3165.0000   0.00541472   98.5851 
3168.0000   0.00538582   101.4117 
3171.0000   0.00534827   103.9308 
3174.0000   0.00535414   107.1506 
3177.0000   0.00532288   109.6652 
3180.0000   0.00527022   112.5230 
3183.0000   0.00530382   115.5266 
3186.0000   0.00524114   117.9810 
3189.0000   0.00524089   120.9093 
3192.0000   0.00521652   123.6217 
3195.0000   0.00520877   126.3173 
3198.0000   0.00518365   128.9089 
3201.0000   0.00515875   131.7996 
3204.0000   0.00516330   134.0438 
3207.0000   0.00513607   136.9083 
3210.0000   0.00514360   139.1549 
3213.0000   0.00510714   142.0542 
