!Created with skrf (http://scikit-rf.org).
# MHz S RI R 50.0 
!freq ReS11 ImS11
1500.0 -0.0004256124961514625 0.0010242339326863963
1501.0 -0.0004233945522129443 0.0010056042272323304
1502.0 -0.0004771171946092133 0.0010168603796750879
1503.0 -0.00035705941441025076 0.0009797148288627627
1504.0 -0.0005013377066256271 0.0009635752788186465
1505.0 -0.0006468899615437364 0.0011362063242556161
1506.0 -0.0005046633674041807 0.0010398249538450706
1507.0 -0.000654271353664599 0.0010215698232187848
1508.0 -0.00035064499758514014 0.001261244039357793
1509.0 -0.00046462349365395013 0.0011705379453520008
1510.0 -0.00011659705673047749 0.0010693774035153807
1511.0 -0.000401972702570327 0.001476320102605292
1512.0 -0.00048163866905784683 0.0013271184651299367
1513.0 -0.0003300187673858073 0.0013168507640776358
1514.0 -0.00037067922972068047 0.0011682597098019339
1515.0 -0.00044974701740612896 0.001169300907912195
1516.0 -0.0005689071449078917 0.0012881975494828009
1517.0 -0.0004918258032379514 0.0010774125312456896
1518.0 -0.0004493386841879707 0.0012300628971205624
1519.0 -0.0007232389936306649 0.0011881023315309693
1520.0 -0.0006095729518783496 0.0011606021000961364
1521.0 -0.0005656882347830506 0.0012784536239190125
1522.0 -0.0006922904941375364 0.0012714000334426677
1523.0 -0.0004688176130823382 0.0014056529820273382
1524.0 -0.0006865601423725748 0.001345099510791755
1525.0 -0.0006751051162292038 0.001296502547065266
1526.0 -0.0006738765766273053 0.0013328560335170957
1527.0 -0.0007312715933862537 0.001406612390476427
1528.0 -0.0008482658744562426 0.00133692103978246
1529.0 -0.0006874575230257206 0.0013758247131021827
1530.0 -0.0007646452778191041 0.001409058817565121
1531.0 -0.0008344172669050454 0.0013917864423407533
1532.0 -0.0008824976317758308 0.0014332141690866634
1533.0 -0.0006781046313339666 0.0014434501279844726
1534.0 -0.0009911894621731105 0.0013502013898598134
1535.0 -0.0007917964829145339 0.0013215827776594212
1536.0 -0.0008570202471864449 0.0012091479261211874
1537.0 -0.0008106734619551161 0.0013375477981215182
1538.0 -0.0010032726940592367 0.001395935012189195
1539.0 -0.0008044937859158219 0.001364233985577324
1540.0 -0.0007368106115940506 0.0012493030961112546
1541.0 -0.0009348034171504632 0.001259296145552001
1542.0 -0.0008140598036235798 0.0013433322557809615
1543.0 -0.0009523436659150744 0.0014313444030768924
1544.0 -0.0010823882522062178 0.0011904986470844293
1545.0 -0.001018744240343714 0.00139186237954253
1546.0 -0.0009375887796043564 0.0013144543683366282
1547.0 -0.000929106752218245 0.0013929297085830648
1548.0 -0.000889186171280169 0.0013946129710650929
1549.0 -0.0008393758503598327 0.0010315948705706401
1550.0 -0.0010147832259001146 0.00140431060493822
1551.0 -0.0010027291443575979 0.0013836069080745868
1552.0 -0.0009409660414149319 0.0013583027540962772
1553.0 -0.0008705393566622449 0.0012419654532854797
1554.0 -0.0009651201602986527 0.001353246803382873
1555.0 -0.0010516538967305002 0.0013657042353450444
1556.0 -0.001175117365123362 0.0012688633618962684
1557.0 -0.000911724086003058 0.0013164377037633186
1558.0 -0.0009787033734325965 0.0014004340789152865
1559.0 -0.0008498614597801882 0.0011198143293649036
1560.0 -0.001089883410496973 0.0013095221445255135
1561.0 -0.0012467924405165243 0.001278199021258905
1562.0 -0.0009679933003334338 0.0010516612042789468
1563.0 -0.001082188533429309 0.001156087439580622
1564.0 -0.0009853366291393151 0.0012244111509859754
1565.0 -0.0010663492238842283 0.0012103934693353455
1566.0 -0.001028693283647665 0.0012625592585737803
1567.0 -0.0011321036373551797 0.0010501839385807094
1568.0 -0.0011310068949585382 0.0011387817994132007
1569.0 -0.0010845888747684895 0.0011452007962803497
1570.0 -0.0010772196495776303 0.0012284589460235182
1571.0 -0.0011371434058288638 0.0009193368671840396
1572.0 -0.0010517931850354476 0.0012571119633854773
1573.0 -0.0012101453708687794 0.0012744715097343373
1574.0 -0.0009757226779454568 0.0012227102769738936
1575.0 -0.001033080033345679 0.0012377563496084494
1576.0 -0.0008856020101543384 0.0012759248032886208
1577.0 -0.0010189671365399902 0.0012180184209547133
1578.0 -0.0010257406885634014 0.0011867294637629873
1579.0 -0.00095123822096322 0.0011491108632934628
1580.0 -0.0009233158527192243 0.001195474610682444
1581.0 -0.0009712397303538647 0.0010113298137417563
1582.0 -0.0009299168159735399 0.0013679285826199913
1583.0 -0.0010349165639998957 0.0009645606632071625
1584.0 -0.0010328931518605849 0.0011967593326226572
1585.0 -0.0008901309442732284 0.001106223810629036
1586.0 -0.0011422658493555702 0.0009447606986277904
1587.0 -0.001002402061984882 0.0009396970128540891
1588.0 -0.0009713246399413594 0.0010375254510876335
1589.0 -0.0009035190966003009 0.0012106584985641065
1590.0 -0.0008911188726010849 0.0011655383966419457
1591.0 -0.0008034476752221773 0.0010111468021034332
1592.0 -0.000883626483449633 0.0011739595282157754
1593.0 -0.0010337939397987127 0.0011777922705715656
1594.0 -0.0008041999427891734 0.0011507765365219615
1595.0 -0.001035358222376553 0.0011669337980877437
1596.0 -0.0007855256012596692 0.0008981307550251991
1597.0 -0.000883412174482236 0.0013558062964948887
1598.0 -0.0008464126838454884 0.0011619799586135744
1599.0 -0.0008081414664866757 0.0011069031298854663
1600.0 -0.0007847034712241581 0.0012341687883274735
1601.0 -0.0007642994874493495 0.000982441499437211
1602.0 -0.0008573317858853735 0.0011113998792554626
1603.0 -0.0008557831620272481 0.0011996771746184721
1604.0 -0.00083241892378259 0.0010972448476625936
1605.0 -0.0007224360712223404 0.0012121988944318283
1606.0 -0.0008367862791711818 0.0011778956800723578
1607.0 -0.0007949158065399635 0.0012162429543553961
1608.0 -0.0006974962977765106 0.0009623827548255678
1609.0 -0.0008296258289987486 0.0011196071137116875
1610.0 -0.0008158146381586871 0.0010131710526660419
1611.0 -0.0007299836234601481 0.0011092831654517174
1612.0 -0.0009075107438207067 0.0010998574761022957
1613.0 -0.0007840281087124062 0.0010858415855442873
1614.0 -0.0008510532586456128 0.0012677529181020705
1615.0 -0.000907251640894436 0.0011731936260488893
1616.0 -0.0006494531436379465 0.0010778430375819464
1617.0 -0.0006144524807400881 0.001010062200606069
1618.0 -0.0006955384779784336 0.0012840885397542856
1619.0 -0.0006283511849769115 0.0011721936381514642
1620.0 -0.0008181820199615365 0.0010008287800856962
1621.0 -0.0006847231348701549 0.0011341150574206114
1622.0 -0.000718170955753647 0.0012589719193580942
1623.0 -0.0006180913403708264 0.0011376667088459046
1624.0 -0.0005398833503468779 0.001253164891444978
1625.0 -0.0006493736248621602 0.0011894220135756153
1626.0 -0.0008316248624884726 0.0008668888975942902
1627.0 -0.000727254103200483 0.0011167824938360313
1628.0 -0.0006263679843008275 0.0011183398142072774
1629.0 -0.000623621796683918 0.0010682024303070546
1630.0 -0.0004947992381544482 0.0009784790270323876
1631.0 -0.0004351482107289757 0.0012002349530000449
1632.0 -0.0006840145469839722 0.0012043155546608598
1633.0 -0.0005892896901926042 0.0011131690464317202
1634.0 -0.0006990380201756519 0.0008442227751572356
1635.0 -0.0006993927653131705 0.0011243148247208588
1636.0 -0.0005837032037878664 0.001120944685360923
1637.0 -0.0006886210529014787 0.0012154813588944428
1638.0 -0.00044120825291462523 0.0011971897067825504
1639.0 -0.0008271327333966502 0.0012583710682428778
1640.0 -0.0005507073474883099 0.0010654930522398763
1641.0 -0.0004996319356119008 0.0011886109725424594
1642.0 -0.0005399100895134012 0.0012738130861054756
1643.0 -0.0005892340312144591 0.00113459055872428
1644.0 -0.0006294156317098037 0.0012412184710721766
1645.0 -0.00047148475359969425 0.0015480049883379449
1646.0 -0.0003527131554215239 0.0015097982415329426
1647.0 -0.0006238147512926742 0.0011023876955261226
1648.0 -0.0004598476728554478 0.0012069811528313198
1649.0 -0.00045659868799506273 0.0011979493583187811
1650.0 -0.0006003388556717303 0.0012625181567875211
1651.0 -0.0003405219645553001 0.0012791545795610496
1652.0 -0.0004512553137941931 0.0012503082848679369
1653.0 -0.00047292953090489684 0.0012995069140359534
1654.0 -0.0002799259804664028 0.001647874211986474
1655.0 -0.0005750332742040232 0.0013037810299033128
1656.0 -0.0005952453616892353 0.0013215224521669656
1657.0 -0.00043083982373081156 0.0013106257331693232
1658.0 -0.00037648414888071316 0.0013851630885675925
1659.0 -0.0005609840754197994 0.001405720237604581
1660.0 -0.00043992034790249143 0.0015167226183304162
1661.0 -0.0004752383519165994 0.0015679882844060918
1662.0 -0.00035513309455038194 0.0015748298665456406
1663.0 -0.00042858060814846693 0.0016552640494722215
1664.0 -0.0004529379020166563 0.0014995811907353718
1665.0 -0.00039323515721240154 0.0013387233224622826
1666.0 -0.00034853303962086024 0.0016093822721259914
1667.0 -0.0003878068481940333 0.001746684951056971
1668.0 -0.00031601965997610573 0.0016041572918568218
1669.0 -0.0002628898640336143 0.0016413230583763264
1670.0 -0.00024052133347939042 0.001685048476747008
1671.0 -0.0004005783384735326 0.0016573685798941355
1672.0 -0.00037774190443481265 0.0017002479727151586
1673.0 -0.00038861128556727173 0.001843848992182314
1674.0 -0.00033379689944513374 0.0016382612264426877
1675.0 -0.00023730129999869135 0.0017060584660091582
1676.0 -0.0004163689208110631 0.0017683708115174696
1677.0 -0.0004015713239712178 0.0016800060769439698
1678.0 -0.0001449182657204534 0.0018832015705278135
1679.0 -0.0005745645112355605 0.0017624741896286166
1680.0 -0.00038748607918213246 0.0017284947624553529
1681.0 -0.00023612123958746678 0.0020943480525160083
1682.0 -0.00031009784627523615 0.0014932910400437833
1683.0 -0.00035748393118045785 0.001949677611988417
1684.0 -0.00042138017607209685 0.0018525271495122581
1685.0 -0.00037831193951171765 0.0018867538424576901
1686.0 -0.0002776430268791909 0.0016521602071806474
1687.0 -0.00039350839420111347 0.001870867228620187
1688.0 -0.0004767736754643197 0.0019194359188194395
1689.0 -0.0004642487387830699 0.001887922485447174
1690.0 -0.00030977192288476896 0.001902366474559894
1691.0 -0.0004742003730225722 0.0021245133829082986
1692.0 -0.00022902011870407427 0.0018354814019869142
1693.0 -0.0004869194004490998 0.0019734885663489597
1694.0 -0.0005732926002772858 0.001966987787647057
1695.0 -0.0006004257097474187 0.0019872399880087165
1696.0 -0.00037860481713418784 0.0016485950435337349
1697.0 -0.00044259717981457933 0.001954389250707008
1698.0 -0.00043648179642812035 0.0020032596151113424
1699.0 -0.0005382894159179502 0.0019109300257819182
1700.0 -0.0002644152998256752 0.002050173611146563
1701.0 -0.0002734198544133322 0.001882424630809185
1702.0 -0.0004110739589621368 0.002002138467919766
1703.0 -0.00011813208561254132 0.001980479413994724
1704.0 -0.0005241010579675083 0.0017485305908034165
1705.0 -0.0008117849146320952 0.00202993456745274
1706.0 2.4908037701172614e-06 0.0019543795978279183
1707.0 -0.00027647245294258604 0.001876395649657716
1708.0 -0.0003302130538541878 0.0019764756769099015
1709.0 -0.0004921119668772206 0.0019476673673865172
1710.0 -0.0003233805947632194 0.0019278126472505337
1711.0 -0.0002710241737422271 0.001871690875779002
1712.0 -0.0002817274115598581 0.001886146138908416
1713.0 -0.00036603738672592867 0.0020185649072630048
1714.0 -0.000458694508535331 0.0019219304048254584
1715.0 -0.00037958338595369887 0.002123681731703674
1716.0 -0.00024789306526235705 0.0019324974179217441
1717.0 -0.00042410555587318183 0.001962683304589043
1718.0 -0.00043791712538774133 0.0021563861919056525
1719.0 -0.00035736536021262894 0.0020698554296429052
1720.0 -0.0004480592582436216 0.0021252137241224243
1721.0 -0.000508174338908516 0.002040026749878087
1722.0 -0.0004744843704897507 0.002079131752919315
1723.0 -0.0005871156158314197 0.002077558753433668
1724.0 -0.0004543137772596087 0.002120016530500802
1725.0 -0.0004900757596114497 0.002130611484066137
1726.0 -4.017918602177914e-05 0.0018829553850325462
1727.0 -0.00047741126338453344 0.0023748682416956553
1728.0 -0.0006109580491541027 0.0020928308926108415
1729.0 -0.00048140061027833816 0.0023538051499488524
1730.0 -0.0003012609762648999 0.0018668126342118365
1731.0 -0.0004661721153744816 0.002228200897705923
1732.0 -0.0005896907762320096 0.002244573441484333
1733.0 -0.00032644273682866376 0.0022425555034821694
1734.0 -0.000546484273857336 0.0021539966884108093
1735.0 -0.0004952862362646131 0.0021704226843080425
1736.0 -0.0003170187100819885 0.0022085697389452753
1737.0 -0.0004467855020874219 0.002388324593932265
1738.0 -0.0005076480616627958 0.002262955707200741
1739.0 -0.00038852468758327277 0.0022375227286448255
1740.0 -0.0004618448250895066 0.0021803459005476766
1741.0 -0.0005285988765270713 0.0023894824998128613
1742.0 -0.0006368391656232236 0.002338521090867955
1743.0 -0.00047122337754081436 0.002388466535157334
1744.0 -0.000645598436979096 0.0021574373244717254
1745.0 -0.0005184958423381028 0.002381482699134109
1746.0 -0.0006632383760806979 0.0023834399655706644
1747.0 -0.0006869322520301584 0.0023426264297249054
1748.0 -0.0005995678022179055 0.0023179801392749708
1749.0 -0.0005844328992673405 0.0022999091703858176
1750.0 -0.00039829260736443106 0.0020117987655645913
1751.0 -0.0007171063995562513 0.0023555502277018466
1752.0 -0.0009376158086941873 0.002256815563854422
1753.0 -0.0006753699578819355 0.002343962148023595
1754.0 -0.0010613316838763188 0.0023486802008278063
1755.0 -0.0007745183850957002 0.0024488200109430217
1756.0 -0.0006539219549846487 0.002397565939631993
1757.0 -0.0007716954396199058 0.0024598338533017555
1758.0 -0.000652846473787095 0.0022277977539047426
1759.0 -0.0008231983213477755 0.002327179877534365
1760.0 -0.0007953567924632275 0.002446905746286915
1761.0 -0.0007611623255835559 0.002345198336018305
1762.0 -0.000750227703523898 0.0023507606148645867
1763.0 -0.0008253963170161173 0.002215831867535288
1764.0 -0.0006286667766396102 0.0024261675171840646
1765.0 -0.0006762034603186792 0.0023339971681067637
1766.0 -0.0008401674995763032 0.0023015515505604867
1767.0 -0.00079075063152741 0.0023449849201431
1768.0 -0.0005338385881751041 0.002441964225150736
1769.0 -0.0008181506742465337 0.0026930544257008065
1770.0 -0.000844267598887314 0.002248271174553434
1771.0 -0.0010008658979870737 0.0024077219215768043
1772.0 -0.0007513033262537584 0.0024751849733702074
1773.0 -0.0007539671281740178 0.0023868723933441003
1774.0 -0.0005974100555895777 0.0022438667815724636
1775.0 -0.0006341023342298115 0.002190279674435155
1776.0 -0.0009113598077410551 0.0024639982099882753
1777.0 -0.001089411564068738 0.0024974371846424107
1778.0 -0.0008742262750323429 0.0025906037002156497
1779.0 -0.0009411771648148645 0.0024581591483514385
1780.0 -0.0008308180370601818 0.002604462375239697
1781.0 -0.0009591722050045839 0.0025013860697900847
1782.0 -0.0007814885232332522 0.002547977697005755
1783.0 -0.0007444196956437783 0.002593044472196275
1784.0 -0.0007928746894339707 0.0024841707067451745
1785.0 -0.0009328202137172358 0.0023929248595652274
1786.0 -0.0009125495155093248 0.0024346725167850875
1787.0 -0.0008282283143758624 0.0024463081370420716
1788.0 -0.0007866310822807303 0.0025406043896574687
1789.0 -0.0008859496583666256 0.002497569673907368
1790.0 -0.0008797289623461366 0.0023917385094638704
1791.0 -0.0010735303131419911 0.00223936173918387
1792.0 -0.0008369702739220233 0.00248143335578548
1793.0 -0.0008828773222344655 0.0023540994564371052
1794.0 -0.001128539608320784 0.002293458414158087
1795.0 -0.0009244977956955093 0.0024313327983744304
1796.0 -0.0009714721179365886 0.002391656926383416
1797.0 -0.0012845807260092428 0.0022379445937596044
1798.0 -0.0007790913140535462 0.0025319738551040057
1799.0 -0.0009291078938358927 0.0022657220114883775
1800.0 -0.0009140284590218699 0.002437981235400892
1801.0 -0.0008485530216607133 0.0025140490205240234
1802.0 -0.0008180823464086877 0.0021225277389826545
1803.0 -0.0009573616188704309 0.0023362978540632596
1804.0 -0.0010197420502312676 0.002376120788953111
1805.0 -0.0010718826927127514 0.0025095545611551204
1806.0 -0.000625587328029021 0.002450885041568496
1807.0 -0.0009386788067133681 0.002528240307734777
1808.0 -0.0009126891046976962 0.002627225851450127
1809.0 -0.0008696586060306238 0.0023921322803750625
1810.0 -0.0007725835593528109 0.002352828368745878
1811.0 -0.0010747254223406888 0.002434161085308379
1812.0 -0.0009106431945966227 0.0024888571309191494
1813.0 -0.001037462303309311 0.0023773973100307292
1814.0 -0.0010098897587841188 0.0026055802189614303
1815.0 -0.0007397957728865028 0.002383374188486263
1816.0 -0.0008847477962292752 0.0025212217481252472
1817.0 -0.0009092662331562015 0.0025672540786729533
1818.0 -0.0007841233155743768 0.002837268101906927
1819.0 -0.0008846728705353586 0.0024480764648495542
1820.0 -0.0010939506396579896 0.0023335480088904756
1821.0 -0.0009165294286460901 0.002801123062831796
1822.0 -0.0008251763418949225 0.0022337213400661386
1823.0 -0.0012736658361873487 0.002547245543282739
1824.0 -0.0010182483006027435 0.0026289834017156786
1825.0 -0.0010926770872145518 0.0022610720274490667
1826.0 -0.0009578526100843428 0.002500364278437716
1827.0 -0.0009985947331835852 0.002629479102394565
1828.0 -0.0011488651508770355 0.00268669615030153
1829.0 -0.0009343498254669978 0.0028130325823801905
1830.0 -0.0008918171188823723 0.0026086358660832136
1831.0 -0.0010102719295033771 0.0022600198410286884
1832.0 -0.0011117005576668643 0.002596023843811628
1833.0 -0.0010034351597044099 0.0023499815844116962
1834.0 -0.0010470585088921437 0.002511688971372968
1835.0 -0.0011623186701472943 0.0023613803657503503
1836.0 -0.0011085666212436902 0.0023907628948996885
1837.0 -0.001125792152860891 0.00252937234745111
1838.0 -0.000968441037085533 0.0023925534255366766
1839.0 -0.0014679066964889236 0.002266302979166122
1840.0 -0.0010136463303661823 0.0023764044853782315
1841.0 -0.0011326048246996165 0.0024356720726750936
1842.0 -0.0012181566721709142 0.002367814802744889
1843.0 -0.0010283655213004055 0.0022975720134873153
1844.0 -0.0010000890434548534 0.0021865916359983767
1845.0 -0.0009395635355944308 0.0024397522339487587
1846.0 -0.001431084056460235 0.002096682464462514
1847.0 -0.0010398503001576125 0.0022402055769360327
1848.0 -0.0010982106970741715 0.002534649492584837
1849.0 -0.0011040762495062757 0.0023921314308485327
1850.0 -0.0009096037253530503 0.0026802306998141073
1851.0 -0.0009726924585046794 0.002608926566367442
1852.0 -0.001038200299542616 0.0022597637681104296
1853.0 -0.0009626873002751939 0.0025892293512111255
1854.0 -0.0010627822832559863 0.002299225279011343
1855.0 -0.0009656618524241031 0.0024160918370099483
1856.0 -0.0008434018195259407 0.0026080914794504666
1857.0 -0.0009430123128588638 0.00251760967547935
1858.0 -0.0008568711608285436 0.0023744426718291414
1859.0 -0.0009186425869038735 0.0024988114287190694
1860.0 -0.0009558488141009312 0.002560013416191306
1861.0 -0.0010734659730585183 0.0028747111406551744
1862.0 -0.0010312026895088339 0.0024162822313662465
1863.0 -0.0009400349158453954 0.002803947566795857
1864.0 -0.0012186007490542876 0.002654174163872449
1865.0 -0.0010206756787323294 0.0025127381859118042
1866.0 -0.0010724538991530481 0.002640487924197346
1867.0 -0.0010593086936669695 0.002523613636161181
1868.0 -0.001134732463645434 0.002548697864173525
1869.0 -0.0010351449652706741 0.002602849544719351
1870.0 -0.0011108975116530112 0.002757105382165716
1871.0 -0.0009808894673774965 0.0024175861137288104
1872.0 -0.0013160732723646942 0.00261337022003892
1873.0 -0.001144167782758325 0.0028456964529472674
1874.0 -0.0012048290236626076 0.0030127057232673337
1875.0 -0.0012049782684777875 0.0028093594865832893
1876.0 -0.001193670773779392 0.0027815680373340108
1877.0 -0.0012025232312893215 0.0027084681999688994
1878.0 -0.0011203698469729358 0.002513238464625619
1879.0 -0.0011084989285063095 0.002697487664054564
1880.0 -0.0013219919105583351 0.0029642217218402646
1881.0 -0.0014516588662489283 0.002770959518284666
1882.0 -0.001259140040403988 0.0027905114892138516
1883.0 -0.0012175190811609254 0.0027372864480394617
1884.0 -0.0013897086702589559 0.0026034931927423908
