# MHz S MA R 50.0
2000.0000   0.23126328   18.7934 
2002.0000   0.23080862   20.2314 
2004.0000   0.23023435   21.7284 
2006.0000   0.23007389   23.0350 
2008.0000   0.22946629   24.4468 
2010.0000   0.22899358   25.8620 
2012.0000   0.22848723   27.3060 
2014.0000   0.22801540   28.7279 
2016.0000   0.22738600   30.2717 
2018.0000   0.22720999   31.5732 
2020.0000   0.22645420   33.0213 
2022.0000   0.22589767   34.4431 
2024.0000   0.22542247   35.9063 
2026.0000   0.22494050   37.3410 
2028.0000   0.22411961   38.8829 
2030.0000   0.22394909   40.2172 
2032.0000   0.22324887   41.6633 
2034.0000   0.22269800   43.1073 
2036.0000   0.22216691   44.5814 
2038.0000   0.22172593   45.9614 
2040.0000   0.22097012   47.4932 
2042.0000   0.22096778   48.7974 
2044.0000   0.22017511   50.2497 
2046.0000   0.21966593   51.6781 
2048.0000   0.21906799   53.1102 
2050.0000   0.21858201   54.5529 
2052.0000   0.21783908   56.0837 
2054.0000   0.21775531   57.3980 
2056.0000   0.21701065   58.8289 
2058.0000   0.21648461   60.2618 
2060.0000   0.21592763   61.6728 
2062.0000   0.21556340   63.1393 
2064.0000   0.21497585   64.6381 
2066.0000   0.21497883   65.9161 
2068.0000   0.21439141   67.3008 
2070.0000   0.21393069   68.7095 
2072.0000   0.21342829   70.1448 
2074.0000   0.21311663   71.5467 
2076.0000   0.21243608   73.0299 
2078.0000   0.21248727   74.3094 
2080.0000   0.21185138   75.7467 
2082.0000   0.21152941   77.1598 
2084.0000   0.21123986   78.5509 
2086.0000   0.21091647   79.9340 
2088.0000   0.21040025   81.4100 
2090.0000   0.21047247   82.6804 
2092.0000   0.20996552   84.0890 
2094.0000   0.20970303   85.4761 
2096.0000   0.20936338   86.8735 
2098.0000   0.20912698   88.2675 
2100.0000   0.20880370   89.6138 
2102.0000   0.20898739   90.9446 
2104.0000   0.20851361   92.3374 
2106.0000   0.20837497   93.6996 
2108.0000   0.20806718   95.0801 
2110.0000   0.20796162   96.4710 
2112.0000   0.20766654   97.9157 
2114.0000   0.20798323   99.1522 
2116.0000   0.20754844   100.5845 
2118.0000   0.20739334   101.9639 
2120.0000   0.20721309   103.3486 
2122.0000   0.20689014   104.7195 
2124.0000   0.20693460   106.1906 
2126.0000   0.20714669   107.4750 
2128.0000   0.20683500   108.9219 
2130.0000   0.20674739   110.2829 
2132.0000   0.20666956   111.6596 
2134.0000   0.20662196   113.0529 
2136.0000   0.20643001   114.4774 
2138.0000   0.20667815   115.8022 
2140.0000   0.20639734   117.2121 
2142.0000   0.20647105   118.6073 
2144.0000   0.20629201   120.0003 
2146.0000   0.20628403   121.4107 
2148.0000   0.20626933   122.8665 
2150.0000   0.20651777   124.1774 
2152.0000   0.20621506   125.6317 
2154.0000   0.20626402   127.0031 
2156.0000   0.20625690   128.4108 
2158.0000   0.20632230   129.7666 
2160.0000   0.20619336   131.2650 
2162.0000   0.20660308   132.5436 
2164.0000   0.20630609   134.0204 
2166.0000   0.20639834   135.4092 
2168.0000   0.20638181   136.7571 
2170.0000   0.20644408   138.1675 
2172.0000   0.20642236   139.6143 
2174.0000   0.20683192   140.9133 
2176.0000   0.20664075   142.3270 
2178.0000   0.20675153   143.7210 
2180.0000   0.20663887   145.1191 
2182.0000   0.20676046   146.4506 
2184.0000   0.20673970   147.9167 
2186.0000   0.20698616   149.2640 
2188.0000   0.20688341   150.6376 
2190.0000   0.20695212   152.0150 
2192.0000   0.20705797   153.3857 
2194.0000   0.20711118   154.7550 
2196.0000   0.20714249   156.2185 
2198.0000   0.20754501   157.5276 
2200.0000   0.20579318   161.2792 
2202.0000   0.20505702   162.1315 
2204.0000   0.20518762   163.4475 
2206.0000   0.20521215   164.8015 
2208.0000   0.20526010   166.0856 
2210.0000   0.20548442   167.3342 
2212.0000   0.20560055   168.7297 
2214.0000   0.20560821   169.9672 
2216.0000   0.20568569   171.4486 
2218.0000   0.20589493   172.8102 
2220.0000   0.20602015   174.1532 
2222.0000   0.20614469   175.4800 
2224.0000   0.20621863   176.8345 
2226.0000   0.20612491   178.1521 
2228.0000   0.20649348   179.4979 
2230.0000   0.20659025   -179.1370 
2232.0000   0.20674803   -177.8234 
2234.0000   0.20672122   -176.5316 
2236.0000   0.20686772   -175.1814 
2238.0000   0.20699127   -173.8357 
2240.0000   0.20715177   -172.4723 
2242.0000   0.20738838   -171.1449 
2244.0000   0.20744931   -169.8150 
2246.0000   0.20769118   -168.4864 
2248.0000   0.20781371   -167.1871 
2250.0000   0.20797248   -165.8162 
2252.0000   0.20820166   -164.5256 
2254.0000   0.20831954   -163.2584 
2256.0000   0.20848195   -161.9048 
2258.0000   0.20867643   -160.5434 
2260.0000   0.20885399   -159.1301 
2262.0000   0.20910381   -157.7500 
2264.0000   0.20920202   -156.3963 
2266.0000   0.20949571   -155.0713 
2268.0000   0.20961651   -153.7163 
2270.0000   0.20982946   -152.3803 
2272.0000   0.20998533   -151.0509 
2274.0000   0.21029129   -149.6929 
2276.0000   0.21045536   -148.3628 
2278.0000   0.21038747   -147.0144 
2280.0000   0.21070486   -145.7229 
2282.0000   0.21102805   -144.3769 
2284.0000   0.21109616   -143.0327 
2286.0000   0.21138298   -141.6711 
2288.0000   0.21158293   -140.3390 
2290.0000   0.21179344   -139.0210 
2292.0000   0.21204852   -137.6821 
2294.0000   0.21231178   -136.3519 
2296.0000   0.21253401   -135.0197 
2298.0000   0.21280322   -133.7135 
2300.0000   0.21303828   -132.4125 
2302.0000   0.21312598   -130.9424 
2304.0000   0.21344032   -129.5892 
2306.0000   0.21376247   -128.3070 
2308.0000   0.21408226   -126.8554 
2310.0000   0.21433796   -125.5237 
2312.0000   0.21462014   -124.1508 
2314.0000   0.21550895   -122.7215 
2316.0000   0.21518333   -121.4438 
2318.0000   0.21546342   -120.0920 
2320.0000   0.21571363   -118.7382 
2322.0000   0.21582494   -117.3946 
2324.0000   0.21612986   -116.0432 
2326.0000   0.21646236   -114.6663 
2328.0000   0.21663487   -113.3867 
2330.0000   0.21715625   -112.0719 
2332.0000   0.21730187   -110.6394 
2334.0000   0.21768994   -109.3057 
2336.0000   0.21796353   -107.9237 
2338.0000   0.21823158   -106.5751 
2340.0000   0.21854762   -105.2170 
2342.0000   0.21893665   -103.8748 
2344.0000   0.21918865   -102.4191 
2346.0000   0.21958808   -101.0707 
2348.0000   0.21990678   -99.7004 
2350.0000   0.22035903   -98.3052 
2352.0000   0.22065310   -96.9971 
2354.0000   0.22117566   -95.6268 
2356.0000   0.22145296   -94.2102 
2358.0000   0.22187547   -92.8493 
2360.0000   0.22218783   -91.4583 
2362.0000   0.22262683   -90.0884 
2364.0000   0.22300565   -88.6829 
2366.0000   0.22338619   -87.3168 
2368.0000   0.22347391   -85.9019 
2370.0000   0.22398556   -84.5475 
2372.0000   0.22439206   -83.2002 
2374.0000   0.22483526   -81.7815 
2376.0000   0.22522393   -80.4758 
2378.0000   0.22545680   -79.0882 
2380.0000   0.22572102   -77.7242 
2382.0000   0.22674816   -76.2932 
2384.0000   0.22713855   -74.9192 
2386.0000   0.22758870   -73.5324 
2388.0000   0.22818584   -72.1418 
2390.0000   0.22859624   -70.6336 
2392.0000   0.22907687   -69.2420 
2394.0000   0.22959447   -67.8835 
2396.0000   0.23009303   -66.4682 
2398.0000   0.23055087   -65.0875 
2400.0000   0.23112160   -63.7217 
2402.0000   0.23175159   -62.3837 
2404.0000   0.23208005   -60.9048 
2406.0000   0.23256565   -59.5237 
2408.0000   0.23314509   -58.1047 
2410.0000   0.23370064   -56.6991 
2412.0000   0.23437430   -55.3126 
2414.0000   0.23452811   -53.8377 
2416.0000   0.23506031   -52.4515 
2418.0000   0.23567022   -51.0518 
2420.0000   0.23620645   -49.6913 
2422.0000   0.23660832   -48.2763 
2424.0000   0.23724553   -46.9165 
2426.0000   0.23774613   -45.5416 
2428.0000   0.23824154   -44.0948 
2430.0000   0.23882601   -42.6722 
2432.0000   0.23938415   -41.2642 
2434.0000   0.23995716   -39.8692 
2436.0000   0.24059136   -38.3757 
2438.0000   0.24105504   -36.9395 
2440.0000   0.24165193   -35.5149 
2442.0000   0.24212244   -34.1238 
2444.0000   0.24272006   -32.6838 
2446.0000   0.24333662   -31.2716 
2448.0000   0.24387180   -29.8736 
2450.0000   0.24447553   -28.5272 
2452.0000   0.24487881   -26.9886 
2454.0000   0.24540213   -25.5557 
2456.0000   0.24600330   -24.1091 
2458.0000   0.24657725   -22.6579 
2460.0000   0.24713477   -21.1998 
2462.0000   0.24748650   -19.7219 
2464.0000   0.24797116   -18.2771 
2466.0000   0.24854275   -16.8587 
2468.0000   0.24900063   -15.3889 
2470.0000   0.24955307   -13.9872 
2472.0000   0.24990348   -12.5087 
2474.0000   0.25047331   -11.0900 
2476.0000   0.25108886   -9.5743 
2478.0000   0.25166568   -8.0741 
2480.0000   0.25204555   -6.6265 
2482.0000   0.25267602   -5.1080 
2484.0000   0.25310021   -3.6428 
2486.0000   0.25359140   -2.1385 
2488.0000   0.25414224   -0.6464 
2490.0000   0.25459228   0.8375 
2492.0000   0.25513980   2.3615 
2494.0000   0.25558267   3.9072 
2496.0000   0.25586432   5.2889 
2498.0000   0.25651442   6.7908 
2500.0000   0.25696291   8.4035 
2502.0000   0.25741624   9.9213 
2504.0000   0.25789115   11.4302 
2506.0000   0.25785746   13.0183 
2508.0000   0.25886315   14.5106 
2510.0000   0.25900207   16.0603 
2512.0000   0.25934209   17.6143 
2514.0000   0.25965268   19.1661 
2516.0000   0.26003210   20.7323 
2518.0000   0.26056163   22.2985 
2520.0000   0.26086850   23.7894 
2522.0000   0.26135482   25.3349 
2524.0000   0.26148313   26.9001 
2526.0000   0.26196289   28.4688 
2528.0000   0.26221207   30.0509 
2530.0000   0.26247557   31.7284 
2532.0000   0.26273785   33.3134 
2534.0000   0.26312905   34.9027 
2536.0000   0.26344005   36.4675 
2538.0000   0.26386950   38.0590 
2540.0000   0.26404534   39.5998 
2542.0000   0.26435188   41.2078 
2544.0000   0.26445331   42.7329 
2546.0000   0.26469976   44.2602 
2548.0000   0.26499216   45.9498 
2550.0000   0.26521154   47.5679 
2552.0000   0.26543916   49.1469 
2554.0000   0.26568847   50.7328 
2556.0000   0.26579685   52.3590 
2558.0000   0.26616528   53.9228 
2560.0000   0.26617862   55.5909 
2562.0000   0.26629338   57.1776 
2564.0000   0.26638960   58.7702 
2566.0000   0.26663142   60.3475 
2568.0000   0.26675334   61.9467 
2570.0000   0.26704004   63.3992 
2572.0000   0.26692842   65.1136 
2574.0000   0.26709111   66.7304 
2576.0000   0.26712049   68.3284 
2578.0000   0.26723421   69.9753 
2580.0000   0.26724596   71.5971 
2582.0000   0.26737086   73.1773 
2584.0000   0.26739264   74.7656 
2586.0000   0.26740325   76.3386 
2588.0000   0.26736855   77.9458 
2590.0000   0.26754257   79.5322 
2592.0000   0.26735998   81.0575 
2594.0000   0.26735983   82.6386 
2596.0000   0.26735228   84.3165 
2598.0000   0.26715494   85.8911 
2600.0000   0.26710676   87.5163 
2602.0000   0.26705751   89.1208 
2604.0000   0.26703789   90.7079 
2606.0000   0.26679812   92.3010 
2608.0000   0.26654105   93.9064 
2610.0000   0.26622857   95.4376 
2612.0000   0.26620623   97.0111 
2614.0000   0.26568310   98.5747 
2616.0000   0.26558336   100.1419 
2618.0000   0.26553815   101.6540 
2620.0000   0.26514048   103.3541 
2622.0000   0.26468426   104.8870 
2624.0000   0.26436370   106.4751 
2626.0000   0.26405886   108.1036 
2628.0000   0.26370471   109.7340 
2630.0000   0.26336601   111.3059 
2632.0000   0.26286207   112.8750 
2634.0000   0.26252876   114.4540 
2636.0000   0.26211950   116.0111 
2638.0000   0.26168724   117.6014 
2640.0000   0.26115789   119.1466 
2642.0000   0.26087393   120.5849 
2644.0000   0.26014989   122.2308 
2646.0000   0.25966644   123.8027 
2648.0000   0.25909237   125.3829 
2650.0000   0.25878717   126.9593 
2652.0000   0.25812236   128.5173 
2654.0000   0.25766949   130.0504 
2656.0000   0.25695707   131.6407 
2658.0000   0.25650689   133.1542 
2660.0000   0.25581554   134.7053 
2662.0000   0.25533599   136.2557 
2664.0000   0.25461605   137.8199 
2666.0000   0.25429748   139.1804 
2668.0000   0.25338702   140.8347 
2670.0000   0.25273474   142.3705 
2672.0000   0.25212748   143.9241 
2674.0000   0.25152440   145.4665 
2676.0000   0.25099275   147.1062 
2678.0000   0.25030662   148.6449 
2680.0000   0.24947627   150.1662 
2682.0000   0.24889337   151.6652 
2684.0000   0.24828169   153.1783 
2686.0000   0.24756709   154.7183 
2688.0000   0.24693614   156.2221 
2690.0000   0.24642688   157.5825 
2692.0000   0.24560070   159.2442 
2694.0000   0.24491465   160.7449 
2696.0000   0.24405723   162.2462 
2698.0000   0.24335409   163.7235 
2700.0000   0.24277453   165.2807 
2702.0000   0.24217598   166.7869 
2704.0000   0.24134665   168.2986 
2706.0000   0.24065056   169.7628 
2708.0000   0.23982400   171.2491 
2710.0000   0.23896751   172.7407 
2712.0000   0.23846297   174.1674 
2714.0000   0.23783481   175.5234 
2716.0000   0.23716591   177.1038 
2718.0000   0.23641442   178.5759 
2720.0000   0.23560006   -179.9627 
2722.0000   0.23500098   -178.4747 
2724.0000   0.23418695   -176.9982 
2726.0000   0.23355218   -175.5183 
2728.0000   0.23283753   -174.0780 
2730.0000   0.23224272   -172.5394 
2732.0000   0.23155594   -171.0770 
2734.0000   0.23073115   -169.6336 
2736.0000   0.23005965   -168.1720 
2738.0000   0.22953882   -166.8869 
2740.0000   0.22881240   -165.2969 
2742.0000   0.22817139   -163.8521 
2744.0000   0.22735196   -162.3833 
2746.0000   0.22665221   -160.9382 
2748.0000   0.22594823   -159.4666 
2750.0000   0.22531675   -158.0596 
2752.0000   0.22458017   -156.6018 
2754.0000   0.22393318   -155.1993 
2756.0000   0.22326735   -153.7782 
2758.0000   0.22266703   -152.3739 
2760.0000   0.22203777   -150.9523 
2762.0000   0.22163625   -149.6591 
2764.0000   0.22070871   -148.1232 
2766.0000   0.22007705   -146.6930 
2768.0000   0.21924018   -145.3487 
2770.0000   0.21877711   -143.9084 
2772.0000   0.21798039   -142.4625 
2774.0000   0.21742499   -141.0783 
2776.0000   0.21667861   -139.6582 
2778.0000   0.21622240   -138.2793 
2780.0000   0.21567733   -136.8624 
2782.0000   0.21490371   -135.4491 
2784.0000   0.21429321   -133.9247 
2786.0000   0.21362365   -132.6201 
2788.0000   0.21311186   -131.0853 
2790.0000   0.21254957   -129.7281 
2792.0000   0.21179955   -128.2893 
2794.0000   0.21125157   -126.9017 
2796.0000   0.21072180   -125.4907 
2798.0000   0.21017414   -124.1513 
2800.0000   0.20959873   -122.7416 
2802.0000   0.20902039   -121.3644 
2804.0000   0.20853871   -119.9789 
2806.0000   0.20788437   -118.5980 
2808.0000   0.20717201   -117.2203 
2810.0000   0.20702215   -115.9826 
2812.0000   0.20630501   -114.5328 
2814.0000   0.20588907   -113.0886 
2816.0000   0.20528735   -111.7525 
2818.0000   0.20470530   -110.4052 
2820.0000   0.20401141   -108.9805 
2822.0000   0.20361435   -107.6250 
2824.0000   0.20324225   -106.2794 
2826.0000   0.20263026   -104.9605 
2828.0000   0.20209205   -103.6036 
2830.0000   0.20155604   -102.2816 
2832.0000   0.20124311   -100.9164 
2834.0000   0.20078043   -99.6578 
2836.0000   0.20119671   -93.6271 
2838.0000   0.20074495   -92.2801 
2840.0000   0.20015872   -90.9516 
2842.0000   0.19977136   -89.6224 
2844.0000   0.19949110   -88.2759 
2846.0000   0.19892865   -86.9565 
2848.0000   0.19833085   -85.6059 
2850.0000   0.19794213   -84.2644 
2852.0000   0.19758042   -82.9157 
2854.0000   0.19734226   -81.6035 
2856.0000   0.19684552   -80.1826 
2858.0000   0.19659815   -79.0171 
2860.0000   0.19604852   -77.5011 
2862.0000   0.19559273   -76.2404 
2864.0000   0.19522729   -74.8611 
2866.0000   0.19489743   -73.4788 
2868.0000   0.19451457   -72.1473 
2870.0000   0.19414300   -70.8051 
2872.0000   0.19377010   -69.4246 
2874.0000   0.19342019   -68.1245 
2876.0000   0.19313381   -66.7746 
2878.0000   0.19278388   -65.4645 
2880.0000   0.19225621   -64.0670 
2882.0000   0.19325472   -62.7725 
2884.0000   0.19285058   -61.3970 
2886.0000   0.19248750   -60.1047 
2888.0000   0.19210037   -58.7523 
2890.0000   0.19177969   -57.4296 
2892.0000   0.19154816   -56.1104 
2894.0000   0.19116904   -54.7778 
2896.0000   0.19084045   -53.3955 
2898.0000   0.19060146   -52.1142 
2900.0000   0.19030862   -50.7752 
2902.0000   0.19009399   -49.4473 
2904.0000   0.18962647   -48.0990 
2906.0000   0.18941814   -46.9471 
2908.0000   0.18902079   -45.4548 
2910.0000   0.18881696   -44.1502 
2912.0000   0.18850705   -42.7782 
2914.0000   0.18832143   -41.4523 
2916.0000   0.18808775   -40.1022 
2918.0000   0.18768707   -38.7828 
2920.0000   0.18749330   -37.4346 
2922.0000   0.18729218   -36.1487 
2924.0000   0.18716170   -34.8276 
2926.0000   0.18706379   -33.5128 
2928.0000   0.18661614   -32.0967 
2930.0000   0.18657473   -30.9094 
2932.0000   0.18613963   -29.5346 
2934.0000   0.18604501   -28.1780 
2936.0000   0.18572265   -26.7910 
2938.0000   0.18571317   -25.4810 
2940.0000   0.18548344   -24.1417 
2942.0000   0.18532391   -22.7933 
2944.0000   0.18498573   -21.4707 
2946.0000   0.18488095   -20.1172 
2948.0000   0.18473852   -18.7880 
2950.0000   0.18459932   -17.4758 
2952.0000   0.18436391   -16.0581 
2954.0000   0.18424226   -14.8998 
2956.0000   0.18409347   -13.4043 
2958.0000   0.18403722   -12.0431 
2960.0000   0.18372572   -10.6971 
2962.0000   0.18369869   -9.3908 
2964.0000   0.18353262   -8.0192 
2966.0000   0.18346491   -6.6659 
2968.0000   0.18341838   -5.3509 
2970.0000   0.18334476   -4.0175 
2972.0000   0.18323091   -2.6457 
2974.0000   0.18311714   -1.2991 
2976.0000   0.18306606   0.1016 
2978.0000   0.18308625   1.3032 
2980.0000   0.18283418   2.7009 
2982.0000   0.18290366   4.1047 
2984.0000   0.18271157   5.4740 
2986.0000   0.18273517   6.8463 
2988.0000   0.18259259   8.2222 
2990.0000   0.18263033   9.5621 
2992.0000   0.18248014   10.9683 
2994.0000   0.18248095   12.2934 
2996.0000   0.18242833   13.6930 
2998.0000   0.18237128   15.0055 
