!Created with skrf (http://scikit-rf.org).
# MHz S RI R 50.0 
!freq ReS11 ImS11
2000.0 1.002727163998974 -0.007019060604793069
2002.0 1.0027480686716659 -0.006709067162284038
2004.0 1.0031030599531703 -0.007461837409107894
2006.0 1.002667868174953 -0.006972483644639926
2008.0 1.003169368961761 -0.006622793970226963
2010.0 1.0032233979969745 -0.006539790681347229
2012.0 1.003662473795501 -0.006010873205776753
2014.0 1.0033374496263097 -0.006156765453438413
2016.0 1.0042421699046975 -0.005241420607314893
2018.0 1.0038652851406917 -0.005744933439134115
2020.0 1.0035637375584459 -0.005082607322541597
2022.0 1.0038332302012176 -0.005322496743588586
2024.0 1.0043612907443673 -0.004407178937321232
2026.0 1.0046314338174893 -0.004404587953953997
2028.0 1.0044710485937154 -0.0042315283944753465
2030.0 1.0044647801037059 -0.0037640040540180275
2032.0 1.0049552188252304 -0.00433983187476214
2034.0 1.004484848891947 -0.004125411591257122
2036.0 1.0043064328159885 -0.002930359887966312
2038.0 1.0046270849649657 -0.0030891791901133323
2040.0 1.00401132378613 -0.0033646388231285546
2042.0 1.0045812521255721 -0.0021064062721139823
2044.0 1.0041257479856565 -0.0020917932358695615
2046.0 1.0043483544250609 -0.002126484382463937
2048.0 1.004177467355545 -0.0017758818376521802
2050.0 1.004042700512314 -0.001968492452389038
2052.0 1.0040523909803267 -0.0014600812951780923
2054.0 1.0041541797717173 -0.0007447289789382465
2056.0 1.0035421025890703 -0.001017006727278589
2058.0 1.003588524405934 -0.0007334193064581981
2060.0 1.003519353342396 -0.0010369727797984347
2062.0 1.0038746827402727 -0.0006332339939541347
2064.0 1.003938529626336 -0.0008513814926656253
2066.0 1.0041581012854743 -0.0011406708914039748
2068.0 1.0043939209288388 -0.0006398451439754427
2070.0 1.0042047404533918 -0.000897250001488957
2072.0 1.0039972901223915 0.00032907023040289196
2074.0 1.004021803387026 -0.0002789828764697376
2076.0 1.0035795452435063 3.726025894074461e-05
2078.0 1.0037927198020653 -0.0001444309998542906
2080.0 1.003613644603159 -0.00024697981872423905
2082.0 1.0036302243487887 0.0006012202172107455
2084.0 1.003618127517614 0.00011634552539028023
2086.0 1.0036637848013337 -3.245132643858381e-05
2088.0 1.0037488764730729 0.000177686499585928
2090.0 1.0036320718666503 0.0006727839225785029
2092.0 1.0035174161241767 -0.00018686224111571711
2094.0 1.003435438819198 -0.0002429503224914871
2096.0 1.0031737353742485 0.0002808000715283747
2098.0 1.0034092030863924 0.00034706219270907654
2100.0 1.003254506036714 -0.0003430943846613743
2102.0 1.0027221570189575 0.00011643132132394679
2104.0 1.0029777427999071 -3.5862020265783195e-05
2106.0 1.0028478854138938 3.410212017717143e-05
2108.0 1.0025034160503898 0.00041406510876293087
2110.0 1.0025771822523886 0.000164224740754719
2112.0 1.0025397477562887 0.00023729408050011946
2114.0 1.0029289473496037 -0.0001845560384659481
2116.0 1.0024732191068206 -0.0002856675904191787
2118.0 1.0021712912518135 -0.00032810364976783996
2120.0 1.0018885068061159 9.537789167105362e-05
2122.0 1.0011763858699179 -0.000726997405401119
2124.0 1.002546968991194 7.408470221323404e-05
2126.0 1.0022018402642088 -0.0008423980439102516
2128.0 1.002653039254598 -9.02921579865705e-05
2130.0 1.0025106582267502 -0.0009321579969963183
2132.0 1.0019156295256695 -0.0007121463425101247
2134.0 1.002480282841854 -0.00024447084862114915
2136.0 1.0024167733732359 -0.0014955734607232998
2138.0 1.0022992089118645 -0.0013220555672773388
2140.0 1.00221516780698 -0.0013685096501201838
2142.0 1.0026249859559924 -0.001407609223597124
2144.0 1.0019450557946756 -0.001529974956059648
2146.0 1.0021418892608396 -0.0011792283171675189
2148.0 1.0028879238989938 -0.001299021245589567
2150.0 1.0026980563015764 -0.0010863732822144305
2152.0 1.00186708076797 -0.0008674427707455051
2154.0 1.0030804937972937 -0.001313872766488696
2156.0 1.0030859465635715 -0.0010043221716068904
2158.0 1.0031958784618453 -0.001428879719244644
2160.0 1.0024959896844137 -0.0010402286941804777
2162.0 1.0037845413826658 -0.0025823709316490848
2164.0 1.0030782226693613 -0.001592172454352659
2166.0 1.0027717736768391 -0.0010562844912301167
2168.0 1.003033121193317 -0.0014010922987643462
2170.0 1.002920279801191 -0.001146911547941238
2172.0 1.0032071210432112 -0.0009815014174225992
2174.0 1.003035502519072 -0.0009705931224619005
2176.0 1.003172537333111 -0.001132696199206945
2178.0 1.003568768191496 -0.0009277209198563612
2180.0 1.0025128326833035 -0.0006503890059864313
2182.0 1.002870984045381 -0.0026265503379999493
2184.0 1.0030143045333357 -0.0011470797694906783
2186.0 1.00204648029117 -0.0007924530871885986
2188.0 1.0019654567737935 -0.0011063897950328132
2190.0 1.0026584899855686 -0.0007428258190082665
2192.0 1.0032711857566652 -0.0006160195997466193
2194.0 1.0026998322127076 -0.0013308114816139686
2196.0 1.0021572059032438 -0.0010433645384961485
2198.0 1.0027453345385373 -0.0008270519738275937
2200.0 1.0028814795301848 -0.0015801964575395885
2202.0 1.001940297965327 -0.0016693733780643212
2204.0 1.0022806517730913 -0.0023969521531366673
2206.0 1.0019161040145645 -0.0018062500817398984
2208.0 1.00183151962716 -0.001833993502584983
2210.0 1.0021667146686133 -0.0016163693005355577
2212.0 1.002485585315973 -0.00105774397296542
2214.0 1.001990404554538 -0.002260372861442355
2216.0 1.001949375060992 -0.0013364077517295514
2218.0 1.0017131764083687 -0.001077822529931903
2220.0 1.0020058280292405 -0.0013495021068381276
2222.0 1.0020881278085998 -0.0015773788086734762
2224.0 1.0018226378735138 -0.0006417670898706089
2226.0 1.0008917779736224 -0.0012235445329297871
2228.0 1.002048724046138 -0.0007154273655470243
2230.0 1.0021734031289324 -0.00039856434525874923
2232.0 1.0017980414124432 -1.8813688132252038e-06
2234.0 1.001802731608089 -0.0009091193733380964
2236.0 1.0016686403492445 -0.00034811477521643625
2238.0 1.001654983117697 -5.0471672076144586e-05
2240.0 1.0016342283326036 0.0001822898519863482
2242.0 1.0015530706960194 0.0007921718336999228
2244.0 1.001628220741954 0.00029739256715949347
2246.0 1.0017170725815205 0.0008150905269644314
2248.0 1.0014475611569302 0.0008181966245200505
2250.0 1.0008922027704166 0.00153146759222874
2252.0 1.0012968153563184 0.0011537605371774035
2254.0 1.0008384052627095 0.0013743343612315495
2256.0 1.0009848930101064 0.0014881093699086502
2258.0 1.0006629419871005 0.001659251116897225
2260.0 1.0009411934442893 0.001983020888926823
2262.0 1.0007008929060472 0.002369258714673056
2264.0 1.000806984901251 0.002239137447915325
2266.0 1.0008970596807212 0.002073240877016585
2268.0 1.0000796988653147 0.002403620826247177
2270.0 0.9999264962843846 0.0023609081710701148
2272.0 0.9999048481529866 0.0018866394602634479
2274.0 1.0000831999173856 0.0025658743792161647
2276.0 0.9998811331381907 0.0024190461145835868
2278.0 0.9997397307744367 0.002699897208847165
2280.0 1.0003312020325745 0.002507702585803663
2282.0 0.9993440592927998 0.0030682217517735734
2284.0 0.9990575618239926 0.0020610580580302414
2286.0 0.9994526424753999 0.002378962100318037
2288.0 0.9994945605438229 0.002269740377228987
2290.0 0.9987876169792276 0.002548676242910823
2292.0 0.998791073116739 0.00270565116293274
2294.0 0.9987177140393415 0.0026952095233103643
2296.0 0.9987918042534502 0.0027279873761792764
2298.0 0.9984294553752808 0.0029099947743730405
2300.0 0.9987709031464701 0.0024499919879362765
2302.0 0.9985490533990325 0.0028624355318226935
2304.0 0.9981790555966505 0.003576713114373971
2306.0 0.9979938522514429 0.0035427028121787045
2308.0 0.9976703358097043 0.004197105531527922
2310.0 0.998009045783553 0.003846678540360679
2312.0 0.9977440027131476 0.004591335922498819
2314.0 1.000535426471847 0.006512019503129705
2316.0 0.9978455620679209 0.0041105223943997266
2318.0 0.9972646973612685 0.004749083003239674
2320.0 0.9972599058529474 0.004511693136004347
2322.0 0.9973851299505709 0.004457401412018329
2324.0 0.9974225924567092 0.004485155442969131
2326.0 0.9969522976229571 0.004772987350831672
2328.0 0.9971851876258319 0.004846089452902144
2330.0 0.9964216150223613 0.004818129568351575
2332.0 0.9959457078065108 0.004899158669651155
2334.0 0.9957660481979109 0.004936803638555143
2336.0 0.9954617743747587 0.005036076362651503
2338.0 0.9951654682224974 0.004832860297844192
2340.0 0.9947175979692254 0.004998542777578451
2342.0 0.9948090085242355 0.005479114269159667
2344.0 0.9949458897699432 0.004825361475407203
2346.0 0.9947618909828592 0.0048993703703385065
2348.0 0.9942748562940225 0.004780372433724152
2350.0 0.9940064793834834 0.005197914823308322
2352.0 0.9944031169302444 0.004815538442201329
2354.0 0.9943739579396197 0.00517042467157049
2356.0 0.993803095324125 0.004874600644916193
2358.0 0.9938241594544008 0.004441965615079754
2360.0 0.9937160547107122 0.004599592067225246
2362.0 0.9937361815771811 0.004722485252245483
2364.0 0.9934048491717176 0.005025336497058216
2366.0 0.9934083493716608 0.004746900819942716
2368.0 0.9933227445384799 0.004237777636968081
2370.0 0.9929123741728306 0.0044658332729672345
2372.0 0.992856692868603 0.0034777753318451163
2374.0 0.9929074990508769 0.004308212957733013
2376.0 0.9932585341719594 0.0036160635898917597
2378.0 0.9912144382167646 0.004174814812311203
2380.0 0.9907995622429238 0.002661955347979531
2382.0 0.9929017488502665 0.0043711433381978596
2384.0 0.9927957239954609 0.0041191025226606885
2386.0 0.9926100874875933 0.0037004139095642395
2388.0 0.9930528259593393 0.0038700587368371737
2390.0 0.9923766747014341 0.00410249349842446
2392.0 0.9920832149858929 0.003246752735672761
2394.0 0.9923539679748815 0.0037374529980056144
2396.0 0.9926830624791326 0.003977466176274414
2398.0 0.9925381136783183 0.003727962489798318
2400.0 0.9923333368003944 0.0036087777319952566
2402.0 0.9924540455113743 0.003062393533518174
2404.0 0.9924383115062674 0.0031333905190285213
2406.0 0.9928549162931959 0.002794355966637397
2408.0 0.9922191101777605 0.003034362153341321
2410.0 0.9927738137359463 0.002892989455388309
2412.0 0.992898044791308 0.0028549153361773563
2414.0 0.9913765764214751 0.003541788614260629
2416.0 0.9923866265854363 0.0028563690311631043
2418.0 0.9920251752428879 0.0027568810122693688
2420.0 0.9924385330672034 0.0027196684010383845
2422.0 0.9918585165229086 0.0025570391719282985
2424.0 0.9918876507642862 0.0018145502637011215
2426.0 0.9922904832650186 0.002451672773416569
2428.0 0.9922353829204 0.002001186449716405
2430.0 0.9921035785935209 0.0015278416632503004
2432.0 0.9922047587723632 0.001520476122182663
2434.0 0.9922499131673252 0.0009201781215148995
2436.0 0.9924767761620729 0.0011126941022480234
2438.0 0.9915275789405057 0.0009339010017750775
2440.0 0.9921738134528121 0.0012911896902644895
2442.0 0.9919465936142051 0.0008700433685551144
2444.0 0.9922094398130483 0.0016043424908754565
2446.0 0.9918847002347317 0.0009479036735874115
2448.0 0.9920299209996178 0.0011060113217623846
2450.0 0.9923411296369079 -0.0002569841988885012
2452.0 0.9923498126088898 -0.00014262911606607864
2454.0 0.992256881779799 -0.00016640839354747222
2456.0 0.9926297433740942 -0.00021132584080191946
2458.0 0.9922844724727723 4.816131142992147e-05
2460.0 0.9923819902328934 -0.00010971252499944462
2462.0 0.9916756950295338 -0.00022546881608352318
2464.0 0.9922443134634571 0.00011604011372400719
2466.0 0.992552198291983 -1.688058612805271e-05
2468.0 0.9920232041435423 -0.0003224920348399614
2470.0 0.992621577520461 -0.00046740623179291826
2472.0 0.9917912792042336 -7.667119487450233e-05
2474.0 0.9921628117256222 -0.0012368327785421268
2476.0 0.9924914023102398 -0.0009381426425496275
2478.0 0.9922207001600131 -1.780977028652264e-05
2480.0 0.9921733503472745 -0.0007257317568306991
2482.0 0.9924262883302852 -0.0005673780325424274
2484.0 0.9927479974664756 -0.0013281925665254886
2486.0 0.9926456626880829 -0.001013543824787428
2488.0 0.9929281037074195 -0.0011031647405318722
2490.0 0.9927913931525745 -0.0012477851514910328
2492.0 0.9931435933205225 -0.0014073760284470348
2494.0 0.9928770005089257 -0.0009681435675380178
2496.0 0.9928561291386591 -0.0013046153375895313
2498.0 0.9924532192627512 -0.0009373095606141808
2500.0 0.992862182939241 -0.0009465703840069624
2502.0 0.9932100268738656 -0.000592621523304783
2504.0 0.9931591321067393 -0.0010467275390591314
2506.0 0.9917979966938093 -0.0006277786938636287
2508.0 0.9940238429752087 -0.0007939109252315876
2510.0 0.9933440960689812 -0.0004963974251304265
2512.0 0.9937403572419137 -0.0006911650640806441
2514.0 0.9931171343546732 -0.0010652556160903777
2516.0 0.9935427391375732 -0.0010869664916875257
2518.0 0.9933626811793475 -0.0008722606613326342
2520.0 0.9937070013977053 -0.0009821733679066039
2522.0 0.9934589789105475 -0.0003760397586565767
2524.0 0.9936479888725964 -0.0008820814488088614
2526.0 0.9939283409159636 -0.0008386311137782224
2528.0 0.9933705409727432 -7.70467305591313e-05
2530.0 0.993857775006443 -0.000994591310487989
2532.0 0.9936144288866242 -0.0007094106754421264
2534.0 0.9935624226152621 -0.0007591950976928163
2536.0 0.9938880446619869 -0.00033371527149899174
2538.0 0.9941853186722448 -0.0005088773889166953
2540.0 0.9941701900620553 -0.000849457529782674
2542.0 0.9939995498547797 -0.0006847412170916008
2544.0 0.9941475586174119 -0.0008375502476083568
2546.0 0.9942285063955589 -0.0005606543069583622
2548.0 0.9939531896509461 -0.00015595814320792933
2550.0 0.9939097471401304 -0.00015462393126879082
2552.0 0.9941767636991897 -0.0006090190226210358
2554.0 0.9942087902700404 -0.0003636825196699882
2556.0 0.9938252630722133 -0.0005364436389250979
2558.0 0.994487107441123 -0.0007833161194108311
2560.0 0.9942394360197482 -0.0004100097668924864
2562.0 0.9938390015839149 -0.00042245758667689565
2564.0 0.9939229384888688 -0.00023931311640655595
2566.0 0.9938475249452096 -0.0002333564973750063
2568.0 0.9943494336316461 0.00013686888834872624
2570.0 0.9941457936337094 -0.00022083103375408059
2572.0 0.9939124999193927 -6.638239372420973e-05
2574.0 0.9941009304837191 -0.0001413240444377295
2576.0 0.9943607761579314 0.00016021979107869178
2578.0 0.9943869570002558 0.0002804095093338621
2580.0 0.9941032215652896 0.0006344729040779762
2582.0 0.9942137905400713 0.0005118880874307175
2584.0 0.9943001546330692 0.00017563765797475733
2586.0 0.9941278340180595 5.1354950099148644e-05
2588.0 0.9942315698928788 0.00019358404083910652
2590.0 0.9943260416580727 -0.00019223234513499055
2592.0 0.994291510020237 0.00018671561165667372
2594.0 0.9942245970244838 0.0001905343012868349
2596.0 0.994980879759412 0.00019069131450808602
2598.0 0.9941432736457126 -0.00025680146350218896
2600.0 0.9945483944786563 0.00015634025076065317
2602.0 0.9947867958354691 0.0009592126069392637
2604.0 0.9949582140751719 0.0007303341890857115
2606.0 0.9948037549819038 0.0009300744283166837
2608.0 0.9948098096878645 0.001055729138465314
2610.0 0.9945107911816139 0.00046916071254743397
2612.0 0.9944797409319119 0.0008366528780132734
2614.0 0.9936636869655706 0.0006386943435027631
2616.0 0.9949176206763017 0.0006662754985179778
2618.0 0.994821769520492 0.0010439905194844987
2620.0 0.9949370580615889 0.001273082040964428
2622.0 0.9940691088715154 0.0006803265870337638
2624.0 0.995042537200029 0.0012066425188097321
2626.0 0.9948278684892276 0.0008602921522449097
2628.0 0.9950385441965147 0.0013911730495888217
2630.0 0.9946523838419457 0.0016109274114278482
2632.0 0.9949764170244305 0.0009467953716892977
2634.0 0.9951719165332391 0.0016375310441600135
2636.0 0.995060009568143 0.0016583193492090628
2638.0 0.9949849429493194 0.0023214578731099583
2640.0 0.9953203838310193 0.001956080212875848
2642.0 0.9947402392221003 0.001543255175601367
2644.0 0.9953382737955491 0.0016105474716261309
2646.0 0.9950634172784967 0.001825778959825733
2648.0 0.9950045328594456 0.0018631684484930675
2650.0 0.9953208373528146 0.0021699393067582257
2652.0 0.9949710510570555 0.0020083102668354835
2654.0 0.9951073527658405 0.0015317403266613613
2656.0 0.9949099619265509 0.0018618100685486305
2658.0 0.995534257068478 0.001971379122443148
2660.0 0.9947988540011664 0.001981201284043728
2662.0 0.9963583498016849 0.002168118517901524
2664.0 0.9954907896567889 0.0024888166513545723
2666.0 0.9957152418817098 0.0020295678837167347
2668.0 0.9948339664865435 0.0022221002842335164
2670.0 0.9949180664650266 0.0015613479487770476
2672.0 0.9955150021914884 0.0020712667264702264
2674.0 0.9950464175745631 0.002251594116061184
2676.0 0.9953133862444212 0.002605868213861745
2678.0 0.9956052326461219 0.0026214175723715608
2680.0 0.995194251309779 0.002394857104687134
2682.0 0.9946982412289419 0.0024574855604149112
2684.0 0.994979136680976 0.0021700743624347846
2686.0 0.9951112969254122 0.0024240384920379554
2688.0 0.9955296092486214 0.002313654951013759
2690.0 0.9948202357447353 0.0019364142050013328
2692.0 0.995274825065185 0.002152645876659802
2694.0 0.9953716033604039 0.001819076735535212
2696.0 0.9951176919216758 0.0019282733917254796
2698.0 0.9949554000359039 0.0009403101748306428
2700.0 0.9950531038187921 0.0012107964476715041
2702.0 0.9948902714555246 0.001470758114417721
2704.0 0.9953567876531649 0.0019048030451350728
2706.0 0.9952443080146486 0.001505304651248325
2708.0 0.994326164476105 0.0012568561570242068
2710.0 0.9939791030975216 0.0016775540340721734
2712.0 0.9950684796087366 0.0009575352732417927
2714.0 0.9943689700590513 0.0018410900689217746
2716.0 0.994838804725932 0.0016065894246522702
2718.0 0.9949593635396742 0.0017401182803820359
2720.0 0.995004958931389 0.0010798255801585388
2722.0 0.9945894801173063 0.0009874063514141648
2724.0 0.9947769311460011 0.000754347699067133
2726.0 0.9942172440609383 0.001290840808314972
2728.0 0.9948833956654058 -0.000367077042797051
2730.0 0.9952700859200369 0.001160600484370583
2732.0 0.9952826468352964 0.0013615795944422956
2734.0 0.9948459929880253 0.0005260081303858424
2736.0 0.9940073052648657 0.0010668350965592557
2738.0 0.9952529376883531 0.000547462283423332
2740.0 0.9950830056157397 0.0007079875490249299
2742.0 0.9947359700146993 0.0008185613442101142
2744.0 0.9950216778628269 0.0008733495443805153
2746.0 0.9941561393923242 0.000620664490893208
2748.0 0.9945560847466607 0.00040056775274183165
2750.0 0.9946651744571556 0.0007340436356385732
2752.0 0.9946451410007201 0.0007896809330801766
2754.0 0.9943293211395976 0.0010593993368809215
2756.0 0.9943069862455092 0.0004400545487735358
2758.0 0.9950041949356834 0.0004050441444109626
2760.0 0.9944624626897242 7.557985910700699e-05
2762.0 0.995287036747805 0.00018435399458002072
2764.0 0.9948864641520376 0.00027846715770298014
2766.0 0.9950946612606979 -0.0003610181746961441
2768.0 0.9951400322395338 -0.0002259806697574307
2770.0 0.9958176648227213 0.00021597907474823347
2772.0 0.9947773721963794 9.146002334253778e-05
2774.0 0.9945076243668902 -2.8577232962644084e-05
2776.0 0.9939440926129987 2.7645271887012657e-05
2778.0 0.9957278483619167 -0.0006665597701174739
2780.0 0.9957840638385247 -0.0006127037466140059
2782.0 0.9947326693981303 1.4044974182336745e-05
2784.0 0.9949705080464133 -0.00016978018669284306
2786.0 0.994656459988408 -0.0005624115703533744
2788.0 0.9955209209108347 -3.148876681301205e-05
2790.0 0.9951702337927262 -0.0007995910586142616
2792.0 0.9943908878066543 -0.0007071726786542568
2794.0 0.9946517204568435 -0.0009759355314030715
2796.0 0.9959787098352584 -0.000654826028710434
2798.0 0.995591446515687 -0.0007241399947228652
2800.0 0.9957369177476618 -0.0012245594688112468
2802.0 0.9950146983577757 -0.000797830926021259
2804.0 0.9951809664744345 -0.000689349168086599
2806.0 0.994965201562496 -0.0017895337861770638
2808.0 0.9941567866202933 -0.0015426047814120283
2810.0 0.9946920276707178 -0.0011690919160842195
2812.0 0.9950663120754676 -0.0017762912343604748
2814.0 0.9959181865494873 -0.0020059696892529774
2816.0 0.9953019775556115 -0.0017516263337935614
2818.0 0.9953108229739325 -0.0018211362839234205
2820.0 0.9936058447579862 -0.0013857074193101143
2822.0 0.9948298246016349 -0.0009191884077712001
2824.0 0.9963083857381583 -0.0009378665203155501
2826.0 0.9947059946143236 -0.0015861715864013276
