# MHz S MA R 50.0
140.0000   0.01851024   134.7647 
150.0000   0.01802096   135.8468 
160.0000   0.01952051   137.6272 
170.0000   0.02346883   127.5000 
180.0000   0.02469984   122.6658 
190.0000   0.02262121   125.6624 
200.0000   0.02261711   125.0331 
210.0000   0.02275689   123.7724 
220.0000   0.02760859   151.1931 
230.0000   0.02174081   123.0913 
240.0000   0.02111064   120.3226 
250.0000   0.02188948   121.7914 
260.0000   0.02296267   120.9782 
270.0000   0.02362822   121.3225 
280.0000   0.02344148   123.0749 
290.0000   0.02460454   121.6478 
300.0000   0.02488654   121.4473 
310.0000   0.02172492   122.7611 
320.0000   0.02065914   119.2604 
330.0000   0.02415218   120.9962 
340.0000   0.02573000   100.1869 
350.0000   0.02459419   121.7986 
360.0000   0.04944652   149.8338 
370.0000   0.02496561   123.3963 
380.0000   0.02543325   124.5203 
390.0000   0.02595965   124.2191 
400.0000   0.02651137   123.5588 
410.0000   0.02637697   122.4279 
420.0000   0.02670439   123.0755 
430.0000   0.02683273   123.0800 
440.0000   0.02709698   122.4571 
450.0000   0.02724797   122.2715 
460.0000   0.00769673   135.6950 
470.0000   0.02768198   121.4668 
480.0000   0.02639903   135.1382 
490.0000   0.02841588   120.6665 
500.0000   0.02867099   120.0042 
510.0000   0.02915526   119.6938 
520.0000   0.02932057   119.5333 
530.0000   0.02981531   119.7405 
540.0000   0.03004378   119.6822 
550.0000   0.03058867   119.6100 
560.0000   0.03088166   119.9751 
570.0000   0.03146346   119.6262 
580.0000   0.03125708   123.3864 
590.0000   0.03241635   119.8640 
600.0000   0.03325053   115.6369 
610.0000   0.03328101   119.9520 
620.0000   0.03391631   120.8637 
630.0000   0.03438201   120.9994 
640.0000   0.03517340   120.5152 
650.0000   0.03600584   121.4263 
660.0000   0.03680678   121.6728 
670.0000   0.03743636   121.4336 
680.0000   0.03772048   121.2557 
690.0000   0.03781707   121.3534 
700.0000   0.03873239   117.9643 
710.0000   0.03727050   122.5340 
720.0000   0.04039263   119.2232 
730.0000   0.03828466   123.4691 
740.0000   0.03880406   124.0844 
750.0000   0.03938138   125.8760 
760.0000   0.03990522   125.4106 
770.0000   0.04046377   125.9257 
780.0000   0.04093197   126.3332 
790.0000   0.04168284   128.0955 
800.0000   0.04231323   127.5805 
810.0000   0.04291438   127.9899 
820.0000   0.03556454   137.9912 
830.0000   0.04440699   128.9105 
840.0000   0.04522594   135.6505 
850.0000   0.04654748   128.0045 
860.0000   0.04816225   125.7158 
870.0000   0.04861285   121.1762 
880.0000   0.04632403   118.1295 
890.0000   0.04374332   117.7367 
900.0000   0.04280572   118.0879 
910.0000   0.04211572   119.0019 
920.0000   0.04165070   119.0027 
930.0000   0.04190199   119.2319 
940.0000   0.04398479   120.4168 
950.0000   0.04248262   118.6440 
960.0000   0.03769989   115.8096 
970.0000   0.04288741   116.6523 
980.0000   0.04329296   115.6877 
990.0000   0.04342123   115.4865 
1000.0000   0.04367280   115.1902 
1010.0000   0.04377093   113.1595 
1020.0000   0.04376824   112.8633 
1030.0000   0.04391912   111.4525 
1040.0000   0.04408489   111.7964 
1050.0000   0.04414571   109.9198 
1060.0000   0.05698661   100.5480 
1070.0000   0.04470040   110.3993 
1080.0000   0.05077421   109.0369 
1090.0000   0.04524462   109.6043 
1100.0000   0.04588484   110.0506 
1110.0000   0.04619217   109.9725 
1120.0000   0.04640617   109.9147 
1130.0000   0.04693806   109.4620 
1140.0000   0.04726589   110.0495 
1150.0000   0.04741066   109.0267 
1160.0000   0.04772960   109.6730 
1170.0000   0.04787480   110.3148 
1180.0000   0.04960324   114.8232 
1190.0000   0.04845011   109.5184 
1200.0000   0.05824357   98.8191 
1210.0000   0.04906810   107.8059 
1220.0000   0.04945076   110.1795 
1230.0000   0.05000002   109.2184 
1240.0000   0.05056351   107.5225 
1250.0000   0.05127575   106.7778 
1260.0000   0.05177174   105.9935 
1270.0000   0.05236159   105.3545 
1280.0000   0.05283186   104.3764 
1290.0000   0.05355940   102.3744 
1300.0000   0.07407964   105.8764 
1310.0000   0.05475062   101.0456 
1320.0000   0.05732008   107.3701 
1330.0000   0.05577713   98.8072 
1340.0000   0.05617545   97.7983 
1350.0000   0.05656875   96.2024 
1360.0000   0.05678299   94.2042 
1370.0000   0.05705846   93.7371 
1380.0000   0.05744039   92.3202 
1390.0000   0.05757696   90.9090 
1400.0000   0.05778718   90.9438 
1410.0000   0.05784928   90.0999 
1420.0000   0.05547939   85.5331 
1430.0000   0.05860953   87.8867 
1440.0000   0.05883978   90.0569 
1450.0000   0.05862986   85.8000 
1460.0000   0.05881166   87.0186 
1470.0000   0.05901299   86.0789 
1480.0000   0.05913841   85.0531 
1490.0000   0.05921313   84.8415 
1500.0000   0.05910346   84.5229 
1510.0000   0.05899992   85.7792 
1520.0000   0.05899528   84.3238 
1530.0000   0.05889020   84.7090 
1540.0000   0.05788828   87.6290 
1550.0000   0.05795416   84.5338 
1560.0000   0.05890174   86.5218 
1570.0000   0.05696710   83.0791 
1580.0000   0.05639871   82.9997 
1590.0000   0.05522865   82.5932 
1600.0000   0.05422537   81.3907 
1610.0000   0.05332105   81.4068 
1620.0000   0.05235025   81.2142 
1630.0000   0.05150049   80.4924 
1640.0000   0.05059645   78.6706 
1650.0000   0.05009692   77.7243 
1660.0000   0.04970982   75.4077 
1670.0000   0.04905068   74.3397 
1680.0000   0.05118652   72.0377 
1690.0000   0.04844570   71.6592 
1700.0000   0.04811703   68.2809 
1710.0000   0.04802473   66.3908 
1720.0000   0.04776648   65.2719 
1730.0000   0.04766843   63.5363 
1740.0000   0.04743108   63.0397 
1750.0000   0.04778719   61.1167 
1760.0000   0.04772721   60.8262 
1770.0000   0.04815090   60.1169 
1780.0000   0.04992846   57.8370 
1790.0000   0.04929414   59.0664 
1800.0000   0.05266157   58.8864 
1810.0000   0.05209621   57.4355 
1820.0000   0.05225443   57.3469 
1830.0000   0.05391742   55.1399 
1840.0000   0.05590686   53.4631 
1850.0000   0.05694504   52.1241 
1860.0000   0.05777350   50.5327 
1870.0000   0.05810862   48.3564 
1880.0000   0.05825227   48.7963 
1890.0000   0.05828492   48.2981 
1900.0000   0.06066369   46.5980 
1910.0000   0.05881285   46.5056 
1920.0000   0.05785202   45.8311 
1930.0000   0.05837728   39.7287 
1940.0000   0.05691323   49.0698 
1950.0000   0.05646021   49.8803 
1960.0000   0.05594868   49.1022 
1970.0000   0.05565231   51.4091 
1980.0000   0.05529266   51.8557 
1990.0000   0.05509100   52.1322 
2000.0000   0.05462879   54.0228 
2010.0000   0.05464547   51.5295 
2020.0000   0.05316279   52.5476 
2030.0000   0.05418843   52.1855 
2040.0000   0.05503906   51.8571 
2050.0000   0.05383855   53.2815 
2060.0000   0.05371245   50.2954 
2070.0000   0.05403028   50.7811 
2080.0000   0.05393859   49.8845 
2090.0000   0.05362833   47.0488 
2100.0000   0.05345832   44.9038 
2110.0000   0.05330508   45.9576 
2120.0000   0.05284302   43.8828 
2130.0000   0.05257651   42.5369 
2140.0000   0.05393450   39.2695 
2150.0000   0.05242341   37.9423 
2160.0000   0.05222679   34.3592 
2170.0000   0.05227713   34.1532 
2180.0000   0.05231255   32.1225 
2190.0000   0.05253282   31.8847 
2200.0000   0.05270304   31.1311 
2210.0000   0.05279580   27.9349 
2220.0000   0.05280856   26.8024 
2230.0000   0.05354541   26.7270 
2240.0000   0.05391252   25.0515 
2250.0000   0.05455056   22.7824 
2260.0000   0.05462823   22.7389 
2270.0000   0.05598161   21.0537 
2280.0000   0.05660207   19.0968 
2290.0000   0.05688683   20.5237 
2300.0000   0.05708012   19.4480 
2310.0000   0.05781226   16.8172 
2320.0000   0.05811137   19.1237 
2330.0000   0.05836930   19.8081 
2340.0000   0.05850853   18.4882 
2350.0000   0.05894825   18.5414 
2360.0000   0.05919093   21.1448 
2370.0000   0.05947306   21.0866 
2380.0000   0.05992695   21.4581 
2390.0000   0.06004540   21.3174 
2400.0000   0.06067487   22.1510 
2410.0000   0.06088597   22.4695 
2420.0000   0.06191685   21.3440 
2430.0000   0.06233489   21.5134 
2440.0000   0.06237266   20.1740 
2450.0000   0.06299899   20.2163 
2460.0000   0.06350893   20.1805 
2470.0000   0.06389606   18.6137 
2480.0000   0.06461970   17.5992 
2490.0000   0.06509480   18.2326 
2500.0000   0.06542404   16.3731 
2510.0000   0.06669617   13.9235 
2520.0000   0.06710406   14.1895 
2530.0000   0.06787764   14.1623 
2540.0000   0.06880901   11.6266 
2550.0000   0.07259809   10.9139 
2560.0000   0.07036387   8.9920 
2570.0000   0.07102177   7.9153 
2580.0000   0.07143610   5.9436 
2590.0000   0.07287597   12.7631 
2600.0000   0.07272014   4.6195 
2610.0000   0.07318181   1.0012 
2620.0000   0.07443275   1.5641 
2630.0000   0.07411380   1.4569 
2640.0000   0.07469575   -1.3904 
2650.0000   0.07440327   -0.7124 
2660.0000   0.07446510   -2.4162 
2670.0000   0.07424083   -3.3863 
2680.0000   0.07349946   -6.0779 
2690.0000   0.07340364   -6.7420 
2700.0000   0.07260689   -7.1785 
2710.0000   0.07163231   -8.1810 
2720.0000   0.07094386   -7.8663 
2730.0000   0.06980964   -7.9009 
2740.0000   0.06919708   -7.8022 
2750.0000   0.06812913   -8.4486 
2760.0000   0.06733565   -7.2606 
2770.0000   0.06608985   -8.6127 
2780.0000   0.06541208   -8.0026 
2790.0000   0.06404599   -11.5532 
2800.0000   0.06369101   -7.3602 
2810.0000   0.06303591   -7.0990 
2820.0000   0.06220091   -7.1234 
2830.0000   0.06384931   -7.5349 
2840.0000   0.06220080   -9.4426 
2850.0000   0.06139647   -12.1124 
2860.0000   0.06156255   -12.3819 
2870.0000   0.05595760   -12.2859 
2880.0000   0.05520939   -14.5219 
2890.0000   0.05484383   -16.7721 
2900.0000   0.05418414   -19.0272 
2910.0000   0.05384639   -21.4715 
2920.0000   0.05315034   -24.2916 
2930.0000   0.05302495   -25.1775 
2940.0000   0.05240359   -27.2409 
2950.0000   0.05160597   -30.4992 
2960.0000   0.05133322   -31.4569 
2970.0000   0.05068780   -33.8952 
2980.0000   0.04971022   -36.1300 
2990.0000   0.04968813   -38.4717 
3000.0000   0.04959996   -40.2112 
3010.0000   0.04902615   -41.2629 
3020.0000   0.04865803   -44.0342 
3030.0000   0.04626253   -44.5638 
3040.0000   0.04804154   -48.3298 
3050.0000   0.04782756   -47.8384 
3060.0000   0.04734808   -49.0685 
3070.0000   0.04457190   -49.4947 
3080.0000   0.04619850   -51.7266 
3090.0000   0.04588785   -51.1199 
3100.0000   0.04487868   -52.4409 
3110.0000   0.04446789   -53.4709 
3120.0000   0.04387245   -52.5140 
3130.0000   0.04330985   -52.3632 
3140.0000   0.04276964   -53.9440 
3150.0000   0.04215407   -54.1116 
3160.0000   0.04122503   -53.8085 
3170.0000   0.04041499   -54.3223 
3180.0000   0.04016967   -54.8124 
3190.0000   0.03953517   -54.3511 
3200.0000   0.03876712   -54.5275 
3210.0000   0.03793306   -56.2268 
3220.0000   0.03748542   -56.5054 
3230.0000   0.03665099   -55.1203 
3240.0000   0.03626082   -55.7942 
3250.0000   0.03608631   -56.0114 
3260.0000   0.03520798   -58.2922 
3270.0000   0.03514353   -55.1137 
3280.0000   0.03432584   -58.6357 
3290.0000   0.03410022   -59.6673 
3300.0000   0.03383651   -59.8859 
3310.0000   0.03348573   -59.7455 
3320.0000   0.03326453   -60.1578 
3330.0000   0.03319459   -63.0710 
3340.0000   0.03375100   -64.4594 
3350.0000   0.03336567   -64.7799 
3360.0000   0.03332028   -66.3236 
3370.0000   0.03348928   -67.6297 
3380.0000   0.03368256   -69.3675 
3390.0000   0.03345741   -70.1211 
3400.0000   0.03394318   -69.6726 
3410.0000   0.03434489   -72.2460 
3420.0000   0.03485227   -73.2548 
3430.0000   0.03477436   -74.0537 
3440.0000   0.03511001   -76.5846 
3450.0000   0.03552138   -76.7941 
3460.0000   0.03588704   -79.4475 
3470.0000   0.03674168   -79.7931 
3480.0000   0.03779614   -81.1766 
3490.0000   0.03792063   -80.8297 
3500.0000   0.03839962   -82.8479 
3510.0000   0.03732800   -85.5558 
3520.0000   0.03926383   -86.5989 
3530.0000   0.03989549   -86.4368 
3540.0000   0.04065535   -86.8349 
3550.0000   0.03979458   -86.0241 
3560.0000   0.04105210   -88.5072 
3570.0000   0.04095374   -88.4472 
3580.0000   0.04122895   -91.4601 
3590.0000   0.04169152   -90.9872 
3600.0000   0.04140533   -91.7424 
3610.0000   0.04154185   -93.8789 
3620.0000   0.04153416   -92.4846 
3630.0000   0.04091348   -94.2494 
3640.0000   0.04099383   -93.2355 
3650.0000   0.04057680   -94.8354 
3660.0000   0.04033427   -94.1382 
3670.0000   0.04031359   -95.2008 
3680.0000   0.04138348   -96.3899 
3690.0000   0.04088982   -94.7923 
3700.0000   0.04057883   -94.6230 
3710.0000   0.04019300   -94.8342 
3720.0000   0.03965655   -95.4303 
3730.0000   0.03921297   -98.3882 
3740.0000   0.03878285   -97.5815 
3750.0000   0.03772313   -96.0248 
3760.0000   0.03776823   -98.9081 
3770.0000   0.03706317   -97.5009 
3780.0000   0.03665945   -97.6123 
3790.0000   0.03482361   -98.5003 
3800.0000   0.03586960   -99.4577 
3810.0000   0.03562546   -98.9655 
3820.0000   0.03548694   -99.2132 
3830.0000   0.03532331   -98.9382 
3840.0000   0.03557443   -98.9910 
3850.0000   0.03525512   -100.4789 
3860.0000   0.03532475   -99.1202 
3870.0000   0.03545532   -98.3877 
3880.0000   0.03566645   -98.6340 
3890.0000   0.03615736   -98.4213 
3900.0000   0.03646062   -99.1247 
3910.0000   0.03702796   -98.2122 
3920.0000   0.03765715   -98.5566 
3930.0000   0.03796177   -99.9196 
3940.0000   0.03797612   -99.4289 
3950.0000   0.03960735   -99.7261 
3960.0000   0.04073014   -98.7275 
3970.0000   0.04167046   -98.4436 
3980.0000   0.04276353   -99.9379 
3990.0000   0.04451230   -99.9189 
