# MHz S MA R 50.0
140.0000   0.51460310   -101.4338 
150.0000   0.48134354   -109.2234 
160.0000   0.48338194   -96.0213 
170.0000   0.51971754   -104.0178 
180.0000   0.50755868   -108.7320 
190.0000   0.49796389   -111.1073 
200.0000   0.49129457   -112.6064 
210.0000   0.49116186   -114.6223 
220.0000   0.48399131   -109.9079 
230.0000   0.45895812   -117.7082 
240.0000   0.43901850   -119.9683 
250.0000   0.44871423   -122.4822 
260.0000   0.45563813   -123.7333 
270.0000   0.46643682   -124.9579 
280.0000   0.47160329   -127.5813 
290.0000   0.46864270   -128.2083 
300.0000   0.47090864   -130.0220 
310.0000   0.45896147   -127.4018 
320.0000   0.46780187   -128.8575 
330.0000   0.46827952   -135.1962 
340.0000   0.46533135   -132.8897 
350.0000   0.46819792   -136.6277 
360.0000   0.46570951   -145.6202 
370.0000   0.48181988   -139.1426 
380.0000   0.48757269   -140.0508 
390.0000   0.50152813   -141.8568 
400.0000   0.50959699   -142.3043 
410.0000   0.51495125   -143.0719 
420.0000   0.52100325   -143.5120 
430.0000   0.52457442   -144.2903 
440.0000   0.53726487   -145.3661 
450.0000   0.52840854   -145.7256 
460.0000   0.53018505   -149.3226 
470.0000   0.54568169   -148.1900 
480.0000   0.54617604   -150.2251 
490.0000   0.54737659   -149.3552 
500.0000   0.54578668   -150.9383 
510.0000   0.54739390   -150.4737 
520.0000   0.55357111   -151.9627 
530.0000   0.55316657   -152.3556 
540.0000   0.55329797   -150.8179 
550.0000   0.55402998   -151.4595 
560.0000   0.54951978   -152.9723 
570.0000   0.55515757   -154.4425 
580.0000   0.54807684   -154.2116 
590.0000   0.54693978   -154.2953 
600.0000   0.54390511   -155.8993 
610.0000   0.54026409   -155.7085 
620.0000   0.53604519   -155.4012 
630.0000   0.52131654   -154.4473 
640.0000   0.52802396   -156.7043 
650.0000   0.51351707   -156.0784 
660.0000   0.51267084   -156.5174 
670.0000   0.52369636   -157.7723 
680.0000   0.52019969   -158.9691 
690.0000   0.50702614   -159.2759 
700.0000   0.50712499   -159.9046 
710.0000   0.50033475   -161.2778 
720.0000   0.49863759   -162.4097 
730.0000   0.49943160   -162.8160 
740.0000   0.49819533   -163.8539 
750.0000   0.49747824   -164.4102 
760.0000   0.49416351   -165.5888 
770.0000   0.49472717   -166.1055 
780.0000   0.49153200   -166.1631 
790.0000   0.49134527   -167.5177 
800.0000   0.49135734   -168.2951 
810.0000   0.48974151   -168.6420 
820.0000   0.49171991   -171.7343 
830.0000   0.48918933   -171.1390 
840.0000   0.49232350   -173.7733 
850.0000   0.49271663   -174.2022 
860.0000   0.49459312   -175.6092 
870.0000   0.49751039   -176.8744 
880.0000   0.50032800   -178.7581 
890.0000   0.50175664   -179.9071 
900.0000   0.49779802   179.7406 
910.0000   0.50120402   178.3500 
920.0000   0.51273131   176.0025 
930.0000   0.50688881   173.0403 
940.0000   0.52197783   170.9370 
950.0000   0.52512017   168.8721 
960.0000   0.51782156   167.6556 
970.0000   0.53459332   164.3764 
980.0000   0.53719095   162.8008 
990.0000   0.53134468   160.2137 
1000.0000   0.53800111   157.9340 
1010.0000   0.54375200   158.0374 
1020.0000   0.54290711   154.2276 
1030.0000   0.54898894   152.1085 
1040.0000   0.54784271   152.9622 
1050.0000   0.55090058   150.2179 
1060.0000   0.55284435   149.4247 
1070.0000   0.55086277   148.3513 
1080.0000   0.55132196   146.4852 
1090.0000   0.54951895   146.1246 
1100.0000   0.54580498   146.3506 
1110.0000   0.54656589   143.3667 
1120.0000   0.54429508   142.7436 
1130.0000   0.53849764   143.5727 
1140.0000   0.54188259   141.3915 
1150.0000   0.53679618   140.5924 
1160.0000   0.52809928   140.1553 
1170.0000   0.52170038   138.4975 
1180.0000   0.52255300   138.5545 
1190.0000   0.52792012   137.4453 
1200.0000   0.52181124   138.2238 
1210.0000   0.51697668   136.0876 
1220.0000   0.51126527   133.8584 
1230.0000   0.51256255   132.7828 
1240.0000   0.51093778   131.8549 
1250.0000   0.51044551   131.0495 
1260.0000   0.51013235   129.7955 
1270.0000   0.50664835   127.7402 
1280.0000   0.50610598   127.6717 
1290.0000   0.50823299   125.1950 
1300.0000   0.49586246   123.3935 
1310.0000   0.50866373   121.5577 
1320.0000   0.50983826   120.4762 
1330.0000   0.50564883   118.6212 
1340.0000   0.50391943   116.8918 
1350.0000   0.50418000   115.8270 
1360.0000   0.50360397   113.1559 
1370.0000   0.50913114   111.6588 
1380.0000   0.51279494   110.0999 
1390.0000   0.51806482   109.3600 
1400.0000   0.52118727   106.9552 
1410.0000   0.52646198   105.2664 
1420.0000   0.52348369   103.2078 
1430.0000   0.53028786   102.2874 
1440.0000   0.53255852   101.3566 
1450.0000   0.52968536   98.7150 
1460.0000   0.53065337   99.9857 
1470.0000   0.53045126   98.0702 
1480.0000   0.53552396   95.8686 
1490.0000   0.53656589   94.8555 
1500.0000   0.53272467   95.5198 
1510.0000   0.52951433   95.1812 
1520.0000   0.53195508   93.9860 
1530.0000   0.53101379   93.9862 
1540.0000   0.53475544   91.1743 
1550.0000   0.52607364   91.5453 
1560.0000   0.52937368   90.3087 
1570.0000   0.52635450   90.4489 
1580.0000   0.52522843   90.0166 
1590.0000   0.52118164   87.9972 
1600.0000   0.51620501   87.6423 
1610.0000   0.51420962   85.0750 
1620.0000   0.51026420   85.0617 
1630.0000   0.50491767   82.7964 
1640.0000   0.50468928   82.5441 
1650.0000   0.49635984   80.0579 
1660.0000   0.49244192   78.0522 
1670.0000   0.48884004   75.4795 
1680.0000   0.48616734   72.2590 
1690.0000   0.48085721   69.6973 
1700.0000   0.47904358   67.1481 
1710.0000   0.47797511   63.9524 
1720.0000   0.47845965   61.9676 
1730.0000   0.47860099   58.9054 
1740.0000   0.47939443   56.8083 
1750.0000   0.48043056   52.9007 
1760.0000   0.48237944   51.5818 
1770.0000   0.48582838   49.9321 
1780.0000   0.49229562   47.0209 
1790.0000   0.49468986   44.4998 
1800.0000   0.50086635   42.0177 
1810.0000   0.50876162   39.5801 
1820.0000   0.50741018   37.5564 
1830.0000   0.51650724   34.8135 
1840.0000   0.52376542   34.2378 
1850.0000   0.52819769   31.2468 
1860.0000   0.53293986   28.6704 
1870.0000   0.53794454   25.8095 
1880.0000   0.54331584   24.2600 
1890.0000   0.54371460   24.2210 
1900.0000   0.54834987   21.6353 
1910.0000   0.54925314   20.9606 
1920.0000   0.55078692   19.2354 
1930.0000   0.55762561   16.5677 
1940.0000   0.55272721   17.1492 
1950.0000   0.55223754   16.9268 
1960.0000   0.54345500   18.8783 
1970.0000   0.54214734   16.9798 
1980.0000   0.54025197   16.9245 
1990.0000   0.53126934   17.9311 
2000.0000   0.52465547   16.8313 
2010.0000   0.51849241   17.1357 
2020.0000   0.50976902   15.3217 
2030.0000   0.49856091   14.6982 
2040.0000   0.48412152   14.0014 
2050.0000   0.47122308   13.3260 
2060.0000   0.45925538   11.5759 
2070.0000   0.44914765   9.5579 
2080.0000   0.43972556   7.8902 
2090.0000   0.43059100   5.7486 
2100.0000   0.42127358   3.7304 
2110.0000   0.41225116   3.3285 
2120.0000   0.40355459   1.5568 
2130.0000   0.39506306   -2.7207 
2140.0000   0.38643501   -4.4612 
2150.0000   0.37992045   -6.1126 
2160.0000   0.37389333   -7.0787 
2170.0000   0.36559586   -10.3071 
2180.0000   0.35997892   -11.4613 
2190.0000   0.35480881   -12.9174 
2200.0000   0.34783326   -14.7523 
2210.0000   0.34119203   -17.0255 
2220.0000   0.33672349   -19.8790 
2230.0000   0.33407278   -21.0031 
2240.0000   0.33131617   -22.7967 
2250.0000   0.32937717   -23.0501 
2260.0000   0.32704162   -24.1684 
2270.0000   0.32587311   -25.1036 
2280.0000   0.32562568   -25.3422 
2290.0000   0.32274975   -25.7484 
2300.0000   0.32125414   -26.1831 
2310.0000   0.32173460   -26.1592 
2320.0000   0.32051852   -27.4091 
2330.0000   0.32182593   -26.3595 
2340.0000   0.32246259   -25.9263 
2350.0000   0.32332956   -25.8716 
2360.0000   0.32492947   -25.4344 
2370.0000   0.32807039   -24.0320 
2380.0000   0.33208953   -24.7492 
2390.0000   0.33469683   -24.4168 
2400.0000   0.33933370   -24.2256 
2410.0000   0.34378589   -24.9346 
2420.0000   0.34868989   -23.9373 
2430.0000   0.35333411   -24.3528 
2440.0000   0.35638263   -26.6646 
2450.0000   0.36073209   -26.7621 
2460.0000   0.36569232   -28.1876 
2470.0000   0.36985840   -29.3730 
2480.0000   0.37421485   -31.6363 
2490.0000   0.37988861   -32.8100 
2500.0000   0.38494541   -34.5549 
2510.0000   0.39127817   -35.6301 
2520.0000   0.39806809   -39.7814 
2530.0000   0.40305412   -39.5728 
2540.0000   0.40958748   -43.2752 
2550.0000   0.41683650   -46.1104 
2560.0000   0.42114388   -48.2393 
2570.0000   0.42638916   -50.0660 
2580.0000   0.43089879   -52.0626 
2590.0000   0.42692246   -53.6396 
2600.0000   0.43781071   -58.5763 
2610.0000   0.44199730   -60.1023 
2620.0000   0.44665969   -61.3227 
2630.0000   0.44795796   -62.0691 
2640.0000   0.45135045   -64.1704 
2650.0000   0.45282948   -67.5201 
2660.0000   0.45437284   -68.5513 
2670.0000   0.45651810   -71.0261 
2680.0000   0.45762607   -71.6391 
2690.0000   0.45989899   -74.0315 
2700.0000   0.46011956   -74.7577 
2710.0000   0.46047565   -74.8098 
2720.0000   0.46096510   -76.6034 
2730.0000   0.46193666   -75.5443 
2740.0000   0.46274725   -79.2698 
2750.0000   0.46335937   -80.5448 
2760.0000   0.46199942   -81.0247 
2770.0000   0.46227278   -80.3339 
2780.0000   0.46214907   -82.5717 
2790.0000   0.46035328   -83.5088 
2800.0000   0.46211157   -83.5204 
2810.0000   0.46108339   -85.4815 
2820.0000   0.45765975   -87.5030 
2830.0000   0.45820384   -87.6439 
2840.0000   0.45931814   -89.3378 
2850.0000   0.45706077   -92.9443 
2860.0000   0.45463418   -94.4373 
2870.0000   0.41709704   -95.8224 
2880.0000   0.41378063   -100.0013 
2890.0000   0.40943621   -103.7604 
2900.0000   0.40468132   -105.6110 
2910.0000   0.40015185   -107.7296 
2920.0000   0.39478109   -111.4271 
2930.0000   0.38717089   -114.3477 
2940.0000   0.37879078   -117.0404 
2950.0000   0.37125999   -120.1224 
2960.0000   0.36383697   -123.9410 
2970.0000   0.35308031   -127.9538 
2980.0000   0.34348519   -130.3549 
2990.0000   0.33431040   -134.8157 
3000.0000   0.32582537   -137.7546 
3010.0000   0.31473512   -139.4780 
3020.0000   0.30495852   -143.2380 
3030.0000   0.29580615   -146.1861 
3040.0000   0.28497339   -148.0865 
3050.0000   0.27666946   -152.0359 
3060.0000   0.26549006   -155.3531 
3070.0000   0.25596235   -158.2864 
3080.0000   0.24654864   -158.8994 
3090.0000   0.23837722   -161.5535 
3100.0000   0.23049574   -164.4550 
3110.0000   0.22208789   -167.2129 
3120.0000   0.21416861   -169.4404 
3130.0000   0.20710909   -169.4736 
3140.0000   0.20146932   -172.7177 
3150.0000   0.19485037   -175.8063 
3160.0000   0.18972822   -178.0802 
3170.0000   0.18414609   -178.3964 
3180.0000   0.18030002   179.5069 
3190.0000   0.17682285   177.9576 
3200.0000   0.17409412   177.6279 
3210.0000   0.16974619   174.3909 
3220.0000   0.16712737   173.4934 
3230.0000   0.16431891   171.6589 
3240.0000   0.16305932   170.3742 
3250.0000   0.16165359   170.0918 
3260.0000   0.15917430   168.0387 
3270.0000   0.15711414   166.5647 
3280.0000   0.15708505   164.9982 
3290.0000   0.15723017   164.0534 
3300.0000   0.15801258   162.8993 
3310.0000   0.15670693   162.2358 
3320.0000   0.15772281   160.3808 
3330.0000   0.15774685   157.5429 
3340.0000   0.15910105   158.5166 
3350.0000   0.16044618   157.2936 
3360.0000   0.16304204   156.6104 
3370.0000   0.16251356   154.7753 
3380.0000   0.16410812   153.5406 
3390.0000   0.16487810   153.5374 
3400.0000   0.16620945   152.1804 
3410.0000   0.16795329   150.4005 
3420.0000   0.16978091   149.5258 
3430.0000   0.16840768   148.1653 
3440.0000   0.16852671   148.1405 
3450.0000   0.16762948   146.8426 
3460.0000   0.16713126   146.0472 
3470.0000   0.16676517   146.1327 
3480.0000   0.16601108   145.0691 
3490.0000   0.16262615   146.3572 
3500.0000   0.16117754   143.5754 
3510.0000   0.15823135   143.4152 
3520.0000   0.15707660   143.1421 
3530.0000   0.15590790   142.1935 
3540.0000   0.15413661   141.5487 
3550.0000   0.15128855   142.7046 
3560.0000   0.14797499   139.6758 
3570.0000   0.14464225   140.1256 
3580.0000   0.14234938   140.5620 
3590.0000   0.13997168   138.7308 
3600.0000   0.13780110   138.9704 
3610.0000   0.13423141   138.2780 
3620.0000   0.13182250   137.0537 
3630.0000   0.12954276   136.1623 
3640.0000   0.12723404   134.3508 
3650.0000   0.12521174   133.5379 
3660.0000   0.12343186   133.7863 
3670.0000   0.12197039   133.1945 
3680.0000   0.12540754   131.3340 
3690.0000   0.12441084   131.9335 
3700.0000   0.12318142   130.2912 
3710.0000   0.12281331   129.4433 
3720.0000   0.12222857   127.9255 
3730.0000   0.12184295   128.3941 
3740.0000   0.12207164   124.9516 
3750.0000   0.12326895   124.5087 
3760.0000   0.12298276   122.3916 
3770.0000   0.12423867   121.7591 
3780.0000   0.12502092   121.0268 
3790.0000   0.12787815   118.8536 
3800.0000   0.12850849   117.7970 
3810.0000   0.13070190   115.1408 
3820.0000   0.13297599   116.2510 
3830.0000   0.13624172   114.2894 
3840.0000   0.13953648   112.4407 
3850.0000   0.14356085   111.5532 
3860.0000   0.14791685   110.1540 
3870.0000   0.15229078   109.9800 
3880.0000   0.15719936   108.9009 
3890.0000   0.16384028   107.1511 
3900.0000   0.17067417   105.3428 
3910.0000   0.17768712   104.1912 
3920.0000   0.18510981   102.0883 
3930.0000   0.19310728   100.9547 
3940.0000   0.20395773   99.5437 
3950.0000   0.21482113   97.9532 
3960.0000   0.22629545   94.6126 
3970.0000   0.23806669   90.3340 
3980.0000   0.25075299   89.9240 
3990.0000   0.26248249   88.1510 
