# MHz S MA R 50.0
140.0000   0.39721836   78.7717 
150.0000   0.37098700   73.2145 
160.0000   0.39843476   91.3131 
170.0000   0.49461373   75.5187 
180.0000   0.50881473   73.1466 
190.0000   0.52535276   70.0124 
200.0000   0.53245166   68.5240 
210.0000   0.54210303   65.8518 
220.0000   0.55067155   60.8191 
230.0000   0.53992618   63.2777 
240.0000   0.52530843   61.3774 
250.0000   0.53557238   57.4276 
260.0000   0.54832557   53.9955 
270.0000   0.55649194   53.7087 
280.0000   0.56100916   53.8312 
290.0000   0.56102289   54.8842 
300.0000   0.56253753   53.5997 
310.0000   0.55606500   56.8677 
320.0000   0.56149072   54.8461 
330.0000   0.55718195   54.4013 
340.0000   0.54940522   55.4138 
350.0000   0.54875384   54.2264 
360.0000   0.54872763   50.7088 
370.0000   0.53946470   53.3872 
380.0000   0.53955668   53.7467 
390.0000   0.52348390   52.5366 
400.0000   0.52015276   51.7486 
410.0000   0.51536866   50.3631 
420.0000   0.49684761   49.0789 
430.0000   0.50224118   48.2255 
440.0000   0.49691219   46.9046 
450.0000   0.48246154   44.9910 
460.0000   0.48566570   41.8161 
470.0000   0.47858270   42.0123 
480.0000   0.47446279   40.2835 
490.0000   0.47394317   38.7144 
500.0000   0.47356724   37.2282 
510.0000   0.47407509   35.0954 
520.0000   0.47082954   34.2139 
530.0000   0.47460707   33.2976 
540.0000   0.47780529   31.6483 
550.0000   0.47269506   30.7966 
560.0000   0.47130126   29.9919 
570.0000   0.47900933   29.1081 
580.0000   0.47286993   27.5698 
590.0000   0.47524465   26.6001 
600.0000   0.48672669   25.0368 
610.0000   0.48998929   24.6753 
620.0000   0.49180043   23.2391 
630.0000   0.49798032   22.2632 
640.0000   0.51019206   21.4428 
650.0000   0.51464718   21.9691 
660.0000   0.52097921   21.8427 
670.0000   0.52864905   21.3946 
680.0000   0.53321567   21.5415 
690.0000   0.53905665   20.8126 
700.0000   0.54527448   21.2004 
710.0000   0.54129115   21.6128 
720.0000   0.53962415   20.6794 
730.0000   0.54490486   20.3552 
740.0000   0.53835865   20.4375 
750.0000   0.54229627   19.3876 
760.0000   0.54554190   19.0891 
770.0000   0.54601351   19.3852 
780.0000   0.54916228   18.0728 
790.0000   0.55080422   18.2584 
800.0000   0.55128090   17.7624 
810.0000   0.55254078   17.8176 
820.0000   0.55174042   16.9824 
830.0000   0.55082084   17.3406 
840.0000   0.54780985   16.0519 
850.0000   0.54666900   15.5582 
860.0000   0.54227299   14.8209 
870.0000   0.54276755   14.4420 
880.0000   0.53261205   12.7675 
890.0000   0.52977054   12.0072 
900.0000   0.52930320   9.4832 
910.0000   0.51895604   8.4342 
920.0000   0.50442039   8.1077 
930.0000   0.50223550   5.9868 
940.0000   0.49615061   5.4377 
950.0000   0.48823656   5.0350 
960.0000   0.48360749   3.9487 
970.0000   0.47544210   1.8571 
980.0000   0.47351998   0.5474 
990.0000   0.46572375   0.8963 
1000.0000   0.46279775   -0.5221 
1010.0000   0.46715422   -3.1005 
1020.0000   0.46381133   -3.9545 
1030.0000   0.46047171   -4.9491 
1040.0000   0.46377144   -6.5402 
1050.0000   0.46227387   -7.8915 
1060.0000   0.45120404   -7.5403 
1070.0000   0.45911413   -9.4657 
1080.0000   0.45669695   -10.3912 
1090.0000   0.45910356   -11.5927 
1100.0000   0.46122099   -12.4822 
1110.0000   0.46188669   -14.7679 
1120.0000   0.46497927   -13.9468 
1130.0000   0.47046960   -15.6286 
1140.0000   0.47515830   -15.6784 
1150.0000   0.48257245   -16.9758 
1160.0000   0.48924130   -17.8171 
1170.0000   0.49756629   -17.8064 
1180.0000   0.50705234   -19.9454 
1190.0000   0.51531379   -20.8942 
1200.0000   0.52408458   -23.1421 
1210.0000   0.53477863   -23.4865 
1220.0000   0.54391686   -25.4502 
1230.0000   0.54948766   -27.1736 
1240.0000   0.55311373   -28.2522 
1250.0000   0.56030169   -30.6537 
1260.0000   0.55799795   -32.4529 
1270.0000   0.56318834   -35.0188 
1280.0000   0.56297823   -36.6054 
1290.0000   0.56635264   -39.7461 
1300.0000   0.56125431   -42.6127 
1310.0000   0.57011335   -45.6629 
1320.0000   0.56936056   -48.9279 
1330.0000   0.57090539   -50.3885 
1340.0000   0.56215261   -53.2686 
1350.0000   0.56411451   -56.8174 
1360.0000   0.56718006   -58.8526 
1370.0000   0.56277459   -61.0840 
1380.0000   0.56223250   -64.9300 
1390.0000   0.55697986   -67.5960 
1400.0000   0.55674728   -70.1336 
1410.0000   0.54951753   -72.2537 
1420.0000   0.55133145   -75.8792 
1430.0000   0.54357974   -78.2556 
1440.0000   0.54183645   -79.3960 
1450.0000   0.53928035   -82.8029 
1460.0000   0.52758979   -84.2084 
1470.0000   0.52615333   -87.3517 
1480.0000   0.51977298   -88.0407 
1490.0000   0.51604563   -90.1934 
1500.0000   0.51543817   -91.0326 
1510.0000   0.51015209   -92.7429 
1520.0000   0.50577284   -93.3115 
1530.0000   0.50378383   -96.5867 
1540.0000   0.49665476   -96.1397 
1550.0000   0.49498864   -97.1865 
1560.0000   0.48629979   -98.2293 
1570.0000   0.48061955   -99.4959 
1580.0000   0.47297008   -98.4278 
1590.0000   0.46646118   -100.3105 
1600.0000   0.45961654   -102.6467 
1610.0000   0.45370135   -102.3110 
1620.0000   0.44827790   -103.6575 
1630.0000   0.44358695   -106.0455 
1640.0000   0.43908326   -106.2477 
1650.0000   0.43582365   -107.7474 
1660.0000   0.43401685   -108.8509 
1670.0000   0.43219249   -110.9826 
1680.0000   0.43365293   -112.9421 
1690.0000   0.43269143   -115.7461 
1700.0000   0.43416452   -117.7053 
1710.0000   0.43699231   -119.3925 
1720.0000   0.44045014   -120.9678 
1730.0000   0.44452799   -123.4058 
1740.0000   0.44815813   -124.3448 
1750.0000   0.45164982   -127.1294 
1760.0000   0.45542016   -128.0680 
1770.0000   0.45859286   -130.7386 
1780.0000   0.45934297   -131.2602 
1790.0000   0.46214482   -132.5363 
1800.0000   0.46440972   -134.9158 
1810.0000   0.46202800   -136.3440 
1820.0000   0.44981060   -137.6541 
1830.0000   0.44780796   -140.2967 
1840.0000   0.45038945   -140.8359 
1850.0000   0.44864808   -141.8588 
1860.0000   0.44595893   -143.1126 
1870.0000   0.44358094   -142.8664 
1880.0000   0.44090330   -143.9007 
1890.0000   0.43839218   -144.2869 
1900.0000   0.43450708   -145.9183 
1910.0000   0.43410224   -146.1217 
1920.0000   0.43140508   -146.8090 
1930.0000   0.42020351   -150.2159 
1940.0000   0.41855327   -145.0730 
1950.0000   0.41515847   -146.1239 
1960.0000   0.41195850   -145.2496 
1970.0000   0.41049508   -145.8476 
1980.0000   0.40902789   -145.2867 
1990.0000   0.40917845   -146.0526 
2000.0000   0.40901959   -145.9798 
2010.0000   0.41030293   -146.7919 
2020.0000   0.41373715   -149.2782 
2030.0000   0.41608752   -149.9761 
2040.0000   0.41822630   -151.0291 
2050.0000   0.42214096   -153.7199 
2060.0000   0.42641237   -154.9247 
2070.0000   0.43066500   -157.6947 
2080.0000   0.43521412   -161.8371 
2090.0000   0.44110012   -162.7780 
2100.0000   0.44650321   -164.7537 
2110.0000   0.45280446   -168.0440 
2120.0000   0.45909472   -172.1734 
2130.0000   0.46649984   -176.1591 
2140.0000   0.47468226   -178.5003 
2150.0000   0.48364288   178.0957 
2160.0000   0.48990697   173.2553 
2170.0000   0.49767758   173.2888 
2180.0000   0.50618059   168.2942 
2190.0000   0.51551390   164.0387 
2200.0000   0.52013590   161.7432 
2210.0000   0.52672885   157.2426 
2220.0000   0.53244479   153.9090 
2230.0000   0.53955538   150.5370 
2240.0000   0.54114676   147.5679 
2250.0000   0.54455303   145.4516 
2260.0000   0.54783461   141.1779 
2270.0000   0.55544235   139.6550 
2280.0000   0.55667898   137.3829 
2290.0000   0.55673110   134.3216 
2300.0000   0.55759608   133.0663 
2310.0000   0.55282446   129.7839 
2320.0000   0.55199196   128.0223 
2330.0000   0.55366124   128.2424 
2340.0000   0.55432488   126.5840 
2350.0000   0.55104448   125.3549 
2360.0000   0.54193482   124.3206 
2370.0000   0.53872644   124.8730 
2380.0000   0.53292762   123.4911 
2390.0000   0.52869342   122.0961 
2400.0000   0.52188795   120.1290 
2410.0000   0.51361955   119.1678 
2420.0000   0.50480738   118.1246 
2430.0000   0.49729464   115.9752 
2440.0000   0.48750338   114.5567 
2450.0000   0.47939371   112.9766 
2460.0000   0.47228446   110.2093 
2470.0000   0.46526771   108.4816 
2480.0000   0.45970350   104.9118 
2490.0000   0.45299897   104.1103 
2500.0000   0.44913366   100.8518 
2510.0000   0.44575975   98.0526 
2520.0000   0.44239519   94.6574 
2530.0000   0.43815276   93.2176 
2540.0000   0.43489091   88.2164 
2550.0000   0.43147694   86.8957 
2560.0000   0.42882371   83.8897 
2570.0000   0.42548638   81.1003 
2580.0000   0.42075930   77.9172 
2590.0000   0.41233723   75.8269 
2600.0000   0.41093284   73.7030 
2610.0000   0.40588479   69.5898 
2620.0000   0.40215879   69.3567 
2630.0000   0.39493820   66.4495 
2640.0000   0.39095215   64.1023 
2650.0000   0.38526907   63.9064 
2660.0000   0.37974644   62.8376 
2670.0000   0.37425049   58.4757 
2680.0000   0.36866848   58.9651 
2690.0000   0.36361054   57.3050 
2700.0000   0.35881853   56.7747 
2710.0000   0.35364411   56.7566 
2720.0000   0.34943526   57.5190 
2730.0000   0.34624188   54.3104 
2740.0000   0.34383439   55.4118 
2750.0000   0.34095136   53.9930 
2760.0000   0.33723210   55.1601 
2770.0000   0.33345611   57.8040 
2780.0000   0.33118386   54.6345 
2790.0000   0.32550417   57.0052 
2800.0000   0.32573846   55.9283 
2810.0000   0.32286768   55.8498 
2820.0000   0.31752656   56.1551 
2830.0000   0.31673180   54.8226 
2840.0000   0.31767632   53.9817 
2850.0000   0.31399800   53.5970 
2860.0000   0.31096671   51.6452 
2870.0000   0.28396147   49.7973 
2880.0000   0.28038457   49.1105 
2890.0000   0.27660697   47.2785 
2900.0000   0.27323060   45.9010 
2910.0000   0.27020880   44.6423 
2920.0000   0.26803937   41.1659 
2930.0000   0.26415392   39.5237 
2940.0000   0.26074740   37.2138 
2950.0000   0.25888461   35.2469 
2960.0000   0.25771024   32.6187 
2970.0000   0.25496226   31.2204 
2980.0000   0.25389635   28.3583 
2990.0000   0.25290425   25.8054 
3000.0000   0.25321773   24.8227 
3010.0000   0.25212027   24.2622 
3020.0000   0.25239988   20.9252 
3030.0000   0.25184649   19.7322 
3040.0000   0.25223889   18.0726 
3050.0000   0.25345735   16.6625 
3060.0000   0.25208231   15.0918 
3070.0000   0.25060452   13.7389 
3080.0000   0.25064016   10.6584 
3090.0000   0.25066033   10.1930 
3100.0000   0.24949536   9.6558 
3110.0000   0.24864325   9.2996 
3120.0000   0.24723288   8.5391 
3130.0000   0.24648584   7.9749 
3140.0000   0.24622833   7.2579 
3150.0000   0.24448176   6.4494 
3160.0000   0.24304119   5.6662 
3170.0000   0.24138596   5.2221 
3180.0000   0.24020080   4.1494 
3190.0000   0.23982966   3.5196 
3200.0000   0.23741088   3.5142 
3210.0000   0.23546827   0.3549 
3220.0000   0.23342320   0.3319 
3230.0000   0.23162985   0.3484 
3240.0000   0.23064580   -1.3746 
3250.0000   0.23007285   -1.8185 
3260.0000   0.22679344   -3.8578 
3270.0000   0.22653966   -5.3440 
3280.0000   0.22343109   -5.5098 
3290.0000   0.22325043   -7.1661 
3300.0000   0.22331063   -9.4707 
3310.0000   0.22131848   -10.4726 
3320.0000   0.22078985   -11.9604 
3330.0000   0.21908828   -13.8179 
3340.0000   0.21907252   -16.4662 
3350.0000   0.21875036   -18.0389 
3360.0000   0.21875776   -20.1827 
3370.0000   0.21592784   -20.8579 
3380.0000   0.21541384   -24.3626 
3390.0000   0.21452525   -27.2579 
3400.0000   0.21481492   -29.2082 
3410.0000   0.21633112   -32.3882 
3420.0000   0.21781021   -34.5945 
3430.0000   0.21651723   -37.8597 
3440.0000   0.21771352   -38.7332 
3450.0000   0.21817290   -43.2347 
3460.0000   0.22161532   -44.9876 
3470.0000   0.22435385   -48.3817 
3480.0000   0.22827821   -51.9360 
3490.0000   0.22794418   -52.7086 
3500.0000   0.23088537   -56.3448 
3510.0000   0.23211271   -59.8037 
3520.0000   0.23537595   -61.5577 
3530.0000   0.23875619   -64.5914 
3540.0000   0.24169850   -67.0020 
3550.0000   0.24127855   -68.3166 
3560.0000   0.24248782   -70.8784 
3570.0000   0.24156404   -73.4593 
3580.0000   0.24249252   -74.8233 
3590.0000   0.24258611   -76.7020 
3600.0000   0.24251658   -79.6263 
3610.0000   0.23913096   -80.2453 
3620.0000   0.23716727   -83.3320 
3630.0000   0.23413388   -84.8814 
3640.0000   0.23065641   -86.3064 
3650.0000   0.22679959   -88.3970 
3660.0000   0.22257706   -89.2193 
3670.0000   0.21828873   -89.7650 
3680.0000   0.22315231   -91.1191 
3690.0000   0.21775491   -94.6102 
3700.0000   0.21283160   -92.9569 
3710.0000   0.20740621   -95.5151 
3720.0000   0.20196727   -95.4721 
3730.0000   0.19599256   -95.2473 
3740.0000   0.19130272   -97.0052 
3750.0000   0.18587489   -98.0399 
3760.0000   0.18129015   -99.6452 
3770.0000   0.17659510   -99.4086 
3780.0000   0.17219732   -100.5131 
3790.0000   0.16752543   -101.6737 
3800.0000   0.16480878   -100.9711 
3810.0000   0.16157558   -98.5424 
3820.0000   0.15884396   -103.0099 
3830.0000   0.15598291   -103.3559 
3840.0000   0.15477309   -101.3547 
3850.0000   0.15240326   -101.2368 
3860.0000   0.15080482   -101.9395 
3870.0000   0.14918200   -102.2887 
3880.0000   0.14788751   -100.3309 
3890.0000   0.14776371   -100.7792 
3900.0000   0.14759934   -101.4734 
3910.0000   0.14725380   -101.7591 
3920.0000   0.14755212   -100.5340 
3930.0000   0.14740465   -98.9941 
3940.0000   0.14806512   -99.6942 
3950.0000   0.15055219   -100.1609 
3960.0000   0.15201729   -100.0892 
3970.0000   0.15342029   -100.0096 
3980.0000   0.15533820   -100.3573 
3990.0000   0.15772644   -101.0115 
