# MHz S MA R 50.0
2000.0000   0.75754791   -97.4437 
2004.0000   0.75012697   -93.3069 
2008.0000   0.74908229   -87.1525 
2012.0000   0.74144867   -85.9633 
2016.0000   0.74025028   -82.8653 
2020.0000   0.73245675   -78.6242 
2024.0000   0.72790877   -78.7441 
2028.0000   0.72124881   -71.1770 
2032.0000   0.71962725   -67.2740 
2036.0000   0.71638882   -65.3908 
2040.0000   0.70757147   -63.3547 
2044.0000   0.70592415   -59.1557 
2048.0000   0.70153328   -67.6156 
2052.0000   0.69324840   -52.9299 
2056.0000   0.68915853   -50.1212 
2060.0000   0.68369955   -47.6472 
2064.0000   0.66226838   -42.9713 
2068.0000   0.67251691   -40.5483 
2072.0000   0.66561048   -37.1319 
2076.0000   0.66196047   -32.9802 
2080.0000   0.65755520   -30.5427 
2084.0000   0.64851315   -27.6673 
2088.0000   0.64812249   -22.3790 
2092.0000   0.64277127   -29.9783 
2096.0000   0.63999484   -15.7734 
2100.0000   0.63395197   -10.7534 
2104.0000   0.62983289   -6.9027 
2108.0000   0.62819441   -3.1784 
2112.0000   0.62267456   2.1260 
2116.0000   0.62464595   6.5165 
2120.0000   0.62130375   11.7315 
2124.0000   0.61887887   14.6425 
2128.0000   0.62046896   19.8908 
2132.0000   0.62088400   22.9662 
2136.0000   0.62062399   28.3583 
2140.0000   0.61834735   33.8006 
2144.0000   0.61646985   37.2342 
2148.0000   0.61869752   41.9867 
2152.0000   0.61851001   45.6444 
2156.0000   0.61922700   49.1680 
2160.0000   0.62196737   52.5416 
2164.0000   0.61701452   57.7087 
2168.0000   0.62029579   63.2841 
2172.0000   0.60694761   65.3278 
2176.0000   0.60886749   68.6676 
2180.0000   0.61767814   72.0551 
2184.0000   0.61226901   73.0363 
2188.0000   0.61566431   78.3177 
2192.0000   0.61226400   82.0715 
2196.0000   0.61795903   84.8576 
2200.0000   0.60908865   86.4700 
2204.0000   0.61292725   90.5997 
2208.0000   0.59520095   95.5633 
2212.0000   0.58440493   98.7415 
2216.0000   0.57656988   101.0264 
2220.0000   0.55486565   105.4466 
2224.0000   0.54838602   108.5989 
2228.0000   0.53574609   112.5941 
2232.0000   0.52560949   117.1438 
2236.0000   0.51262901   120.0726 
2240.0000   0.50122883   125.1680 
2244.0000   0.48932110   130.1599 
2248.0000   0.47872096   133.7904 
2252.0000   0.46423501   135.4985 
2256.0000   0.45369651   141.1191 
2260.0000   0.45306257   144.6185 
2264.0000   0.44615374   148.6074 
2268.0000   0.43704269   154.7372 
2272.0000   0.42640910   158.6531 
2276.0000   0.42248703   161.1240 
2280.0000   0.41409734   168.8120 
2284.0000   0.40130133   169.3038 
2288.0000   0.40102956   175.7787 
2292.0000   0.39538019   -178.9121 
2296.0000   0.38949017   -173.9010 
2300.0000   0.37877962   -167.5502 
2304.0000   0.37455360   -163.8233 
2308.0000   0.37034462   -157.5184 
2312.0000   0.36410242   -150.0919 
2316.0000   0.35631237   -144.1800 
2320.0000   0.34779461   -138.5288 
2324.0000   0.34558716   -132.2036 
2328.0000   0.33678383   -131.3895 
2332.0000   0.32738087   -127.5399 
2336.0000   0.31794741   -123.5948 
2340.0000   0.28970027   -110.7521 
2344.0000   0.28601744   -105.4364 
2348.0000   0.28213201   -102.1827 
2352.0000   0.27912690   -96.5700 
2356.0000   0.27013121   -91.0985 
2360.0000   0.27263135   -88.6271 
2364.0000   0.26704441   -83.6383 
2368.0000   0.25575051   -80.0977 
2372.0000   0.26390178   -74.9138 
2376.0000   0.35990280   -88.2936 
2380.0000   0.37235050   -86.6368 
2384.0000   0.37333419   -83.3088 
2388.0000   0.37131717   -78.7422 
2392.0000   0.37229304   -76.4421 
2396.0000   0.37312034   -73.7350 
2400.0000   0.37332004   -71.2455 
2404.0000   0.37336026   -66.4841 
2408.0000   0.37145565   -63.8530 
2412.0000   0.36377595   -61.6259 
2416.0000   0.37373104   -58.5017 
2420.0000   0.37647399   -54.0144 
2424.0000   0.37638978   -50.2542 
2428.0000   0.37536036   -48.7256 
2432.0000   0.37823057   -45.3138 
2436.0000   0.37449708   -41.7541 
2440.0000   0.37844048   -40.3030 
2444.0000   0.37848911   -35.3171 
2448.0000   0.37828639   -32.0836 
2452.0000   0.37827741   -28.8727 
2456.0000   0.37562625   -24.4021 
2460.0000   0.37709334   -23.1394 
2464.0000   0.37205239   -18.9380 
2468.0000   0.37642663   -14.7719 
2472.0000   0.37451285   -9.2954 
2476.0000   0.37583734   -6.5941 
2480.0000   0.37178914   -3.5509 
2484.0000   0.36793070   2.1455 
2488.0000   0.36482221   4.8701 
2492.0000   0.35891562   7.7504 
2496.0000   0.31682397   35.5010 
2500.0000   0.31541753   46.1313 
2504.0000   0.31968097   51.3599 
2508.0000   0.31662796   56.1394 
2512.0000   0.32090739   58.7575 
2516.0000   0.32260021   63.5841 
2520.0000   0.32493231   68.2213 
2524.0000   0.32665762   71.1140 
2528.0000   0.32343116   73.8113 
2532.0000   0.32580872   79.4261 
2536.0000   0.32746029   84.9788 
2540.0000   0.33224470   87.4959 
2544.0000   0.33553912   91.7382 
2548.0000   0.33226509   94.4140 
2552.0000   0.33565697   98.7077 
2556.0000   0.33278649   102.4469 
2560.0000   0.33931749   105.7264 
2564.0000   0.34268877   110.8250 
2568.0000   0.34354357   114.6295 
2572.0000   0.33797875   117.8115 
2576.0000   0.34478098   123.5054 
2580.0000   0.34547147   126.5302 
2584.0000   0.34098018   129.4167 
2588.0000   0.34379276   132.3751 
2592.0000   0.34457315   136.5542 
2596.0000   0.34773188   138.9917 
2600.0000   0.35159167   142.3905 
2604.0000   0.34120816   145.4183 
2608.0000   0.34869049   150.2005 
2612.0000   0.35184356   152.6622 
2616.0000   0.34650499   153.5876 
2620.0000   0.35162461   159.3694 
2624.0000   0.34338857   160.6105 
2628.0000   0.34351231   163.3665 
2632.0000   0.34783792   165.1153 
2636.0000   0.34897074   170.0807 
2640.0000   0.34982689   174.7360 
2644.0000   0.34718856   165.5602 
2648.0000   0.35224558   179.6417 
2652.0000   0.34059934   -177.1114 
2656.0000   0.34540178   -171.6433 
2660.0000   0.35415621   -171.1188 
2664.0000   0.35359548   -165.9726 
2668.0000   0.35059687   -162.9439 
2672.0000   0.34796566   -158.9296 
2676.0000   0.35138355   -154.1906 
2680.0000   0.34864023   -151.7094 
2684.0000   0.35308351   -147.2227 
2688.0000   0.35638836   -143.0362 
2692.0000   0.35560545   -141.1596 
2696.0000   0.35639500   -137.8692 
2700.0000   0.35252663   -133.5378 
2704.0000   0.34926346   -128.6030 
2708.0000   0.35139527   -127.2901 
2712.0000   0.34859230   -122.2515 
2716.0000   0.34947061   -121.1942 
2720.0000   0.34394663   -118.5511 
2724.0000   0.34763655   -114.4854 
2728.0000   0.34849709   -110.1689 
2732.0000   0.34778977   -108.8680 
2736.0000   0.34736842   -102.7206 
2740.0000   0.34348245   -100.7837 
2744.0000   0.34630680   -98.0470 
2748.0000   0.33891810   -95.2303 
2752.0000   0.34292759   -91.9798 
2756.0000   0.34086083   -89.0784 
2760.0000   0.34104397   -85.0120 
2764.0000   0.34005180   -83.4128 
2768.0000   0.33766151   -78.5127 
2772.0000   0.33779392   -76.4259 
2776.0000   0.33434724   -72.6742 
2780.0000   0.33641219   -67.6803 
2784.0000   0.32295245   -65.0184 
2788.0000   0.31644935   -63.1967 
2792.0000   0.32954336   -58.2214 
2796.0000   0.32536538   -53.3249 
2800.0000   0.32359183   -47.5833 
2804.0000   0.31774305   -46.7178 
2808.0000   0.32547338   -40.3446 
2812.0000   0.32083169   -35.3291 
2816.0000   0.31664927   -32.9457 
2820.0000   0.32164928   -26.5020 
2824.0000   0.32252554   -24.5220 
2828.0000   0.31243396   -20.0276 
2832.0000   0.31630393   -14.2378 
2836.0000   0.30972298   -12.9613 
2840.0000   0.31043248   -5.3364 
2844.0000   0.30660612   -0.9045 
2848.0000   0.31142566   3.7665 
2852.0000   0.30123275   9.0028 
2856.0000   0.31180150   12.4334 
2860.0000   0.30458498   16.1979 
2864.0000   0.30433826   18.4190 
2868.0000   0.29569352   25.3814 
2872.0000   0.29057301   34.6828 
2876.0000   0.29314442   26.0471 
2880.0000   0.29232382   41.5264 
2884.0000   0.28484447   46.0473 
2888.0000   0.28945498   49.6994 
2892.0000   0.28587418   54.7823 
2896.0000   0.28705291   57.9752 
2900.0000   0.28452049   63.3563 
2904.0000   0.28380909   66.8216 
2908.0000   0.28529716   61.6934 
2912.0000   0.28427107   75.5570 
2916.0000   0.28376004   79.7317 
2920.0000   0.28316249   85.0659 
2924.0000   0.28178728   89.4141 
2928.0000   0.27851016   92.9845 
2932.0000   0.27271960   98.4149 
2936.0000   0.27808926   100.8775 
2940.0000   0.27724606   106.2219 
2944.0000   0.27692884   111.5687 
2948.0000   0.27600157   115.1536 
2952.0000   0.27411198   118.7123 
2956.0000   0.27271259   122.1430 
2960.0000   0.27153466   126.6850 
2964.0000   0.27053221   131.4355 
2968.0000   0.27035286   135.0705 
2972.0000   0.26892740   138.0094 
2976.0000   0.26728168   142.1332 
2980.0000   0.26786158   146.3834 
2984.0000   0.26319022   147.1247 
2988.0000   0.26252292   152.6773 
2992.0000   0.26286574   155.2381 
2996.0000   0.26183099   157.7491 
