# MHz S MA R 50.0
2000.0000   0.73059486   153.3901 
2004.0000   0.72689130   156.9238 
2008.0000   0.72341112   161.2679 
2012.0000   0.71991391   163.3196 
2016.0000   0.70515446   169.9621 
2020.0000   0.71352842   173.5342 
2024.0000   0.70922633   179.9638 
2028.0000   0.70977573   -177.9138 
2032.0000   0.70525148   -172.8182 
2036.0000   0.70246268   -170.6192 
2040.0000   0.69859895   -164.5674 
2044.0000   0.69737899   -160.7894 
2048.0000   0.69454523   -157.6943 
2052.0000   0.69212492   -153.2750 
2056.0000   0.68896908   -148.6899 
2060.0000   0.68565714   -144.5348 
2064.0000   0.68223379   -141.4975 
2068.0000   0.67612289   -135.9881 
2072.0000   0.67812508   -129.5022 
2076.0000   0.67802145   -127.8617 
2080.0000   0.67748669   -124.4221 
2084.0000   0.67755415   -117.8978 
2088.0000   0.67718252   -115.0358 
2092.0000   0.67191824   -108.8665 
2096.0000   0.67574949   -107.1709 
2100.0000   0.67154728   -101.2682 
2104.0000   0.67284734   -94.3398 
2108.0000   0.67531380   -92.4452 
2112.0000   0.67606550   -85.0986 
2116.0000   0.67202664   -82.5921 
2120.0000   0.67194013   -77.0285 
2124.0000   0.67738508   -71.4461 
2128.0000   0.67145327   -66.7173 
2132.0000   0.66758320   -61.1259 
2136.0000   0.67571851   -55.3847 
2140.0000   0.67621819   -51.1751 
2144.0000   0.67936201   -47.1200 
2148.0000   0.67888436   -40.2660 
2152.0000   0.67840381   -34.0834 
2156.0000   0.67754672   -29.6353 
2160.0000   0.67767613   -24.2879 
2164.0000   0.67992891   -21.6657 
2168.0000   0.67978987   -16.3727 
2172.0000   0.66763277   -10.8254 
2176.0000   0.67621372   -6.4651 
2180.0000   0.67401209   0.3687 
2184.0000   0.66222012   4.3027 
2188.0000   0.66892661   6.5875 
2192.0000   0.66790557   11.6510 
2196.0000   0.66936463   15.9416 
2200.0000   0.67498428   19.5343 
2204.0000   0.66424534   23.7458 
2208.0000   0.66433468   28.5795 
2212.0000   0.66395983   31.4182 
2216.0000   0.65619278   35.4542 
2220.0000   0.65343927   39.8660 
2224.0000   0.64581922   42.8441 
2228.0000   0.63794930   46.8206 
2232.0000   0.62810547   50.1534 
2236.0000   0.61533552   54.8430 
2240.0000   0.60124607   56.4464 
2244.0000   0.58227371   62.6955 
2248.0000   0.58503586   64.5127 
2252.0000   0.57399830   69.8745 
2256.0000   0.55963151   74.7221 
2260.0000   0.55460655   77.3830 
2264.0000   0.54003907   82.3727 
2268.0000   0.52798054   85.4313 
2272.0000   0.51966876   88.4831 
2276.0000   0.50572884   93.6341 
2280.0000   0.49639647   99.1365 
2284.0000   0.47898735   104.3481 
2288.0000   0.47076825   108.2688 
2292.0000   0.45379128   112.5956 
2296.0000   0.44549977   117.1448 
2300.0000   0.42799998   119.2216 
2304.0000   0.42089457   124.6381 
2308.0000   0.40563831   128.6889 
2312.0000   0.39062077   134.9207 
2316.0000   0.37691829   138.9528 
2320.0000   0.35931324   142.2121 
2324.0000   0.34815158   148.4308 
2328.0000   0.33339198   152.0443 
2332.0000   0.31604165   157.8699 
2336.0000   0.29906602   161.8318 
2340.0000   0.27234010   167.8423 
2344.0000   0.22723333   -178.0640 
2348.0000   0.21764804   -174.0757 
2352.0000   0.20527289   -167.7583 
2356.0000   0.19403053   -160.7637 
2360.0000   0.18228595   -153.9280 
2364.0000   0.17558962   -147.3603 
2368.0000   0.17064366   -139.3025 
2372.0000   0.16196646   -132.0204 
2376.0000   0.15668809   -124.0384 
2380.0000   0.15104709   -115.8040 
2384.0000   0.14741555   -108.3599 
2388.0000   0.14690634   -100.9159 
2392.0000   0.22326570   -125.2356 
2396.0000   0.26193661   -126.7179 
2400.0000   0.26013518   -119.0936 
2404.0000   0.25607573   -114.8327 
2408.0000   0.25657079   -108.3150 
2412.0000   0.25141078   -103.2350 
2416.0000   0.24886183   -98.2957 
2420.0000   0.24878427   -93.3610 
2424.0000   0.24760720   -90.2400 
2428.0000   0.24481888   -86.9782 
2432.0000   0.24308869   -83.3683 
2436.0000   0.24016526   -78.2871 
2440.0000   0.23631468   -77.4566 
2444.0000   0.23494623   -72.0838 
2448.0000   0.22892033   -71.9291 
2452.0000   0.22554423   -70.9629 
2456.0000   0.22652475   -66.5858 
2460.0000   0.22236767   -62.4644 
2464.0000   0.21320183   -62.3724 
2468.0000   0.21207548   -58.4600 
2472.0000   0.21194030   -53.7473 
2476.0000   0.20798240   -51.1548 
2480.0000   0.20201405   -44.1079 
2484.0000   0.18946692   -39.2323 
2488.0000   0.18652956   1.8870 
2492.0000   0.19654006   8.9178 
2496.0000   0.19771212   16.6278 
2500.0000   0.20245338   20.0943 
2504.0000   0.20474756   25.4113 
2508.0000   0.20665017   27.7138 
2512.0000   0.21203121   36.1928 
2516.0000   0.21561461   40.6857 
2520.0000   0.22088685   46.7317 
2524.0000   0.22320937   51.4103 
2528.0000   0.22890950   58.4752 
2532.0000   0.23279941   61.2445 
2536.0000   0.23901165   66.0788 
2540.0000   0.24333603   71.5543 
2544.0000   0.24617977   73.9357 
2548.0000   0.25460177   78.0177 
2552.0000   0.25378142   81.8162 
2556.0000   0.25760239   86.1327 
2560.0000   0.25985801   92.6489 
2564.0000   0.27562006   96.9818 
2568.0000   0.27799670   98.1776 
2572.0000   0.28290207   103.4382 
2576.0000   0.28371831   106.8620 
2580.0000   0.29206087   112.6461 
2584.0000   0.28587062   113.9321 
2588.0000   0.29246214   118.2353 
2592.0000   0.30560622   124.0869 
2596.0000   0.30719523   127.4674 
2600.0000   0.30641425   130.9105 
2604.0000   0.30891851   135.5296 
2608.0000   0.31303790   139.5080 
2612.0000   0.31672002   143.5978 
2616.0000   0.32077663   147.0035 
2620.0000   0.32071125   150.0788 
2624.0000   0.32267840   151.2358 
2628.0000   0.32462010   158.6842 
2632.0000   0.32115545   158.9698 
2636.0000   0.32262464   162.4999 
2640.0000   0.32625240   164.6750 
2644.0000   0.32309090   166.9757 
2648.0000   0.32966773   169.8259 
2652.0000   0.31875398   172.3949 
2656.0000   0.32987807   174.2811 
2660.0000   0.33240437   177.6505 
2664.0000   0.33250880   177.7953 
2668.0000   0.32874915   -178.9704 
2672.0000   0.33254943   -177.9169 
2676.0000   0.32989968   -179.2918 
2680.0000   0.33219547   -175.8226 
2684.0000   0.32791041   -174.4891 
2688.0000   0.32807042   -173.9385 
2692.0000   0.32748195   -169.2438 
2696.0000   0.32728374   -168.3851 
2700.0000   0.32785706   -167.7716 
2704.0000   0.32907499   -166.1216 
2708.0000   0.32818856   -163.8578 
2712.0000   0.32697025   -162.3589 
2716.0000   0.32567279   -160.4870 
2720.0000   0.32374597   -160.7229 
2724.0000   0.32311283   -158.0444 
2728.0000   0.31870709   -156.9073 
2732.0000   0.32225415   -151.2096 
2736.0000   0.32263174   -151.8451 
2740.0000   0.32017305   -150.7047 
2744.0000   0.32307588   -149.1693 
2748.0000   0.31765554   -147.4443 
2752.0000   0.31777111   -145.6489 
2756.0000   0.32174134   -143.7795 
2760.0000   0.31545384   -140.8345 
2764.0000   0.31864958   -137.2706 
2768.0000   0.31921611   -135.6422 
2772.0000   0.32233473   -133.1332 
2776.0000   0.32081544   -130.6304 
2780.0000   0.32005228   -127.9439 
2784.0000   0.31980321   -123.8595 
2788.0000   0.32281365   -120.0451 
2792.0000   0.32271861   -116.3135 
2796.0000   0.32444237   -114.0597 
2800.0000   0.32448144   -110.6954 
2804.0000   0.32390496   -105.8211 
2808.0000   0.32407074   -100.9709 
2812.0000   0.32048206   -97.7456 
2816.0000   0.32503900   -94.6865 
2820.0000   0.32949695   -90.8688 
2824.0000   0.32533329   -88.5144 
2828.0000   0.33129263   -83.3581 
2832.0000   0.32940263   -79.3478 
2836.0000   0.33266281   -75.3990 
2840.0000   0.33001058   -68.9499 
2844.0000   0.32914399   -65.8775 
2848.0000   0.32878696   -60.7910 
2852.0000   0.32919575   -58.8810 
2856.0000   0.32574025   -53.3095 
2860.0000   0.33128074   -48.0122 
2864.0000   0.33105676   -42.3364 
2868.0000   0.32724020   -39.2553 
2872.0000   0.30884007   -31.0264 
2876.0000   0.31113267   -27.8987 
2880.0000   0.31057516   -23.1914 
2884.0000   0.30394527   -17.7731 
2888.0000   0.30788163   -12.9137 
2892.0000   0.30793416   -9.9068 
2896.0000   0.30584925   -6.0953 
2900.0000   0.30481464   0.1470 
2904.0000   0.30181917   5.6144 
2908.0000   0.30178052   9.3583 
2912.0000   0.29982631   12.4997 
2916.0000   0.30098560   17.7151 
2920.0000   0.29849448   21.3751 
2924.0000   0.29573970   27.3423 
2928.0000   0.29469221   31.6766 
2932.0000   0.29396635   35.7618 
2936.0000   0.29123675   40.8493 
2940.0000   0.28670351   47.7478 
2944.0000   0.28728308   53.0957 
2948.0000   0.28568605   55.0972 
2952.0000   0.28561321   60.5954 
2956.0000   0.28321320   62.2857 
2960.0000   0.28033571   68.9407 
2964.0000   0.27971690   73.8393 
2968.0000   0.27800438   77.4561 
2972.0000   0.27327713   82.1300 
2976.0000   0.27542532   85.8376 
2980.0000   0.27298665   91.1048 
2984.0000   0.26895198   96.4443 
2988.0000   0.26800879   99.2536 
2992.0000   0.26518174   104.4108 
2996.0000   0.26228334   109.3008 
