# MHz S MA R 50.0
2000.0000   0.76022721   -77.7628 
2004.0000   0.75839615   -73.2554 
2008.0000   0.75042515   -66.2092 
2012.0000   0.74859789   -65.3065 
2016.0000   0.74206963   -59.0645 
2020.0000   0.73560159   -55.7452 
2024.0000   0.73664578   -51.7377 
2028.0000   0.73204669   -48.4998 
2032.0000   0.72407634   -45.1527 
2036.0000   0.71672785   -43.6638 
2040.0000   0.71332356   -38.5433 
2044.0000   0.70910296   -36.4034 
2048.0000   0.70230071   -31.3612 
2052.0000   0.69978709   -28.1341 
2056.0000   0.69230891   -23.5191 
2060.0000   0.68522888   -21.2124 
2064.0000   0.67878855   -19.7588 
2068.0000   0.66888328   -17.9165 
2072.0000   0.66742757   -11.5030 
2076.0000   0.66376267   -7.4348 
2080.0000   0.65006444   -6.5373 
2084.0000   0.65028780   -1.5835 
2088.0000   0.64399582   1.1121 
2092.0000   0.63275221   4.3553 
2096.0000   0.63130420   9.3795 
2100.0000   0.62541622   13.4966 
2104.0000   0.61552278   17.7681 
2108.0000   0.62015224   21.6406 
2112.0000   0.61809989   25.6700 
2116.0000   0.61664007   30.2177 
2120.0000   0.61246094   36.0313 
2124.0000   0.60650422   38.5455 
2128.0000   0.60775996   42.3344 
2132.0000   0.60618781   45.2553 
2136.0000   0.60500890   51.6816 
2140.0000   0.60429621   56.3797 
2144.0000   0.60350598   58.2205 
2148.0000   0.60096589   64.7000 
2152.0000   0.59449108   69.4581 
2156.0000   0.59563886   72.0914 
2160.0000   0.59241317   75.3353 
2164.0000   0.58636896   79.8500 
2168.0000   0.58716061   85.9150 
2172.0000   0.58306333   86.0362 
2176.0000   0.58321251   92.1615 
2180.0000   0.58157711   95.2535 
2184.0000   0.57960915   99.4813 
2188.0000   0.57484763   101.0404 
2192.0000   0.56785201   105.0089 
2196.0000   0.57422194   109.1195 
2200.0000   0.56915862   112.3330 
2204.0000   0.54562410   115.9069 
2208.0000   0.53231515   118.9030 
2212.0000   0.52782101   121.1528 
2216.0000   0.52208772   125.3257 
2220.0000   0.51357563   127.7012 
2224.0000   0.50318320   130.2130 
2228.0000   0.49138478   133.4983 
2232.0000   0.48515149   138.0459 
2236.0000   0.47459443   140.9396 
2240.0000   0.46838749   143.3870 
2244.0000   0.45732982   149.1690 
2248.0000   0.45336116   151.2378 
2252.0000   0.44627909   154.9531 
2256.0000   0.43408354   159.7763 
2260.0000   0.43959257   163.2920 
2264.0000   0.43166607   167.6308 
2268.0000   0.42843836   168.1471 
2272.0000   0.42052905   173.7696 
2276.0000   0.42199247   177.6822 
2280.0000   0.41677873   -177.7985 
2284.0000   0.41354741   -173.9046 
2288.0000   0.40815537   -170.5854 
2292.0000   0.40639788   -166.1744 
2296.0000   0.40191628   -163.1096 
2300.0000   0.39883532   -158.5728 
2304.0000   0.39377076   -157.6270 
2308.0000   0.39427911   -152.5570 
2312.0000   0.38718975   -148.5711 
2316.0000   0.38055836   -147.0535 
2320.0000   0.37152254   -141.1502 
2324.0000   0.37633555   -138.1813 
2328.0000   0.36765802   -133.4584 
2332.0000   0.35212756   -128.0762 
2336.0000   0.34581618   -110.6474 
2340.0000   0.31575926   -98.5958 
2344.0000   0.31611951   -93.4467 
2348.0000   0.31287974   -88.6503 
2352.0000   0.30892038   -82.5144 
2356.0000   0.30284612   -77.0040 
2360.0000   0.29914819   -73.0803 
2364.0000   0.29484600   -67.6002 
2368.0000   0.28584864   -62.4733 
2372.0000   0.28990157   -58.2813 
2376.0000   0.36217539   -66.8806 
2380.0000   0.38782579   -64.5945 
2384.0000   0.38596845   -59.9366 
2388.0000   0.38034019   -55.4638 
2392.0000   0.38253034   -50.3827 
2396.0000   0.38014123   -47.0811 
2400.0000   0.38071752   -43.3769 
2404.0000   0.38209962   -59.8229 
2408.0000   0.37709894   -57.7934 
2412.0000   0.37862456   -54.3838 
2416.0000   0.37897022   -52.7828 
2420.0000   0.38080188   -47.4074 
2424.0000   0.37820434   -43.7752 
2428.0000   0.38094610   -41.4019 
2432.0000   0.38211755   -38.0905 
2436.0000   0.38227040   -34.4639 
2440.0000   0.37803586   -31.1499 
2444.0000   0.38191100   -26.5265 
2448.0000   0.38546622   -21.8705 
2452.0000   0.38467330   -17.0865 
2456.0000   0.38702233   -14.6401 
2460.0000   0.38495697   -10.6204 
2464.0000   0.37948068   -8.6012 
2468.0000   0.38352859   -4.4149 
2472.0000   0.38764218   0.7865 
2476.0000   0.38546176   5.5465 
2480.0000   0.38005152   6.3773 
2484.0000   0.35343270   19.5775 
2488.0000   0.33145459   43.0541 
2492.0000   0.33347232   46.4405 
2496.0000   0.33576637   51.8569 
2500.0000   0.33815580   55.1544 
2504.0000   0.33347638   58.2844 
2508.0000   0.34122535   63.5034 
2512.0000   0.33606446   69.1154 
2516.0000   0.33972392   69.7415 
2520.0000   0.34694174   78.6404 
2524.0000   0.34828313   81.1746 
2528.0000   0.34708563   84.9924 
2532.0000   0.34362416   91.3256 
2536.0000   0.34986425   96.1810 
2540.0000   0.34775947   99.1038 
2544.0000   0.34879906   104.9433 
2548.0000   0.35310965   108.4132 
2552.0000   0.35216906   113.0461 
2556.0000   0.35378566   119.9238 
2560.0000   0.35294338   121.3675 
2564.0000   0.35998249   126.0381 
2568.0000   0.36330029   129.9608 
2572.0000   0.36288740   134.8575 
2576.0000   0.35665791   139.0600 
2580.0000   0.35993525   140.5676 
2584.0000   0.36161579   145.4474 
2588.0000   0.36468695   150.2427 
2592.0000   0.36572449   151.4330 
2596.0000   0.35507683   154.7232 
2600.0000   0.36286668   160.5437 
2604.0000   0.36356385   159.2356 
2608.0000   0.35803508   164.9414 
2612.0000   0.36695194   171.3813 
2616.0000   0.35631576   172.2453 
2620.0000   0.36610411   175.1230 
2624.0000   0.36465243   -178.3221 
2628.0000   0.36464284   -172.9352 
2632.0000   0.36425744   -173.4639 
2636.0000   0.36056395   -168.0622 
2640.0000   0.35919664   -165.6984 
2644.0000   0.36119417   -162.1003 
2648.0000   0.36546137   -160.6752 
2652.0000   0.36380992   -155.8621 
2656.0000   0.36620774   -151.9745 
2660.0000   0.36695127   -146.2953 
2664.0000   0.36967017   -141.0234 
2668.0000   0.36898929   -141.1868 
2672.0000   0.35999608   -135.7442 
2676.0000   0.36716548   -129.6361 
2680.0000   0.36444846   -125.2104 
2684.0000   0.34795927   -123.8010 
2688.0000   0.36750205   -118.2888 
2692.0000   0.36463520   -113.7484 
2696.0000   0.36630649   -110.3022 
2700.0000   0.35620081   -109.1104 
2704.0000   0.36729052   -102.4973 
2708.0000   0.36402806   -97.4213 
2712.0000   0.36388351   -93.3877 
2716.0000   0.36283593   -90.9212 
2720.0000   0.35820738   -86.4998 
2724.0000   0.35927742   -80.9563 
2728.0000   0.35059160   -79.6301 
2732.0000   0.34722797   -73.8853 
2736.0000   0.35008855   -68.8096 
2740.0000   0.34703526   -65.4848 
2744.0000   0.33483464   -61.9575 
2748.0000   0.34156113   -57.0400 
2752.0000   0.33740522   -52.0192 
2756.0000   0.33414545   -46.6900 
2760.0000   0.32645853   -42.4976 
2764.0000   0.32512867   -37.8963 
2768.0000   0.32076123   -37.7898 
2772.0000   0.31523359   -28.8984 
2776.0000   0.31225326   -23.4304 
2780.0000   0.30622695   -19.4160 
2784.0000   0.30457349   -13.1975 
2788.0000   0.29790934   -10.4487 
2792.0000   0.29496005   -5.0768 
2796.0000   0.29249728   2.3460 
2800.0000   0.28988440   6.4694 
2804.0000   0.27968247   9.7997 
2808.0000   0.27399468   14.8670 
2812.0000   0.28016315   21.5320 
2816.0000   0.27045271   24.6428 
2820.0000   0.27924272   29.9876 
2824.0000   0.27394577   36.5152 
2828.0000   0.27578032   42.2997 
2832.0000   0.27734960   44.7840 
2836.0000   0.27674166   51.7360 
2840.0000   0.26762356   57.1529 
2844.0000   0.27371031   61.8920 
2848.0000   0.27503627   66.6096 
2852.0000   0.27280120   71.0717 
2856.0000   0.27301846   77.9212 
2860.0000   0.27397495   81.2631 
2864.0000   0.26345380   86.6457 
2868.0000   0.27193098   93.3719 
2872.0000   0.25602738   96.5615 
2876.0000   0.25825484   101.7684 
2880.0000   0.25780643   106.8390 
2884.0000   0.25724493   111.3379 
2888.0000   0.25596484   113.9292 
2892.0000   0.25407855   121.3292 
2896.0000   0.25581682   122.2234 
2900.0000   0.25366628   129.8932 
2904.0000   0.25574837   133.2404 
2908.0000   0.25390747   137.7819 
2912.0000   0.25278326   142.0517 
2916.0000   0.25108308   145.9818 
2920.0000   0.25249115   151.3094 
2924.0000   0.25373573   154.3193 
2928.0000   0.25386328   159.0708 
2932.0000   0.25346371   162.3249 
2936.0000   0.25056831   165.6369 
2940.0000   0.25270995   170.8291 
2944.0000   0.25045366   175.7196 
2948.0000   0.24865594   179.2573 
2952.0000   0.25181915   -176.8460 
2956.0000   0.24898998   -172.0346 
2960.0000   0.25226882   -168.9760 
2964.0000   0.25233646   -165.5553 
2968.0000   0.25091299   -158.0237 
2972.0000   0.25049072   -156.7532 
2976.0000   0.25162689   -152.8570 
2980.0000   0.25120037   -148.6962 
2984.0000   0.25024346   -146.0314 
2988.0000   0.24890286   -142.6096 
2992.0000   0.24810475   -138.2884 
2996.0000   0.24557710   -134.4082 
