!Created with skrf (http://scikit-rf.org).
# MHz S RI R 50.0 
!freq ReS11 ImS11
140.0 0.6889823933118615 0.6217797166383892
150.0 0.5863606535157548 0.9519150418535914
160.0 0.5294399684660799 0.9458038253018903
170.0 -0.056106860793513263 1.0845755479832264
180.0 -0.3699877337693385 1.0108252442279773
190.0 -0.601049194900639 0.8594274663806097
200.0 -0.7612987314993891 0.6711539108652812
210.0 -0.8862084410478023 0.47116631839840023
220.0 -0.968887499204423 0.2196144181545528
230.0 -0.9776049346582297 0.08155834633748531
240.0 -0.9892543024168512 -0.13420655287675912
250.0 -0.8739326106168734 -0.365097328614606
260.0 -0.712274382198822 -0.5558216694941495
270.0 -0.5613712788714271 -0.6742293555825215
280.0 -0.3950675493711559 -0.7615186138002744
290.0 -0.2274269828400269 -0.7985247560778276
300.0 -0.015583913364767069 -0.7981934376400691
310.0 0.10436454795325836 -0.7786285613734233
320.0 0.2903836768632019 -0.683485204099967
330.0 0.4651457392424027 -0.5549985158142082
340.0 0.5488924330280343 -0.4333843641185109
350.0 0.5965515257035989 -0.2686395547232085
360.0 0.5963002356303942 -0.019194139080292313
370.0 0.5715476882222935 0.010038188971568468
380.0 0.5253749361656065 0.11501568690545712
390.0 0.4631297495205985 0.20443298234767063
400.0 0.40010547392211365 0.26844416824748424
410.0 0.33559244874289196 0.3209011716192039
420.0 0.27031875465074756 0.35962046613931836
430.0 0.2005633732763299 0.3832084239598016
440.0 0.13173078849131872 0.39435780292809186
450.0 0.06739968237120919 0.40972337878032455
460.0 -0.022171287210491282 0.35518631313776344
470.0 -0.059535479962771656 0.3810417521573116
480.0 -0.1331038314713818 0.3508460152586146
490.0 -0.1652158358801063 0.3270485018735087
500.0 -0.20922432055469242 0.2864594130670934
510.0 -0.24314800035098225 0.24183727932898014
520.0 -0.26702643220307365 0.19326056397692398
530.0 -0.28069989047789295 0.1439848660614444
540.0 -0.2857545356512939 0.09586319578555075
550.0 -0.28619812157565944 0.048737579081250884
560.0 -0.278994995303086 0.001849822931790264
570.0 -0.25808509704686206 -0.041216789663005446
580.0 -0.2415960361505852 -0.08202211633701731
590.0 -0.2093080172557744 -0.11265080056473073
600.0 -0.16778503783531562 -0.1396450030920136
610.0 -0.13808051831177742 -0.15954985268544225
620.0 -0.10079030712682802 -0.1733335031533252
630.0 -0.06384814690388381 -0.18075195768243957
640.0 -0.020641238055406165 -0.17982094497152637
650.0 0.012511243508131313 -0.17639204006179787
660.0 0.04925553041150762 -0.1646330759797517
670.0 0.08379924421893649 -0.1453073505222512
680.0 0.11490309957507984 -0.12424057129839403
690.0 0.14233277775672382 -0.09968811120880476
700.0 0.16701495873081929 -0.0678418394156827
710.0 0.180454273285696 -0.038615954102598146
720.0 0.19392606492125164 0.005718679260661122
730.0 0.19018117565388748 0.03708561351649042
740.0 0.1863409702942156 0.0748467233458536
750.0 0.17253454639000296 0.10965112493741358
760.0 0.15644190310588615 0.1422801270480773
770.0 0.1358229713677773 0.1679825204677372
780.0 0.11118924988072713 0.19079772932890632
790.0 0.08106156237368066 0.2075533766757172
800.0 0.05323135160966399 0.2204470174154523
810.0 0.02557206929759545 0.2275922050139048
820.0 -0.012672500059545209 0.20827370237649012
830.0 -0.03284022279792227 0.22863961747545913
840.0 -0.07289207592676573 0.21559007510201378
850.0 -0.08556072320991903 0.21486970954997942
860.0 -0.10581417859080808 0.20696941690082893
870.0 -0.11795347756039677 0.19486410187186226
880.0 -0.1311479728540395 0.17419023711447484
890.0 -0.1420729611829391 0.14987489404349622
900.0 -0.1532330619828275 0.12576587824859434
910.0 -0.16099740881612087 0.10157495348826846
920.0 -0.16428175354649246 0.07782490587697584
930.0 -0.1652165830392524 0.05115546198132534
940.0 -0.16229841872743572 0.03060492018273759
950.0 -0.1506651241116811 0.008622433674663976
960.0 -0.1314691719382482 -0.016460470677084546
970.0 -0.12091025195929443 -0.02755058295515729
980.0 -0.10179225241736642 -0.03921984627020261
990.0 -0.0828619303312913 -0.047855721440150226
1000.0 -0.060522733380538235 -0.05241578595623675
1010.0 -0.036182817974341516 -0.04992746415806078
1020.0 -0.014266052768168634 -0.045918761391165824
1030.0 0.006114090911072206 -0.035444050138930414
1040.0 0.021952553016125434 -0.023432311306645554
1050.0 0.0374154741050501 -0.005617217833985763
1060.0 0.04666310860993926 0.0416406431023077
1070.0 0.052044924769930875 0.030631076022286492
1080.0 0.047266466605672255 0.06111701865694917
1090.0 0.052118839692533024 0.0708953939175027
1100.0 0.04632142060551823 0.08929267650946048
1110.0 0.03377344412697943 0.10705904837365998
1120.0 0.02365248231604536 0.12047037235357597
1130.0 0.01054941658086267 0.13363205990418814
1140.0 -0.006220605565879694 0.14037291135491076
1150.0 -0.022085862921631387 0.14720860643415876
1160.0 -0.03940695664807725 0.14999631486089182
1170.0 -0.05657708327900417 0.14865104481326696
1180.0 -0.07945390181336133 0.14074490315173482
1190.0 -0.08627930834184858 0.13994191729361166
1200.0 -0.10149141158602361 0.1608901353362297
1210.0 -0.11161615256228502 0.12608814674725138
1220.0 -0.1268401528947551 0.11013423883945614
1230.0 -0.1353642002459404 0.09917721992851214
1240.0 -0.14128217020100944 0.0898263454487607
1250.0 -0.14668489348329505 0.07725178516101397
1260.0 -0.1506290174157628 0.06497388765364609
1270.0 -0.1529146754019292 0.0501887753091257
1280.0 -0.15201694405556662 0.040251509004797494
1290.0 -0.14902646526095265 0.027430694314523316
1300.0 -0.186173634497157 0.02329916343463493
1310.0 -0.13990080666785723 0.0033783459924010967
1320.0 -0.14122753695802148 -0.01637183371826869
1330.0 -0.1249925712640968 -0.011095285643160237
1340.0 -0.11696868792781001 -0.016823832333294535
1350.0 -0.10677044091611304 -0.019337786211978604
1360.0 -0.09606218180614579 -0.019780371900348266
1370.0 -0.08694938590065447 -0.019916671754852594
1380.0 -0.07715464103373101 -0.01759814527571768
1390.0 -0.0685801912518883 -0.01235108635650279
1400.0 -0.061857515144489186 -0.009504912436656951
1410.0 -0.0560955823574435 -0.003148609602415281
1420.0 -0.04520969765433734 0.008858841926894463
1430.0 -0.049738238779716566 0.013148958570886937
1440.0 -0.05015276757381458 0.016874410582923726
1450.0 -0.04994211914699331 0.03098929328315929
1460.0 -0.05296624603957187 0.037741778499231
1470.0 -0.058073460903707005 0.04555998318874778
1480.0 -0.06404524312683224 0.05366560803633263
1490.0 -0.07145000882056957 0.05930252324488373
1500.0 -0.07849623748703781 0.0660944737703488
1510.0 -0.08814976702616772 0.067852744935911
1520.0 -0.09792235930245934 0.07306531571132337
1530.0 -0.10928091789393411 0.07209521106063412
1540.0 -0.11958020764718043 0.06467134183739089
1550.0 -0.1315570490113629 0.06980164956280119
1560.0 -0.14600067177099016 0.06050892625162854
1570.0 -0.1541700491411006 0.06148026770112147
1580.0 -0.16394723881239676 0.05622257223889813
1590.0 -0.17370565778648406 0.04292625892383715
1600.0 -0.18151849411897159 0.030584302786419198
1610.0 -0.18692147947251936 0.01506925869237611
1620.0 -0.18928119004994276 -0.00027855320884057874
1630.0 -0.18892924142116585 -0.02062695006369395
1640.0 -0.18468827130841273 -0.032311457308821935
1650.0 -0.1784790904547599 -0.050356402937020935
1660.0 -0.16853221778038552 -0.06280136148584614
1670.0 -0.15411938854694418 -0.07765504900608253
1680.0 -0.14214998434762544 -0.0875202993310804
1690.0 -0.11854860947796458 -0.09696726580918183
1700.0 -0.0994039921268945 -0.09595440115649254
1710.0 -0.08040877387903961 -0.09378855657757021
1720.0 -0.06319940995274476 -0.08790163724528435
1730.0 -0.04692644633481071 -0.07855326830757682
1740.0 -0.0344304356883135 -0.06763412915723452
1750.0 -0.024771534509436477 -0.053435812976851904
1760.0 -0.0195757111049365 -0.039466212993634876
1770.0 -0.018080572923989013 -0.025057139920025583
1780.0 -0.023452176354805593 -0.008877858776869571
1790.0 -0.025432451976704434 0.0006930941504988339
1800.0 -0.03880350457107329 0.009007035713771726
1810.0 -0.046784816550340974 0.019564972534505683
1820.0 -0.057717446340414265 0.02531172413055935
1830.0 -0.073615369238117 0.030418115019490925
1840.0 -0.08906863972372024 0.0345599644592445
1850.0 -0.10362957784208715 0.03419126372506495
1860.0 -0.11772320015646912 0.03179090095894755
1870.0 -0.1296774308226541 0.030348774515829173
1880.0 -0.13951055896202547 0.022423852959326952
1890.0 -0.14900429841456886 0.0171324072632833
1900.0 -0.16229980129998894 0.006528907285277115
1910.0 -0.16496793186184966 -0.0015343995684569608
1920.0 -0.16832429839330876 -0.01227450889417022
1930.0 -0.17675012379133653 -0.019720127465134546
1940.0 -0.17051860906145555 -0.03774994065321885
1950.0 -0.1693850568867608 -0.05164725617010262
1960.0 -0.1704128636536871 -0.05775826679077382
1970.0 -0.1631234658660244 -0.07558628838287157
1980.0 -0.15679116986709415 -0.0854431609058562
1990.0 -0.14989628610039257 -0.09521154710507587
2000.0 -0.13794947509227765 -0.106872791830218
2010.0 -0.13003359196323083 -0.10872406142282079
2020.0 -0.11164528422073794 -0.11685941843030413
2030.0 -0.10239369950742953 -0.12017259710889046
2040.0 -0.0929315769928494 -0.1222862016638869
2050.0 -0.07640011266837875 -0.12411536508552531
2060.0 -0.06765015350676265 -0.11697231432211655
2070.0 -0.05515399750572177 -0.1151697298169487
2080.0 -0.044557062876451725 -0.1089206123491411
2090.0 -0.040163932659487755 -0.09627355906607477
2100.0 -0.037099160469325286 -0.08412562344363754
2110.0 -0.03290088822056776 -0.07749518053880657
2120.0 -0.03361394969918184 -0.06549115304440102
2130.0 -0.03476256203341063 -0.0564746366984069
2140.0 -0.04642740678203682 -0.04745183990100846
2150.0 -0.05165313177928662 -0.03869182611325728
2160.0 -0.06438843049556423 -0.030953926450218862
2170.0 -0.07267329975375955 -0.030771524728585735
2180.0 -0.08428721193277083 -0.030801198059318927
2190.0 -0.09279941874530262 -0.03589251745563289
2200.0 -0.10355138154520337 -0.04252256437298723
2210.0 -0.11520282905856163 -0.04657449369176534
2220.0 -0.12161378086993829 -0.05734163419065205
2230.0 -0.12587411272888344 -0.06967642897017282
2240.0 -0.1312879275413567 -0.08048984819181064
2250.0 -0.1381138848756272 -0.08851079287596561
2260.0 -0.13613746786499514 -0.1022889620856189
2270.0 -0.1390995900102855 -0.11299654139535413
2280.0 -0.14082360025974044 -0.12130494173603305
2290.0 -0.13358807461741434 -0.13555969686555722
2300.0 -0.1310728417377131 -0.1434757008654698
2310.0 -0.12973677409029322 -0.15025046998045716
2320.0 -0.1156166887498515 -0.16380521704050702
2330.0 -0.10997719983593099 -0.16795083313628464
2340.0 -0.10410689035603424 -0.16994113877867967
2350.0 -0.09522498398398584 -0.17425012213247493
2360.0 -0.08033301459932576 -0.18004847867405868
2370.0 -0.07555629632422105 -0.17774085371105058
2380.0 -0.0627866357022183 -0.17851882612330516
2390.0 -0.053669904682023685 -0.17488975797766673
2400.0 -0.04256976332311962 -0.17221224111195643
2410.0 -0.032742558246791884 -0.16745694371435083
2420.0 -0.03178883706857792 -0.1607924716532858
2430.0 -0.02451663475794999 -0.15443864841375507
2440.0 -0.019777326171395965 -0.14653664853184512
2450.0 -0.017420561837812126 -0.14052874367423943
2460.0 -0.013245231156966526 -0.13370844857877937
2470.0 -0.015703370019166545 -0.12584214899131183
2480.0 -0.015670859962413068 -0.12048819931002014
2490.0 -0.01606076149515892 -0.11675202777136115
2500.0 -0.02090687519452927 -0.11126472040040328
2510.0 -0.029961502722327796 -0.10827500776732443
2520.0 -0.027238359734487523 -0.10846776931178745
2530.0 -0.03258290367918239 -0.10867446979902298
2540.0 -0.03716322209253497 -0.11100051738355138
2550.0 -0.04243173586478659 -0.12197557386685184
2560.0 -0.04704276719807794 -0.11921476543443692
2570.0 -0.049855823939581025 -0.1246432679842079
2580.0 -0.05458605793217946 -0.13126175330966905
2590.0 -0.03344437433584206 -0.14434801907708947
2600.0 -0.05270628294918249 -0.15140976364798706
2610.0 -0.05735300950627893 -0.16052919321116677
2620.0 -0.054816775022249443 -0.17182436686499777
2630.0 -0.04860201369772269 -0.18114733921029258
2640.0 -0.04851310873917113 -0.19243119538260375
2650.0 -0.038118646074772236 -0.20351894055925698
2660.0 -0.035365273665601236 -0.2132550898067528
2670.0 -0.017842342579099453 -0.22148049906729367
2680.0 -0.01960641312940482 -0.2278633983556399
2690.0 -0.004600661934405566 -0.23381841201870476
2700.0 0.006700430510177881 -0.2364458677375982
2710.0 0.013825859301788276 -0.23624155541903738
2720.0 0.02758618234281744 -0.23607545625044868
2730.0 0.04345487741338552 -0.22655392477504221
2740.0 0.05794096416453336 -0.2216489255038389
2750.0 0.06914126173007697 -0.2100364387664237
2760.0 0.0778302166725901 -0.20064509166052946
2770.0 0.07162004422640489 -0.19164223796765703
2780.0 0.08464311495322172 -0.17494383549619402
2790.0 0.07107630421987271 -0.16538012031173607
2800.0 0.08231459544436671 -0.15109387918086062
2810.0 0.08106413990275221 -0.14044773531661908
2820.0 0.0771361661006242 -0.13136756221162255
2830.0 0.07121760685314324 -0.1293169751093541
2840.0 0.05555223409334378 -0.11738374628356199
2850.0 0.04285853956554596 -0.11467912834887967
2860.0 0.03771634020716918 -0.1151074363440725
2870.0 0.03333026118948462 -0.10988240188745482
2880.0 0.022976339367059707 -0.11263615828343904
2890.0 0.016381790738829314 -0.11820812691304185
2900.0 0.007144368998346189 -0.1238736601480167
2910.0 -0.0010516320485316477 -0.1313034131194784
2920.0 -0.004574550674469047 -0.13862186718399672
2930.0 -0.003801749909781965 -0.14788478797701488
2940.0 -0.00549768415499121 -0.15686850656458795
2950.0 -0.009622804040843765 -0.16549430215721636
2960.0 -0.0020408775942698867 -0.174366124687732
2970.0 -0.0003397479923609101 -0.18390790976373045
2980.0 0.004180497653538978 -0.19066523668346974
2990.0 0.012565666304258191 -0.2004154415004083
3000.0 0.01855009285005345 -0.2081229862186884
3010.0 0.024564606475520626 -0.214485438827913
3020.0 0.036349859011276506 -0.22015607113878918
3030.0 0.04746290246878329 -0.21588366415066304
3040.0 0.05382947059992627 -0.22927500345724716
3050.0 0.0745847506456919 -0.22655803518524892
3060.0 0.09048134161261301 -0.22575252954092637
3070.0 0.10319682258746132 -0.212616876223028
3080.0 0.11677936661330275 -0.21597698672747945
3090.0 0.13298284168273583 -0.2058495687845843
3100.0 0.14125002473589132 -0.19377378790623875
3110.0 0.14938868018820725 -0.18169820526144143
3120.0 0.1594651119302017 -0.16483952292792894
3130.0 0.16129886896662515 -0.15228268429506372
3140.0 0.1583037333583833 -0.13708795341090355
3150.0 0.15657315208060846 -0.12103165589856874
3160.0 0.15148265605728709 -0.1056450276571352
3170.0 0.14133780436484544 -0.09818040409827901
3180.0 0.1317278755638547 -0.09093991148553807
3190.0 0.12190744827504203 -0.08424680952353844
3200.0 0.1093821739748338 -0.08437762930469798
3210.0 0.09871661154070832 -0.0839098535093137
3220.0 0.08920946913245165 -0.08802369896444924
3230.0 0.0846447762520485 -0.08810575895330625
3240.0 0.07867825134108655 -0.09449036751335999
3250.0 0.07428470768145382 -0.10266791036281438
3260.0 0.06818853948878835 -0.11195985303152095
3270.0 0.07765588009361085 -0.11241885264259802
3280.0 0.06950028546094633 -0.12485149719324148
3290.0 0.07129616494228949 -0.1324845840360186
3300.0 0.07662969919945377 -0.13671787257929258
3310.0 0.08180606255872289 -0.14206413443198868
3320.0 0.08835160373154852 -0.1446631520715148
3330.0 0.09303650895091918 -0.15223947236551155
3340.0 0.1000866079688757 -0.1596662800041584
3350.0 0.10730775740382117 -0.15916721827012598
3360.0 0.11304055470469995 -0.1606221470377342
3370.0 0.12139850222319709 -0.16394264721980029
3380.0 0.1312755124644223 -0.16331618102067197
3390.0 0.13882500277211274 -0.16038110115401177
3400.0 0.15137982170954487 -0.15423707065829356
3410.0 0.15895909039396192 -0.15073138136414652
3420.0 0.1663356864887065 -0.14589305045699014
3430.0 0.17605463430813054 -0.13720322272651841
3440.0 0.17677188677150776 -0.13758199286959333
3450.0 0.18723037507063467 -0.1244644592620651
3460.0 0.1869028348423282 -0.12100607594408513
3470.0 0.1924238153356218 -0.11180775580318235
3480.0 0.19593519669182777 -0.10326131166199794
3490.0 0.1967877209778064 -0.09813141461435912
3500.0 0.19572391347045287 -0.08766692088323881
3510.0 0.18430740647481883 -0.08177577055011216
3520.0 0.18484136929437017 -0.0826000573711186
3530.0 0.18244427116514197 -0.07483044602839767
3540.0 0.17915410302458623 -0.07208675954881658
3550.0 0.17117885407541905 -0.06834290815832207
3560.0 0.16991600058492262 -0.07366037147929638
3570.0 0.16608083139438778 -0.07428233902474182
3580.0 0.1580456629367756 -0.08851957597586908
3590.0 0.1605276050472058 -0.0886107240582855
3600.0 0.15705318193258758 -0.09333731461039158
3610.0 0.1564562740764935 -0.10678100741850904
3620.0 0.1628983538094605 -0.1026168116889399
3630.0 0.16174083079969187 -0.11073655702803038
3640.0 0.16990195905632094 -0.10769183790892639
3650.0 0.17225598987721777 -0.11468349855825861
3660.0 0.17734368877412127 -0.11652167742572882
3670.0 0.1832645185917059 -0.12367070719213796
3680.0 0.18925031174771578 -0.12562561330612798
3690.0 0.1958287939414248 -0.1163472328755223
3700.0 0.2040903132816908 -0.1188969723272678
3710.0 0.21118295686196586 -0.11444193627808782
3720.0 0.2179028470404102 -0.11480507024239654
3730.0 0.22003975707934584 -0.1274344318072306
3740.0 0.23090082849740468 -0.11278461958995437
3750.0 0.23366075186426077 -0.09977011046007175
3760.0 0.24191739447861557 -0.1016803837577761
3770.0 0.24580357236128517 -0.09106066313330856
3780.0 0.24994893270924265 -0.08326861656873447
3790.0 0.2441367728018361 -0.07243076490198107
3800.0 0.25528447919272157 -0.07217116792462952
3810.0 0.2595239045355749 -0.06552591673698444
3820.0 0.257863595987438 -0.051159102773880576
3830.0 0.2584985563284041 -0.03911123904670771
3840.0 0.2599853596348842 -0.03512148982763959
3850.0 0.2552257081076069 -0.03364649269133719
3860.0 0.2530330296546257 -0.01842355283244866
3870.0 0.24985127681648853 -0.00949880254667685
3880.0 0.2467767989237998 -0.009998002573631
3890.0 0.24288100391065126 -0.0023047858644965023
3900.0 0.23649827272171395 0.0017598856539465697
3910.0 0.23282796339471865 0.008893948048981307
3920.0 0.2296142271517038 0.006805341803281122
3930.0 0.22436651600553847 -0.0023818386020906003
3940.0 0.21633175498619056 0.0019892323659131163
3950.0 0.21692098111804559 0.0008610062492699945
3960.0 0.2167393454160663 0.005812989901526927
3970.0 0.21607814277330312 0.008559431750017344
3980.0 0.21590892298239778 0.0004215122726673858
3990.0 0.2201503294457876 0.0010679560916192791
