# MHz S MA R 50.0
140.0000   0.43009648   -52.9338 
150.0000   0.47695275   -40.7407 
160.0000   0.49672557   -24.3812 
170.0000   0.50817504   -6.6477 
180.0000   0.51787194   5.8605 
190.0000   0.51724911   15.7483 
200.0000   0.51286793   27.3220 
210.0000   0.52326659   37.8094 
220.0000   0.52277865   47.8081 
230.0000   0.52607501   58.4048 
240.0000   0.52859311   69.4782 
250.0000   0.51892349   81.4303 
260.0000   0.51610634   94.5205 
270.0000   0.50727738   106.7186 
280.0000   0.48780277   118.7690 
290.0000   0.46220289   130.3938 
300.0000   0.43765037   142.9930 
310.0000   0.41103194   154.4726 
320.0000   0.38606832   166.8263 
330.0000   0.36211993   177.5511 
340.0000   0.33879662   -171.0711 
350.0000   0.31847765   -160.3661 
360.0000   0.29863573   -149.5952 
370.0000   0.27891331   -138.8394 
380.0000   0.26284075   -128.3229 
390.0000   0.24821544   -118.0121 
400.0000   0.23483911   -107.7496 
410.0000   0.22386789   -97.6873 
420.0000   0.21175555   -87.6383 
430.0000   0.20243566   -78.0348 
440.0000   0.19339948   -68.3023 
450.0000   0.18566262   -58.7405 
460.0000   0.17839058   -49.2594 
470.0000   0.17124445   -40.0324 
480.0000   0.16565338   -30.8091 
490.0000   0.16078143   -21.7321 
500.0000   0.15664913   -12.6746 
510.0000   0.15272910   -3.7126 
520.0000   0.14942618   5.1712 
530.0000   0.14663133   14.0082 
540.0000   0.14435092   22.6626 
550.0000   0.14239485   31.3194 
560.0000   0.14072669   39.8404 
570.0000   0.13899755   48.4436 
580.0000   0.13759871   56.9887 
590.0000   0.13638835   65.5400 
600.0000   0.13514389   74.2667 
610.0000   0.13404840   82.9788 
620.0000   0.13286875   91.7416 
630.0000   0.13169208   100.6705 
640.0000   0.13031632   109.5730 
650.0000   0.12890034   118.4472 
660.0000   0.12711796   127.5417 
670.0000   0.12531124   136.2943 
680.0000   0.12314644   145.0957 
690.0000   0.12075086   154.0130 
700.0000   0.11810427   162.8879 
710.0000   0.11526932   171.7601 
720.0000   0.11225290   -179.1840 
730.0000   0.10853044   -170.1095 
740.0000   0.10527576   -160.8720 
750.0000   0.10187924   -151.7171 
760.0000   0.09859401   -142.6378 
770.0000   0.09536950   -133.6586 
780.0000   0.09213218   -124.6031 
790.0000   0.08899980   -115.6736 
800.0000   0.08614567   -106.7046 
810.0000   0.08332239   -97.7845 
820.0000   0.08066990   -88.9164 
830.0000   0.07814205   -80.1641 
840.0000   0.07579566   -71.3266 
850.0000   0.07373295   -62.6713 
860.0000   0.07221515   -54.0549 
870.0000   0.07075783   -45.1385 
880.0000   0.06932213   -36.2614 
890.0000   0.06812883   -27.1989 
900.0000   0.06679872   -18.2502 
910.0000   0.06560663   -9.1739 
920.0000   0.06490209   -0.1528 
930.0000   0.06369730   9.1296 
940.0000   0.06306412   18.4634 
950.0000   0.06263887   27.8005 
960.0000   0.06217712   37.2536 
970.0000   0.06183265   46.5943 
980.0000   0.06162331   56.0020 
990.0000   0.06130371   65.4355 
1000.0000   0.06108016   74.9220 
1010.0000   0.06084930   84.3645 
1020.0000   0.06065792   93.8710 
1030.0000   0.06033370   103.2158 
1040.0000   0.06019361   112.8355 
1050.0000   0.05973214   122.2572 
1060.0000   0.05935947   131.6012 
1070.0000   0.05889398   140.9774 
1080.0000   0.05824303   150.3548 
1090.0000   0.05751751   159.4459 
1100.0000   0.05668714   168.6429 
1110.0000   0.05561208   177.7361 
1120.0000   0.05450842   -173.3614 
1130.0000   0.05317643   -164.4179 
1140.0000   0.05198509   -155.7290 
1150.0000   0.05064367   -146.9673 
1160.0000   0.04928655   -138.4282 
1170.0000   0.04802626   -129.9213 
1180.0000   0.04665192   -121.3391 
1190.0000   0.04536881   -112.8841 
1200.0000   0.04407086   -104.3554 
1210.0000   0.04286139   -95.7233 
1220.0000   0.04173904   -87.3090 
1230.0000   0.04068778   -78.8145 
1240.0000   0.03972909   -70.3445 
1250.0000   0.03878941   -61.9841 
1260.0000   0.03799318   -53.5254 
1270.0000   0.03712879   -45.1375 
1280.0000   0.03648377   -36.5983 
1290.0000   0.03582062   -28.2235 
1300.0000   0.03528330   -19.8597 
1310.0000   0.03477409   -11.4754 
1320.0000   0.03429956   -3.0965 
1330.0000   0.03386708   5.1774 
1340.0000   0.03342115   13.4023 
1350.0000   0.03304330   21.6348 
1360.0000   0.03269034   29.7536 
1370.0000   0.03232793   37.8054 
1380.0000   0.03209281   46.3056 
1390.0000   0.03176291   54.6066 
1400.0000   0.03159288   62.9083 
1410.0000   0.03133580   71.2323 
1420.0000   0.03130795   79.8374 
1430.0000   0.03119611   88.2655 
1440.0000   0.03108525   96.8603 
1450.0000   0.03103656   105.3832 
1460.0000   0.03099392   114.0486 
1470.0000   0.03104977   122.7110 
1480.0000   0.03119162   131.5220 
1490.0000   0.03148540   140.1340 
1500.0000   0.03171734   148.8733 
1510.0000   0.03217169   157.5847 
1520.0000   0.03260373   166.3703 
1530.0000   0.03313804   175.1070 
1540.0000   0.03375875   -175.9573 
1550.0000   0.03438906   -166.9834 
1560.0000   0.03502725   -157.7590 
1570.0000   0.03571892   -148.4836 
1580.0000   0.03645679   -139.0593 
1590.0000   0.03714572   -129.4612 
1600.0000   0.03785473   -119.7257 
1610.0000   0.03858323   -110.0101 
1620.0000   0.03921381   -100.1555 
1630.0000   0.03985422   -90.2974 
1640.0000   0.04034089   -80.3549 
1650.0000   0.04073200   -70.5029 
1660.0000   0.04102630   -60.7144 
1670.0000   0.04129875   -50.8634 
1680.0000   0.04153007   -40.9049 
1690.0000   0.04149996   -31.2868 
1700.0000   0.04155283   -21.5535 
1710.0000   0.04147230   -11.8647 
1720.0000   0.04124306   -2.3377 
1730.0000   0.04091827   7.2453 
1740.0000   0.04053846   16.8115 
1750.0000   0.04010785   26.2340 
1760.0000   0.03953132   35.7375 
1770.0000   0.03895740   45.1851 
1780.0000   0.03828947   54.5694 
1790.0000   0.03767564   63.8608 
1800.0000   0.03697393   73.4153 
1810.0000   0.03634105   82.7310 
1820.0000   0.03566800   91.6392 
1830.0000   0.03512231   100.9562 
1840.0000   0.03465073   110.2965 
1850.0000   0.03419124   119.5014 
1860.0000   0.03354273   128.6981 
1870.0000   0.03317804   137.7270 
1880.0000   0.03287984   146.9547 
1890.0000   0.03249086   156.0775 
1900.0000   0.03220321   165.2255 
1910.0000   0.03189610   174.4514 
1920.0000   0.03158867   -176.0570 
1930.0000   0.03132700   -166.7503 
1940.0000   0.03112597   -157.0335 
1950.0000   0.03088522   -147.4935 
1960.0000   0.03070229   -137.5505 
1970.0000   0.03053013   -127.6924 
1980.0000   0.03026621   -117.4020 
1990.0000   0.02996272   -107.2501 
2000.0000   0.02967959   -97.0608 
2010.0000   0.02932002   -87.0254 
2020.0000   0.02887195   -77.0735 
2030.0000   0.02853799   -67.3254 
2040.0000   0.02821869   -57.7262 
2050.0000   0.02793687   -48.2448 
2060.0000   0.02780006   -38.9330 
2070.0000   0.02763888   -29.5501 
2080.0000   0.02750447   -20.1752 
2090.0000   0.02736927   -10.9317 
2100.0000   0.02709186   -1.3096 
2110.0000   0.02689440   7.8730 
2120.0000   0.02661369   17.3671 
2130.0000   0.02631614   26.7413 
2140.0000   0.02596817   36.0363 
2150.0000   0.02564152   45.3259 
2160.0000   0.02524383   54.7120 
2170.0000   0.02487371   63.6632 
2180.0000   0.02449894   72.7875 
2190.0000   0.02419690   81.7320 
2200.0000   0.02369558   92.2314 
2210.0000   0.02420924   100.1283 
2220.0000   0.02390781   109.1476 
2230.0000   0.02357376   117.6934 
2240.0000   0.02342964   126.2051 
2250.0000   0.02321416   134.6828 
2260.0000   0.02300657   143.2809 
2270.0000   0.02287323   151.7795 
2280.0000   0.02278303   160.2579 
2290.0000   0.02270938   168.9171 
2300.0000   0.02261378   177.5917 
2310.0000   0.02253301   -173.2733 
2320.0000   0.02246676   -164.3611 
2330.0000   0.02255780   -155.8096 
2340.0000   0.02247321   -146.4403 
2350.0000   0.02250424   -137.2823 
2360.0000   0.02237444   -127.8074 
2370.0000   0.02223749   -118.8656 
2380.0000   0.02232624   -109.3960 
2390.0000   0.02223722   -99.8927 
2400.0000   0.02213140   -90.6665 
2410.0000   0.02191516   -81.4560 
2420.0000   0.02180791   -72.4729 
2430.0000   0.02158277   -63.5379 
2440.0000   0.02132274   -54.4380 
2450.0000   0.02112203   -46.2462 
2460.0000   0.02090228   -37.2115 
2470.0000   0.02080543   -28.6343 
2480.0000   0.02052002   -20.3265 
2490.0000   0.02030419   -11.9075 
2500.0000   0.02015778   -3.7346 
2510.0000   0.02003409   4.3827 
2520.0000   0.02005435   12.3930 
2530.0000   0.02004238   20.4379 
2540.0000   0.02006640   28.3131 
2550.0000   0.02016875   36.3564 
2560.0000   0.02032886   44.2997 
2570.0000   0.02050484   51.5582 
2580.0000   0.02079096   59.9313 
2590.0000   0.02102214   67.4262 
2600.0000   0.02149036   75.5913 
2610.0000   0.02185717   83.4008 
2620.0000   0.02229105   91.3470 
2630.0000   0.02275271   99.6903 
2640.0000   0.02322543   108.1333 
2650.0000   0.02370544   116.3700 
2660.0000   0.02418646   125.0567 
2670.0000   0.02467295   133.8546 
2680.0000   0.02512769   143.0048 
2690.0000   0.02536962   151.9421 
2700.0000   0.02580768   161.8043 
2710.0000   0.02593851   171.3993 
2720.0000   0.02615722   -178.3761 
2730.0000   0.02619255   -168.1364 
2740.0000   0.02611328   -157.6351 
2750.0000   0.02585939   -146.9882 
2760.0000   0.02553937   -136.2737 
2770.0000   0.02514599   -125.7279 
2780.0000   0.02459989   -114.9566 
2790.0000   0.02401696   -104.2114 
2800.0000   0.02330830   -93.6260 
2810.0000   0.02252822   -83.7089 
2820.0000   0.02185161   -73.3463 
2830.0000   0.02102347   -63.8074 
2840.0000   0.02039769   -49.4444 
2850.0000   0.01967116   -40.1513 
2860.0000   0.01893996   -30.9751 
2870.0000   0.01828050   -22.1560 
2880.0000   0.01765455   -13.4314 
2890.0000   0.01683852   -6.3000 
2900.0000   0.01629297   2.0068 
2910.0000   0.01576735   9.8864 
2920.0000   0.01531442   17.8539 
2930.0000   0.01486274   25.3571 
2940.0000   0.01466357   33.4767 
2950.0000   0.01448451   41.3703 
2960.0000   0.01418144   49.3250 
2970.0000   0.01399954   57.1231 
2980.0000   0.01386096   64.9939 
2990.0000   0.01384730   72.8793 
3000.0000   0.01384931   80.8497 
3010.0000   0.01389388   88.8438 
3020.0000   0.01400003   97.2427 
3030.0000   0.01412319   105.5999 
3040.0000   0.01426622   114.1299 
3050.0000   0.01432391   122.7604 
3060.0000   0.01459886   131.7999 
3070.0000   0.01475763   140.5717 
3080.0000   0.01491966   149.9350 
3090.0000   0.01509641   159.4779 
3100.0000   0.01523314   169.0838 
3110.0000   0.01538779   179.1787 
3120.0000   0.01536872   -170.7338 
3130.0000   0.01535304   -160.5734 
3140.0000   0.01522298   -150.6060 
3150.0000   0.01503901   -140.4180 
3160.0000   0.01487604   -130.3728 
3170.0000   0.01459043   -120.5444 
3180.0000   0.01433722   -110.1769 
3190.0000   0.01405995   -99.9498 
3200.0000   0.01350434   -90.1080 
3210.0000   0.01302010   -80.6628 
3220.0000   0.01262824   -71.3780 
3230.0000   0.01217781   -62.4058 
3240.0000   0.01170851   -53.3230 
3250.0000   0.01128335   -44.4307 
3260.0000   0.01082694   -35.5999 
3270.0000   0.01039947   -27.0694 
3280.0000   0.00997097   -18.6672 
3290.0000   0.00954765   -10.3758 
3300.0000   0.00918282   -2.1121 
3310.0000   0.00894085   6.6726 
3320.0000   0.00864607   14.6617 
3330.0000   0.00845487   22.8071 
3340.0000   0.00822970   31.0940 
3350.0000   0.00810317   39.7096 
3360.0000   0.00796385   48.0002 
3370.0000   0.00791640   56.3399 
3380.0000   0.00788319   64.8823 
3390.0000   0.00786465   72.7716 
3400.0000   0.00786119   81.2825 
3410.0000   0.00785674   90.2974 
3420.0000   0.00792250   98.3925 
3430.0000   0.00803233   107.3811 
3440.0000   0.00809886   115.9637 
3450.0000   0.00813894   124.8008 
3460.0000   0.00822993   133.8494 
3470.0000   0.00833808   143.0193 
3480.0000   0.00841878   152.4132 
3490.0000   0.00851593   161.5478 
3500.0000   0.00856171   171.0980 
3510.0000   0.00851490   -179.1459 
3520.0000   0.00847827   -169.3719 
3530.0000   0.00838185   -159.7043 
3540.0000   0.00830085   -149.9475 
3550.0000   0.00817396   -140.3747 
3560.0000   0.00794865   -130.4917 
3570.0000   0.00778168   -120.8176 
3580.0000   0.00752360   -111.4985 
3590.0000   0.00730977   -102.1191 
3600.0000   0.00702747   -92.3892 
3610.0000   0.00678503   -83.2537 
3620.0000   0.00655074   -74.1305 
3630.0000   0.00629015   -65.4064 
3640.0000   0.00617025   -59.0621 
3650.0000   0.00592668   -49.7631 
3660.0000   0.00579452   -40.8610 
3670.0000   0.00556264   -31.9829 
3680.0000   0.00542470   -22.9057 
3690.0000   0.00530061   -14.1316 
3700.0000   0.00522434   -5.0783 
3710.0000   0.00517274   4.3776 
3720.0000   0.00515404   13.2548 
3730.0000   0.00509488   22.0100 
3740.0000   0.00508208   30.3398 
3750.0000   0.00505651   39.1104 
3760.0000   0.00508671   47.5539 
3770.0000   0.00511258   56.1444 
3780.0000   0.00514794   64.2305 
3790.0000   0.00515671   72.3307 
3800.0000   0.00520069   80.9923 
3810.0000   0.00525407   89.1190 
3820.0000   0.00531065   97.4871 
3830.0000   0.00535821   105.5760 
3840.0000   0.00542054   114.3080 
3850.0000   0.00541994   122.5507 
3860.0000   0.00545256   131.1299 
3870.0000   0.00548552   139.4318 
3880.0000   0.00545450   148.1509 
3890.0000   0.00543540   156.0508 
3900.0000   0.00539883   165.2532 
3910.0000   0.00532846   173.8827 
3920.0000   0.00522516   -177.6599 
3930.0000   0.00513089   -169.1914 
3940.0000   0.00498740   -160.8850 
3950.0000   0.00482102   -152.1846 
3960.0000   0.00466143   -143.4612 
3970.0000   0.00450467   -135.0075 
3980.0000   0.00432975   -127.0830 
3990.0000   0.00413561   -118.6140 
