! 140 4400 10
# MHz S MA R 50.0
!freq ReS11 ImS11
140.0000   0.0493619458   136.8201625020 
150.0000   0.0490765093   151.0293909720 
160.0000   0.0471034082   167.9721735686 
170.0000   0.0460287009   -167.8418687051 
180.0000   0.0464121942   -155.6165557268 
190.0000   0.0475640144   -142.1273111190 
200.0000   0.0483929786   -125.4207132641 
210.0000   0.0510047997   -109.3709121782 
220.0000   0.0550083519   -92.1651575872 
230.0000   0.0574489602   -73.2481520222 
240.0000   0.0574951230   -54.2039700228 
250.0000   0.0565492318   -35.0894821819 
260.0000   0.0554283330   -15.4359117076 
270.0000   0.0537038529   2.4246276335 
280.0000   0.0519960830   18.6635443165 
290.0000   0.0511866483   33.9712635255 
300.0000   0.0502846229   50.1625845771 
310.0000   0.0510035367   65.4747307334 
320.0000   0.0521747295   81.2030236144 
330.0000   0.0543346131   96.8462448554 
340.0000   0.0572174985   113.5624320697 
350.0000   0.0600535613   130.9527822542 
360.0000   0.0622239158   149.4784963623 
370.0000   0.0635938027   168.2878000394 
380.0000   0.0636505795   -172.9524485130 
390.0000   0.0628787788   -155.0860014086 
400.0000   0.0618459149   -138.1977244221 
410.0000   0.0607482335   -122.2815034686 
420.0000   0.0605731074   -106.0015165706 
430.0000   0.0609516833   -90.4482898163 
440.0000   0.0621079700   -75.2441294519 
450.0000   0.0638550889   -59.6892808807 
460.0000   0.0661764427   -43.6221160696 
470.0000   0.0686818671   -26.7605057384 
480.0000   0.0709974619   -9.0869837866 
490.0000   0.0727363370   9.2314106702 
500.0000   0.0736055939   27.7367632789 
510.0000   0.0736324223   46.0639461108 
520.0000   0.0729679894   63.8843105348 
530.0000   0.0720049086   81.1504942654 
540.0000   0.0712605952   97.7074337375 
550.0000   0.0709697805   113.6755160285 
560.0000   0.0721780442   129.5673640463 
570.0000   0.0742441078   145.4722552942 
580.0000   0.0772832470   161.5806791027 
590.0000   0.0809196439   178.1479235544 
600.0000   0.0851013081   -164.6654214344 
610.0000   0.0892685475   -146.8216398130 
620.0000   0.0929605315   -128.2864998437 
630.0000   0.0956559155   -109.5200325005 
640.0000   0.0969673357   -90.4963445228 
650.0000   0.0971915719   -71.7783651140 
660.0000   0.0965733258   -53.2017941285 
670.0000   0.0959390073   -35.0480185850 
680.0000   0.0950296815   -17.4317322642 
690.0000   0.0947987539   0.0688187376 
700.0000   0.0950159663   17.4589614196 
710.0000   0.0956965756   34.7613064554 
720.0000   0.0967710873   52.5253466236 
730.0000   0.0979985893   70.6379063180 
740.0000   0.0994132922   89.1693180293 
750.0000   0.1004038470   108.0112252273 
760.0000   0.1010207598   127.0503635320 
770.0000   0.1011144513   145.9833844880 
780.0000   0.1002845318   164.6325262618 
790.0000   0.0993961224   -177.1085906715 
800.0000   0.0982105280   -159.3001544478 
810.0000   0.0971898472   -141.8387070239 
820.0000   0.0964292158   -124.5860455869 
830.0000   0.0959326928   -107.4939047079 
840.0000   0.0957818752   -90.3788163936 
850.0000   0.0959392604   -73.1283337654 
860.0000   0.0962666755   -55.7009013646 
870.0000   0.0965540368   -38.0239844095 
880.0000   0.0965275968   -20.2504782101 
890.0000   0.0962315202   -2.4008227767 
900.0000   0.0958271397   15.4355267369 
910.0000   0.0952029127   33.2303126915 
920.0000   0.0945977056   50.6471766103 
930.0000   0.0945191033   68.0953891841 
940.0000   0.0947344510   85.5382641984 
950.0000   0.0954193048   103.0476732530 
960.0000   0.0964516016   120.7764468404 
970.0000   0.0976970631   138.8162857967 
980.0000   0.0986376913   157.1752655971 
990.0000   0.0990515653   175.8725980209 
1000.0000   0.0988070952   -165.2953102579 
1010.0000   0.0979678670   -146.6273246388 
1020.0000   0.0961736476   -128.1339991460 
1030.0000   0.0942903294   -110.2814093636 
1040.0000   0.0924571267   -92.9653982479 
1050.0000   0.0910335076   -76.0271313272 
1060.0000   0.0902089906   -59.4493641475 
1070.0000   0.0902643339   -42.9970494215 
1080.0000   0.0910838212   -26.2446886781 
1090.0000   0.0922900447   -9.2273553300 
1100.0000   0.0936997244   8.2811954565 
1110.0000   0.0948596618   26.3978661254 
1120.0000   0.0952215511   44.9094277086 
1130.0000   0.0942182316   63.4212536773 
1140.0000   0.0922678513   81.5221855446 
1150.0000   0.0894732016   99.0190725485 
1160.0000   0.0865452636   115.6118032849 
1170.0000   0.0838454056   131.4067067404 
1180.0000   0.0820013695   146.5867974287 
1190.0000   0.0811529098   161.4296301659 
1200.0000   0.0814013321   176.2954501602 
1210.0000   0.0828307283   -168.5369611787 
1220.0000   0.0854577581   -152.7671140633 
1230.0000   0.0888733700   -136.1190810452 
1240.0000   0.0925570321   -118.3037842001 
1250.0000   0.0957914313   -99.4813833011 
1260.0000   0.0976576763   -79.7423068368 
1270.0000   0.0974662765   -59.8714099563 
1280.0000   0.0955594788   -40.6312615373 
1290.0000   0.0926019444   -22.3401193632 
1300.0000   0.0896853132   -5.2296822633 
1310.0000   0.0873211542   10.8136778391 
1320.0000   0.0859972340   26.1320210709 
1330.0000   0.0858960119   41.0382862673 
1340.0000   0.0870978084   55.9428980198 
1350.0000   0.0896637354   71.1761722008 
1360.0000   0.0932893827   87.1489727535 
1370.0000   0.0976577551   104.1383529991 
1380.0000   0.1018470496   122.3943737132 
1390.0000   0.1050165789   141.5619623311 
1400.0000   0.1059591344   161.3091649486 
1410.0000   0.1046025685   -179.1421937478 
1420.0000   0.1018323690   -159.9709387746 
1430.0000   0.0980905668   -142.2227148594 
1440.0000   0.0947031133   -125.4050406480 
1450.0000   0.0921503609   -109.5283288745 
1460.0000   0.0910190438   -94.0886292794 
1470.0000   0.0911572577   -78.8172375262 
1480.0000   0.0926992172   -63.3547190693 
1490.0000   0.0954662676   -47.4798553474 
1500.0000   0.0992764814   -30.9252408614 
1510.0000   0.1037013109   -13.6944574312 
1520.0000   0.1081137344   4.3961098638 
1530.0000   0.1119232016   23.2583030672 
1540.0000   0.1141256518   42.5307730819 
1550.0000   0.1143799474   61.7230889049 
1560.0000   0.1132780337   80.7018850243 
1570.0000   0.1113110157   99.0975347720 
1580.0000   0.1092767569   116.8511854667 
1590.0000   0.1079312946   134.2355954021 
1600.0000   0.1075066353   151.3171124740 
1610.0000   0.1082955893   168.3710403644 
1620.0000   0.1101550081   -174.0861125113 
1630.0000   0.1128585545   -156.1666180324 
1640.0000   0.1157747981   -137.5586751543 
1650.0000   0.1184408640   -118.3458599649 
1660.0000   0.1201552846   -98.6977832147 
1670.0000   0.1204458026   -78.8692669909 
1680.0000   0.1194363807   -59.0327646218 
1690.0000   0.1174859450   -39.8730817124 
1700.0000   0.1151111304   -21.1452704175 
1710.0000   0.1129111233   -2.9586503936 
1720.0000   0.1114921316   14.7576793044 
1730.0000   0.1109314430   32.3230226276 
1740.0000   0.1111871572   49.9634641346 
1750.0000   0.1120155305   67.6943125100 
1760.0000   0.1131090441   85.9905632720 
1770.0000   0.1139955535   104.5712568318 
1780.0000   0.1140326695   123.6088108520 
1790.0000   0.1128154201   142.6697652145 
1800.0000   0.1105941607   161.6212932223 
1810.0000   0.1074167053   179.8453214106 
1820.0000   0.1037903559   -162.7897377943 
1830.0000   0.1008954558   -145.9167459641 
1840.0000   0.0988328314   -129.6438953005 
1850.0000   0.0977835138   -113.8020763226 
1860.0000   0.0981251779   -97.9892039828 
1870.0000   0.0993462969   -82.0012148649 
1880.0000   0.1017217199   -65.4813017327 
1890.0000   0.1046472455   -48.2031259768 
1900.0000   0.1075762642   -29.8724852102 
1910.0000   0.1095544764   -10.6680434429 
1920.0000   0.1096480445   9.4410033188 
1930.0000   0.1072639865   29.5637270503 
1940.0000   0.1028958661   49.1506184807 
1950.0000   0.0975626626   67.8065855197 
1960.0000   0.0922736975   85.3221374712 
1970.0000   0.0878244218   101.8531722253 
1980.0000   0.0846281371   117.7256758766 
1990.0000   0.0827701239   133.1017168586 
2000.0000   0.0821532361   148.4792117002 
2010.0000   0.0830357665   164.1492502019 
2020.0000   0.0850571135   -179.4841546927 
2030.0000   0.0877973220   -162.0592806884 
2040.0000   0.0906332570   -143.2831576560 
2050.0000   0.0924011757   -123.2417273734 
2060.0000   0.0922306103   -102.4995724483 
2070.0000   0.0897952761   -81.8822465618 
2080.0000   0.0856181049   -62.1271319545 
2090.0000   0.0807439922   -43.6944977331 
2100.0000   0.0762134311   -26.4331110394 
2110.0000   0.0725033035   -10.5122652620 
2120.0000   0.0700658695   4.6904186349 
2130.0000   0.0688214530   19.4637191942 
2140.0000   0.0688755984   34.1989748487 
2150.0000   0.0702410008   49.1334320887 
2160.0000   0.0729030080   64.8100920556 
2170.0000   0.0766286869   81.2775516292 
2180.0000   0.0811124214   98.8373619733 
2190.0000   0.0856188401   117.8360275354 
2200.0000   0.0884068006   140.2971232637 
2210.0000   0.0895104346   160.4796063840 
2220.0000   0.0887063328   -178.8311019712 
2230.0000   0.0859014009   -159.0439196020 
2240.0000   0.0821656275   -140.4768835376 
2250.0000   0.0784899447   -123.2416575112 
2260.0000   0.0753992661   -107.0680788573 
2270.0000   0.0732832878   -91.5895884872 
2280.0000   0.0720326063   -76.6211529787 
2290.0000   0.0719611895   -61.6832533712 
2300.0000   0.0729050218   -46.5237855577 
2310.0000   0.0747590711   -30.7107263467 
2320.0000   0.0772950308   -14.1086348513 
2330.0000   0.0800289800   3.3895540953 
2340.0000   0.0826152408   22.0612287369 
2350.0000   0.0840319302   41.6136311478 
2360.0000   0.0837872860   61.5765307824 
2370.0000   0.0817811853   81.3732540646 
2380.0000   0.0784853927   100.4702200853 
2390.0000   0.0746637803   118.5053046253 
2400.0000   0.0709128811   135.5567746492 
2410.0000   0.0677363500   151.7479168704 
2420.0000   0.0653240632   167.2310617121 
2430.0000   0.0637245833   -177.9186214672 
2440.0000   0.0630174693   -163.1951132708 
2450.0000   0.0632174110   -148.6744559282 
2460.0000   0.0642638196   -133.6197328235 
2470.0000   0.0660903405   -118.3273782916 
2480.0000   0.0686021335   -102.3823297811 
2490.0000   0.0714922387   -85.4301749389 
2500.0000   0.0743223425   -67.5429717460 
2510.0000   0.0764442552   -48.5426194933 
2520.0000   0.0772240600   -28.9342692377 
2530.0000   0.0764899616   -9.1074863427 
2540.0000   0.0742679980   10.1645514583 
2550.0000   0.0713360082   28.4940853361 
2560.0000   0.0682265814   45.7610854495 
2570.0000   0.0656082307   61.6617092602 
2580.0000   0.0638401990   77.0487404060 
2590.0000   0.0629376426   91.5916716595 
2600.0000   0.0631191993   105.8889125168 
2610.0000   0.0643866911   120.0958073593 
2620.0000   0.0667262081   134.7281982755 
2630.0000   0.0701823128   150.1690711867 
2640.0000   0.0744391155   166.6362122598 
2650.0000   0.0792137671   -175.5717945515 
2660.0000   0.0833015656   -156.2950993207 
2670.0000   0.0854621935   -136.0359683156 
2680.0000   0.0851375500   -115.5083717644 
2690.0000   0.0824857451   -96.0578540288 
2700.0000   0.0786991802   -77.5162400964 
2710.0000   0.0748907254   -60.7040568485 
2720.0000   0.0717854858   -45.1510015493 
2730.0000   0.0698831821   -30.5005389993 
2740.0000   0.0692825447   -16.2416659526 
2750.0000   0.0700919350   -2.2438461806 
2760.0000   0.0723211369   12.0858196781 
2770.0000   0.0760122456   26.7640669816 
2780.0000   0.0811907821   42.5375250403 
2790.0000   0.0874652889   59.9147576825 
2800.0000   0.0939814014   78.9253806748 
2810.0000   0.0995323477   99.2376475200 
2820.0000   0.1023044473   121.1173758918 
2830.0000   0.1015372011   142.5686974104 
2840.0000   0.0981920051   167.7967354363 
2850.0000   0.0933039162   -173.3913325834 
2860.0000   0.0887724864   -156.1031346597 
2870.0000   0.0852246280   -139.8774903643 
2880.0000   0.0830775776   -124.3676179508 
2890.0000   0.0829500764   -109.6959483100 
2900.0000   0.0838297901   -94.5590853809 
2910.0000   0.0861702666   -78.9104910524 
2920.0000   0.0900550497   -62.2734521289 
2930.0000   0.0951329658   -44.7557113090 
2940.0000   0.1006809184   -25.3337723937 
2950.0000   0.1053515890   -4.5334440743 
2960.0000   0.1074563398   17.3617493181 
2970.0000   0.1064291084   39.3971665636 
2980.0000   0.1025505752   60.6334963407 
2990.0000   0.0972563542   80.5438141218 
3000.0000   0.0920567991   99.1180933910 
3010.0000   0.0878936528   116.1659328362 
3020.0000   0.0850582457   132.3950472142 
3030.0000   0.0836064706   148.1376398014 
3040.0000   0.0835536535   163.8648970267 
3050.0000   0.0849683432   179.6696085461 
3060.0000   0.0875096328   -163.5029639474 
3070.0000   0.0906977871   -145.7931981152 
3080.0000   0.0937680614   -126.8237179207 
3090.0000   0.0956358226   -106.6467947233 
3100.0000   0.0953885663   -85.7702464964 
3110.0000   0.0926384105   -65.0336450687 
3120.0000   0.0882130208   -44.8738554989 
3130.0000   0.0833519767   -26.3895369770 
3140.0000   0.0790002109   -8.8346176468 
3150.0000   0.0758098149   7.8116500185 
3160.0000   0.0738516141   23.7820605408 
3170.0000   0.0733672614   39.3350680299 
3180.0000   0.0743238018   55.4819154698 
3190.0000   0.0763475592   72.0473413613 
3200.0000   0.0792918445   89.4859477211 
3210.0000   0.0823395049   107.9829521167 
3220.0000   0.0844819707   127.5268213047 
3230.0000   0.0847221229   147.5873376115 
3240.0000   0.0828346659   167.7891382345 
3250.0000   0.0793409959   -173.3687265589 
3260.0000   0.0752022721   -155.4317417043 
3270.0000   0.0713506348   -138.8638720302 
3280.0000   0.0683591577   -123.0447155826 
3290.0000   0.0666155961   -107.8952532817 
3300.0000   0.0660900103   -92.5942249124 
3310.0000   0.0668560463   -77.2060564754 
3320.0000   0.0687659377   -61.2291943250 
3330.0000   0.0718332961   -44.1316043500 
3340.0000   0.0752911997   -25.5542923717 
3350.0000   0.0782781242   -5.5192363864 
3360.0000   0.0796992324   15.9258027260 
3370.0000   0.0788412684   36.9771565813 
3380.0000   0.0758664887   57.6145424953 
3390.0000   0.0718825399   76.6135412162 
3400.0000   0.0679282521   94.2728252276 
3410.0000   0.0647268658   110.2520782805 
3420.0000   0.0625065088   125.7754651721 
3430.0000   0.0615169489   140.4679838697 
3440.0000   0.0618395732   155.1921620956 
3450.0000   0.0630324146   170.1597352742 
3460.0000   0.0654605685   -174.0464274412 
3470.0000   0.0686810375   -156.9661318411 
3480.0000   0.0721461405   -137.9437673057 
3490.0000   0.0748010459   -118.0318201090 
3500.0000   0.0752214999   -96.5568946753 
3510.0000   0.0727913459   -75.0813097648 
3520.0000   0.0681839689   -54.4898484549 
3530.0000   0.0627175641   -35.8802965147 
3540.0000   0.0577717754   -18.5065091907 
3550.0000   0.0538641310   -2.8604710552 
3560.0000   0.0512164269   11.7961379139 
3570.0000   0.0496681163   25.7513431319 
3580.0000   0.0493105266   39.6927892553 
3590.0000   0.0499724202   53.6497025239 
3600.0000   0.0518062034   68.5009147093 
3610.0000   0.0544618985   83.4457770179 
3620.0000   0.0576822649   100.3078100479 
3630.0000   0.0610227562   118.6152198862 
3640.0000   0.0630419359   136.1208234628 
3650.0000   0.0634006214   157.0166090449 
3660.0000   0.0613977213   178.3301459169 
3670.0000   0.0578933174   -161.6785441897 
3680.0000   0.0540156640   -143.1730128947 
3690.0000   0.0505733059   -126.1275582637 
3700.0000   0.0471042793   -109.9599095187 
3710.0000   0.0453850917   -94.9173588098 
3720.0000   0.0446142156   -80.0187964434 
3730.0000   0.0446004449   -65.6222452312 
3740.0000   0.0453268013   -50.8457383573 
3750.0000   0.0468380343   -35.3710451633 
3760.0000   0.0488878936   -18.9200895100 
3770.0000   0.0512855552   -1.4684935260 
3780.0000   0.0533088244   17.4822344442 
3790.0000   0.0545169347   37.3100355353 
3800.0000   0.0542105039   57.6593978001 
3810.0000   0.0524741657   77.6451237480 
3820.0000   0.0497837472   96.6643194513 
3830.0000   0.0466778437   114.3788602221 
3840.0000   0.0437701118   131.1007792284 
3850.0000   0.0411595977   146.5546330427 
3860.0000   0.0391911552   161.6904532684 
3870.0000   0.0378282742   176.3688283179 
3880.0000   0.0370399418   -168.9232613674 
3890.0000   0.0369148152   -154.2915895666 
3900.0000   0.0372629119   -138.9761889115 
3910.0000   0.0381770101   -123.0865900228 
3920.0000   0.0395313337   -106.2225150857 
3930.0000   0.0412131021   -88.3652410149 
3940.0000   0.0429205374   -69.4464355138 
3950.0000   0.0441785300   -49.4719289797 
3960.0000   0.0444154460   -28.9189969968 
3970.0000   0.0437128782   -8.8194247149 
3980.0000   0.0421701933   10.7759291374 
3990.0000   0.0402343246   28.9865319764 
4000.0000   0.0382554274   46.0319007887 
4010.0000   0.0365798114   61.9049340969 
4020.0000   0.0352438507   77.1813160521 
4030.0000   0.0344595425   91.9626811981 
4040.0000   0.0342552206   106.6251566802 
4050.0000   0.0345583046   121.6160790373 
4060.0000   0.0354089527   137.4232734046 
4070.0000   0.0364956897   154.3535327125 
4080.0000   0.0376268321   172.9261495805 
4090.0000   0.0382810081   -167.4898691824 
4100.0000   0.0382353759   -146.6135902707 
4110.0000   0.0371046009   -125.5902720560 
4120.0000   0.0352069079   -104.9895679285 
4130.0000   0.0329007766   -85.9916110045 
4140.0000   0.0309186267   -68.1860335032 
4150.0000   0.0292700712   -51.8833159584 
4160.0000   0.0281322440   -36.4963367515 
4170.0000   0.0276794145   -21.9513751294 
4180.0000   0.0277872266   -7.7635667199 
4190.0000   0.0284590631   6.3156866261 
4200.0000   0.0296317447   21.0506093028 
4210.0000   0.0311723882   36.0332184132 
4220.0000   0.0332547840   52.5048090952 
4230.0000   0.0351174904   70.2259035151 
4240.0000   0.0363805152   89.3061843943 
4250.0000   0.0366801114   108.9670349022 
4260.0000   0.0358130738   128.8567496382 
4270.0000   0.0341440418   147.5779160450 
4280.0000   0.0322173571   165.1299938652 
4290.0000   0.0306040763   -178.3924831735 
4300.0000   0.0293875447   -162.6383069699 
4310.0000   0.0287416997   -147.0614940865 
4320.0000   0.0287544255   -131.1780373200 
4330.0000   0.0293475696   -115.2582055796 
4340.0000   0.0304915212   -98.2665748747 
4350.0000   0.0321063822   -79.9678073902 
4360.0000   0.0339462855   -60.2508513944 
4370.0000   0.0355287264   -39.5448650603 
4380.0000   0.0363229391   -17.8396659362 
4390.0000   0.0361164782   3.3513298176 
