! 140 4400 10
# MHz S MA R 50.0
!freq ReS11 ImS11
140.0000   0.0100091321   74.1948733011 
150.0000   0.0103257858   83.4570934223 
160.0000   0.0099684093   97.9456790081 
170.0000   0.0094854595   118.5591000906 
180.0000   0.0091770213   132.2004379900 
190.0000   0.0087678554   144.3802010113 
200.0000   0.0079708270   162.5320119466 
210.0000   0.0073847455   176.9185127948 
220.0000   0.0070197803   -168.7199946030 
230.0000   0.0065458763   -151.7632268145 
240.0000   0.0060467871   -135.0980122094 
250.0000   0.0055909876   -117.3546320811 
260.0000   0.0052043678   -96.6336678385 
270.0000   0.0048353956   -74.3483004220 
280.0000   0.0045049835   -52.5163756383 
290.0000   0.0045450180   -33.5687849244 
300.0000   0.0040588854   -4.6344731727 
310.0000   0.0043280217   19.0210773995 
320.0000   0.0040693934   42.7803890225 
330.0000   0.0042287399   65.3862587787 
340.0000   0.0044221713   86.1371140251 
350.0000   0.0046813824   107.0594744460 
360.0000   0.0050868474   125.4162216544 
370.0000   0.0055385364   143.9104453933 
380.0000   0.0060410327   162.5942799291 
390.0000   0.0065796024   -179.8017092744 
400.0000   0.0071171980   -161.5485847039 
410.0000   0.0074599093   -140.2535318619 
420.0000   0.0081426773   -126.5737429080 
430.0000   0.0088280041   -110.2045623105 
440.0000   0.0092493755   -92.3312515913 
450.0000   0.0097719344   -75.5711800649 
460.0000   0.0102754365   -58.4435818833 
470.0000   0.0107233427   -40.9388127969 
480.0000   0.0111582409   -23.7122905471 
490.0000   0.0115350857   -6.4187893407 
500.0000   0.0117899577   11.2823038113 
510.0000   0.0119982128   28.7397970357 
520.0000   0.0121743855   46.1147029907 
530.0000   0.0124245312   63.0854233645 
540.0000   0.0123597790   80.1437106100 
550.0000   0.0124669027   96.4257357873 
560.0000   0.0123770399   113.7868472817 
570.0000   0.0123993114   130.4898984586 
580.0000   0.0124343673   146.9848612642 
590.0000   0.0124354855   163.6443800417 
600.0000   0.0124519099   -179.7907893005 
610.0000   0.0124548595   -163.0826392132 
620.0000   0.0124436853   -146.5568450404 
630.0000   0.0123288856   -129.9609929211 
640.0000   0.0122542813   -113.5201557584 
650.0000   0.0119210825   -96.9048472850 
660.0000   0.0118459285   -79.7192006412 
670.0000   0.0117563884   -63.0125719360 
680.0000   0.0113743613   -44.7934467435 
690.0000   0.0111163738   -26.7179609550 
700.0000   0.0107868069   -8.4361906418 
710.0000   0.0104010754   10.1248571607 
720.0000   0.0099832221   29.4513424892 
730.0000   0.0095799921   49.7547413026 
740.0000   0.0092149467   70.9195369827 
750.0000   0.0089465932   93.0728409572 
760.0000   0.0088464897   116.0196334209 
770.0000   0.0090313178   138.3484802978 
780.0000   0.0091936768   162.0594914623 
790.0000   0.0096324855   -174.9149706342 
800.0000   0.0102943992   -153.6594931354 
810.0000   0.0110322596   -133.1074519598 
820.0000   0.0118764509   -113.3282884631 
830.0000   0.0127869368   -94.7056765577 
840.0000   0.0137104115   -76.8809068458 
850.0000   0.0145796666   -60.1733547347 
860.0000   0.0154348602   -43.8889025144 
870.0000   0.0162596575   -27.8983912123 
880.0000   0.0170283346   -12.5416810400 
890.0000   0.0175715554   2.7347329302 
900.0000   0.0181749337   17.5905471920 
910.0000   0.0186497265   32.3733153702 
920.0000   0.0189606695   46.5531166592 
930.0000   0.0192275382   60.8018332993 
940.0000   0.0192779973   75.0344186097 
950.0000   0.0192780914   89.1400424325 
960.0000   0.0190769395   103.4120897283 
970.0000   0.0187155438   117.6737916047 
980.0000   0.0180968490   132.1813181181 
990.0000   0.0173478407   146.9325996931 
1000.0000   0.0163745432   161.8626745155 
1010.0000   0.0153696491   176.6086462242 
1020.0000   0.0140183014   -167.0870933860 
1030.0000   0.0125853656   -150.6992275553 
1040.0000   0.0109596942   -133.9742024258 
1050.0000   0.0092716673   -115.5570802350 
1060.0000   0.0075926417   -94.9163803232 
1070.0000   0.0059872888   -70.3140059327 
1080.0000   0.0047089633   -37.9779054729 
1090.0000   0.0042243538   2.4526483272 
1100.0000   0.0047820439   43.4113326312 
1110.0000   0.0061210002   75.1665253519 
1120.0000   0.0078080602   98.7214182884 
1130.0000   0.0096447414   117.3888976196 
1140.0000   0.0113879161   134.5224182460 
1150.0000   0.0131143929   149.5466540653 
1160.0000   0.0146694127   163.8423756909 
1170.0000   0.0160808979   177.5212018984 
1180.0000   0.0173683098   -169.4995279973 
1190.0000   0.0185400220   -156.6366564463 
1200.0000   0.0195047589   -143.9458916411 
1210.0000   0.0203403205   -131.3506340040 
1220.0000   0.0210448354   -118.7598220056 
1230.0000   0.0215513475   -106.3409713528 
1240.0000   0.0218709306   -93.6716894242 
1250.0000   0.0219550810   -81.1219253794 
1260.0000   0.0218414198   -68.3949924341 
1270.0000   0.0216034777   -55.6908009826 
1280.0000   0.0210802206   -43.0083202773 
1290.0000   0.0203248453   -30.3532051382 
1300.0000   0.0193882235   -17.7075766473 
1310.0000   0.0182067916   -5.1568716770 
1320.0000   0.0168604647   7.3933631887 
1330.0000   0.0152880152   19.8276542183 
1340.0000   0.0135364128   32.4274798998 
1350.0000   0.0116498234   44.9714255437 
1360.0000   0.0096601943   57.7503001662 
1370.0000   0.0075840396   70.5492007955 
1380.0000   0.0054825951   84.8587982970 
1390.0000   0.0033705811   99.5095906523 
1400.0000   0.0013667773   126.9188535662 
1410.0000   0.0009034371   -98.3435442385 
1420.0000   0.0028405999   -60.8750426676 
1430.0000   0.0047546113   -44.3285493871 
1440.0000   0.0065638365   -29.8943192377 
1450.0000   0.0082534853   -16.5994436509 
1460.0000   0.0098464079   -3.8601111713 
1470.0000   0.0113932081   8.6619194540 
1480.0000   0.0128802896   21.1817439439 
1490.0000   0.0143899206   33.6457458998 
1500.0000   0.0156810117   46.2738151175 
1510.0000   0.0169366323   58.7651556326 
1520.0000   0.0181507199   71.3023781681 
1530.0000   0.0192796057   83.7829872799 
1540.0000   0.0202629740   96.4100996278 
1550.0000   0.0211114042   109.1893746151 
1560.0000   0.0217526484   122.1006973923 
1570.0000   0.0221965240   135.0329483469 
1580.0000   0.0224074094   148.2971055806 
1590.0000   0.0223578313   161.4898168425 
1600.0000   0.0221233792   174.7214725232 
1610.0000   0.0216670249   -172.2829565486 
1620.0000   0.0209767197   -159.1644746647 
1630.0000   0.0201454992   -146.4362562082 
1640.0000   0.0190857371   -133.8464822477 
1650.0000   0.0179344515   -121.5262988555 
1660.0000   0.0166063003   -109.4864895915 
1670.0000   0.0151917485   -97.7695145418 
1680.0000   0.0136126742   -86.5688674293 
1690.0000   0.0120164077   -75.9253227387 
1700.0000   0.0103499151   -66.1998282608 
1710.0000   0.0086383170   -57.6637349416 
1720.0000   0.0069501806   -50.9078517527 
1730.0000   0.0053775393   -48.0583738577 
1740.0000   0.0038486257   -52.1574559119 
1750.0000   0.0030194131   -70.0539467658 
1760.0000   0.0033126760   -93.1306081349 
1770.0000   0.0045328620   -104.8475575692 
1780.0000   0.0061671698   -104.9428005815 
1790.0000   0.0078528102   -99.7627871858 
1800.0000   0.0095646255   -92.2533739398 
1810.0000   0.0112723036   -83.5297799146 
1820.0000   0.0129162349   -74.0191156063 
1830.0000   0.0144999537   -63.8457829251 
1840.0000   0.0159979920   -53.1247705749 
1850.0000   0.0173912219   -42.3130547784 
1860.0000   0.0185712439   -31.1774029831 
1870.0000   0.0195413308   -20.1579847074 
1880.0000   0.0203868029   -8.9239823925 
1890.0000   0.0209957514   2.2645721720 
1900.0000   0.0214346679   13.1722910000 
1910.0000   0.0216779196   24.1665738316 
1920.0000   0.0217020813   35.1187063902 
1930.0000   0.0215323505   46.0398920653 
1940.0000   0.0211910553   56.8258836536 
1950.0000   0.0206862784   67.4141044727 
1960.0000   0.0200260245   77.7748355979 
1970.0000   0.0192457347   87.9931965246 
1980.0000   0.0182775801   98.0897964382 
1990.0000   0.0171948089   107.6182999946 
2000.0000   0.0159465152   116.7221314079 
2010.0000   0.0146893778   125.2520710430 
2020.0000   0.0134267552   133.0967232017 
2030.0000   0.0121864067   140.1785872418 
2040.0000   0.0109995506   146.5816256555 
2050.0000   0.0098858475   151.9217434258 
2060.0000   0.0088540542   156.0537504798 
2070.0000   0.0079890898   158.4854225608 
2080.0000   0.0073676576   158.9969454084 
2090.0000   0.0070221695   157.9296229878 
2100.0000   0.0070283096   156.0256996673 
2110.0000   0.0074101615   154.1273254703 
2120.0000   0.0082303174   153.9250835920 
2130.0000   0.0092809432   156.0072160117 
2140.0000   0.0105821467   160.1072967889 
2150.0000   0.0119975664   166.0001560249 
2160.0000   0.0134754651   172.9941593312 
2170.0000   0.0149603779   -179.2964317166 
2180.0000   0.0163891491   -170.6526454685 
2190.0000   0.0177592692   -161.6524307646 
2200.0000   0.0187767801   -149.9300963330 
2210.0000   0.0197722850   -141.0174046847 
2220.0000   0.0207273752   -131.3804727725 
2230.0000   0.0215037164   -121.7604409367 
2240.0000   0.0220344785   -112.1500409256 
2250.0000   0.0224415910   -102.5470109346 
2260.0000   0.0226589828   -92.8157496599 
2270.0000   0.0226653655   -83.0593580577 
2280.0000   0.0225013368   -73.4910009929 
2290.0000   0.0221311596   -63.7749704034 
2300.0000   0.0216096371   -54.2720496809 
2310.0000   0.0209529226   -44.5735374698 
2320.0000   0.0201176808   -35.1215096892 
2330.0000   0.0191082896   -25.7642679087 
2340.0000   0.0180209335   -16.5059317806 
2350.0000   0.0167887680   -7.6645148336 
2360.0000   0.0154433159   0.8997669514 
2370.0000   0.0140138846   8.6615322971 
2380.0000   0.0125854686   15.4381977600 
2390.0000   0.0111685603   20.9852681547 
2400.0000   0.0098669346   24.6195686756 
2410.0000   0.0087612000   26.3385756676 
2420.0000   0.0079623456   25.3627683882 
2430.0000   0.0076288529   22.3941877016 
2440.0000   0.0077676209   19.4284558360 
2450.0000   0.0083866174   17.8206469727 
2460.0000   0.0092438503   19.1139454784 
2470.0000   0.0103247591   22.5464942323 
2480.0000   0.0114604737   27.7593087923 
2490.0000   0.0126295497   34.1628247597 
2500.0000   0.0137715723   41.7020324693 
2510.0000   0.0148662154   50.1568252795 
2520.0000   0.0158556219   59.1888146047 
2530.0000   0.0167454224   68.4696436431 
2540.0000   0.0175891823   78.2215737445 
2550.0000   0.0183002791   87.9375458547 
2560.0000   0.0189270456   97.8546063061 
2570.0000   0.0194672362   107.6038900371 
2580.0000   0.0198710004   117.8070283977 
2590.0000   0.0202585950   127.7847948439 
2600.0000   0.0204738556   137.8230756553 
2610.0000   0.0205227035   147.9326538607 
2620.0000   0.0204385565   158.1044224960 
2630.0000   0.0202053386   168.2281075107 
2640.0000   0.0198019560   178.1998764975 
2650.0000   0.0192840356   -172.0099946784 
2660.0000   0.0186071045   -162.3146096982 
2670.0000   0.0177663166   -152.6648386427 
2680.0000   0.0167549222   -143.3659482966 
2690.0000   0.0156739120   -134.8257039353 
2700.0000   0.0145084992   -126.2995421372 
2710.0000   0.0132462144   -118.7969762246 
2720.0000   0.0119858469   -112.1943298347 
2730.0000   0.0107335651   -106.8225751681 
2740.0000   0.0095881478   -103.4020556032 
2750.0000   0.0086739581   -101.9799212715 
2760.0000   0.0080258152   -102.4979542985 
2770.0000   0.0077075874   -104.7209214257 
2780.0000   0.0078323261   -107.2928464331 
2790.0000   0.0083713672   -108.4201161210 
2800.0000   0.0092355092   -107.6368280163 
2810.0000   0.0102692857   -104.9031781412 
2820.0000   0.0114519270   -100.3405814953 
2830.0000   0.0127613500   -94.2580766169 
2840.0000   0.0140421386   -82.3484375674 
2850.0000   0.0153736981   -74.4589033295 
2860.0000   0.0165944304   -65.8996444147 
2870.0000   0.0178064751   -56.8589919213 
2880.0000   0.0188955106   -47.3617461988 
2890.0000   0.0197366814   -38.5723241054 
2900.0000   0.0205850026   -28.3973505923 
2910.0000   0.0212896735   -18.0865697004 
2920.0000   0.0218808874   -7.6290645395 
2930.0000   0.0223458332   2.7944399494 
2940.0000   0.0226756620   13.4536222125 
2950.0000   0.0228097931   24.1614845607 
2960.0000   0.0227915657   34.8367841679 
2970.0000   0.0225922491   45.3751375136 
2980.0000   0.0222263561   55.7240779981 
2990.0000   0.0217059364   65.9767530396 
3000.0000   0.0210809318   75.9615367838 
3010.0000   0.0202580899   85.5598856100 
3020.0000   0.0193569971   94.8812386666 
3030.0000   0.0183121496   103.7036225617 
3040.0000   0.0171390681   111.9074004452 
3050.0000   0.0159561955   119.2695031020 
3060.0000   0.0147602146   125.7907258962 
3070.0000   0.0136212007   131.2365782724 
3080.0000   0.0125283954   135.1896728851 
3090.0000   0.0115897951   137.6026467811 
3100.0000   0.0109577523   138.5120343471 
3110.0000   0.0106667231   138.3402440883 
3120.0000   0.0108181463   138.0485228616 
3130.0000   0.0113393921   137.8018908618 
3140.0000   0.0121865135   139.0983209248 
3150.0000   0.0133578157   142.0339000210 
3160.0000   0.0146802138   146.4509087066 
3170.0000   0.0160468679   152.0071591773 
3180.0000   0.0174534828   158.5541553220 
3190.0000   0.0188218507   166.1386528463 
3200.0000   0.0200887472   174.3092897563 
3210.0000   0.0212368352   -177.0029059909 
3220.0000   0.0221600870   -168.0134410950 
3230.0000   0.0230021109   -158.8019981991 
3240.0000   0.0236178736   -148.9663958854 
3250.0000   0.0240413102   -139.4424446371 
3260.0000   0.0242441191   -129.5392469297 
3270.0000   0.0242524911   -119.7225586187 
3280.0000   0.0240408240   -109.7800391342 
3290.0000   0.0236442816   -100.0127928064 
3300.0000   0.0230972323   -89.8331657426 
3310.0000   0.0224116508   -79.9882878274 
3320.0000   0.0215651454   -70.2372959717 
3330.0000   0.0205644184   -60.7895306242 
3340.0000   0.0194836362   -51.3964002630 
3350.0000   0.0183168248   -42.2898187886 
3360.0000   0.0170742274   -33.3429878704 
3370.0000   0.0158190283   -25.4736641590 
3380.0000   0.0144994625   -17.9622138930 
3390.0000   0.0132223692   -11.4014259088 
3400.0000   0.0119892353   -5.7825914217 
3410.0000   0.0109253565   -1.5644567540 
3420.0000   0.0100058514   1.4074335109 
3430.0000   0.0093101595   2.7492517345 
3440.0000   0.0089437392   2.6053283899 
3450.0000   0.0089175194   2.4330261829 
3460.0000   0.0092899093   2.6944825416 
3470.0000   0.0099071222   4.5183674747 
3480.0000   0.0107211140   7.8942201178 
3490.0000   0.0116940332   11.9903484064 
3500.0000   0.0126663478   17.8372003056 
3510.0000   0.0136865860   24.6357180742 
3520.0000   0.0146517047   32.2572588145 
3530.0000   0.0155619949   40.0284685492 
3540.0000   0.0163654641   48.7554133304 
3550.0000   0.0170780588   57.5343524069 
3560.0000   0.0176504596   66.5660871612 
3570.0000   0.0180748636   75.9509667562 
3580.0000   0.0183525660   85.2950638676 
3590.0000   0.0184582602   94.6798213953 
3600.0000   0.0184398479   104.2835903627 
3610.0000   0.0182658995   113.2466077104 
3620.0000   0.0179256046   122.6983316961 
3630.0000   0.0174529282   131.8338590329 
3640.0000   0.0168774951   138.6872956414 
3650.0000   0.0161354194   147.7260617836 
3660.0000   0.0151623973   156.9772165868 
3670.0000   0.0140865651   165.7197665411 
3680.0000   0.0129699339   174.3087244887 
3690.0000   0.0118764370   -177.5486739363 
3700.0000   0.0105148310   -167.8922696521 
3710.0000   0.0094526803   -160.6826076286 
3720.0000   0.0084272855   -153.8350930434 
3730.0000   0.0074629154   -149.0019245271 
3740.0000   0.0066181920   -145.9701609460 
3750.0000   0.0059491197   -144.8322369376 
3760.0000   0.0054889081   -145.4961278900 
3770.0000   0.0053528134   -146.7691354454 
3780.0000   0.0054464446   -147.2740707501 
3790.0000   0.0057664799   -147.1394078348 
3800.0000   0.0062447683   -144.8844337985 
3810.0000   0.0068391412   -141.0782378813 
3820.0000   0.0075281191   -135.0390480486 
3830.0000   0.0082446520   -128.0077382302 
3840.0000   0.0089426054   -119.7444394196 
3850.0000   0.0095960745   -111.2106205180 
3860.0000   0.0102338106   -101.7665850320 
3870.0000   0.0108497966   -92.1178256661 
3880.0000   0.0113971560   -82.1323770261 
3890.0000   0.0119559992   -72.3167356312 
3900.0000   0.0123782734   -62.0557739978 
3910.0000   0.0127636316   -51.8221198455 
3920.0000   0.0131555249   -41.3618465605 
3930.0000   0.0134112434   -31.0059025609 
3940.0000   0.0135874627   -20.8263202979 
3950.0000   0.0136640595   -10.7976555028 
3960.0000   0.0135873834   -0.7786446105 
3970.0000   0.0134827030   8.7186220209 
3980.0000   0.0132857914   18.2328193300 
3990.0000   0.0130376761   27.3493129056 
4000.0000   0.0126475410   36.4544359607 
4010.0000   0.0122115305   44.8439708486 
4020.0000   0.0115855375   53.0571356580 
4030.0000   0.0109476670   60.4643664868 
4040.0000   0.0103442734   67.0118885649 
4050.0000   0.0097620469   72.9613125411 
4060.0000   0.0091537862   78.0342454473 
4070.0000   0.0086027912   82.1345025972 
4080.0000   0.0081154325   85.2949933373 
4090.0000   0.0077334386   86.5791192715 
4100.0000   0.0076151523   87.3379988981 
4110.0000   0.0076905402   88.3293280174 
4120.0000   0.0079407665   89.9697126450 
4130.0000   0.0083165677   92.0873340503 
4140.0000   0.0088217287   95.4797781054 
4150.0000   0.0093764749   99.7622132363 
4160.0000   0.0099731806   104.9386885252 
4170.0000   0.0105722937   111.1743274235 
4180.0000   0.0111578735   117.9510649288 
4190.0000   0.0116593364   125.3886053819 
4200.0000   0.0121260090   133.7883370587 
4210.0000   0.0124741592   141.9363794368 
4220.0000   0.0126907356   150.6757691705 
4230.0000   0.0128376261   159.6234109623 
4240.0000   0.0128553636   168.7704326344 
4250.0000   0.0128321751   177.9536799601 
4260.0000   0.0126704572   -172.2707544104 
4270.0000   0.0124501724   -162.8640140767 
4280.0000   0.0121205238   -153.3039368991 
4290.0000   0.0117400090   -143.6030793619 
4300.0000   0.0113333281   -133.8877643893 
4310.0000   0.0108167250   -124.2606894352 
4320.0000   0.0103186291   -114.4187777613 
4330.0000   0.0098036052   -105.1840841934 
4340.0000   0.0092403839   -96.0216916038 
4350.0000   0.0086490621   -87.1020357495 
4360.0000   0.0080775814   -78.3204169044 
4370.0000   0.0075136960   -70.2127241221 
4380.0000   0.0069848883   -62.5250438159 
4390.0000   0.0064952264   -55.8132192689 
