! 140 4400 10
# MHz S MA R 50.0
!freq ReS11 ImS11
140.0000   0.0003148730   60.4078775825 
150.0000   0.0003791934   80.8461190617 
160.0000   0.0003939903   103.2052552024 
170.0000   0.0004147355   133.0996631680 
180.0000   0.0004512035   146.6873421035 
190.0000   0.0006267052   133.0849908634 
200.0000   0.0004595850   179.9796032994 
210.0000   0.0004520425   -162.4668771078 
220.0000   0.0005141100   -147.1829809886 
230.0000   0.0005423304   -129.3545828428 
240.0000   0.0005267017   -115.1587381440 
250.0000   0.0005625441   -96.7398178591 
260.0000   0.0005493849   -80.5189941433 
270.0000   0.0005861747   -57.1970382502 
280.0000   0.0005892080   -38.9231389711 
290.0000   0.0002619010   -81.0958958796 
300.0000   0.0006079998   1.5331050642 
310.0000   0.0009014649   20.0803330354 
320.0000   0.0005830484   42.6139535761 
330.0000   0.0005970916   61.7921513826 
340.0000   0.0006520110   83.5536823067 
350.0000   0.0007063344   98.9834041602 
360.0000   0.0007782088   116.3295265116 
370.0000   0.0008473976   137.4902611094 
380.0000   0.0009281750   154.9436326509 
390.0000   0.0009817577   173.7136495219 
400.0000   0.0010425038   -169.1778386009 
410.0000   0.0007244213   177.7431367649 
420.0000   0.0011162846   -137.9906605081 
430.0000   0.0013018039   -124.1446080950 
440.0000   0.0012217083   -107.9239042004 
450.0000   0.0012502777   -91.0519456681 
460.0000   0.0012733721   -75.7796484233 
470.0000   0.0013283343   -59.0093407887 
480.0000   0.0013354258   -42.5222423709 
490.0000   0.0013294658   -24.4271208434 
500.0000   0.0012537346   -8.0909954875 
510.0000   0.0012567751   12.5714646688 
520.0000   0.0012453858   33.7259663936 
530.0000   0.0012813138   45.4973248355 
540.0000   0.0012839351   72.5527025163 
550.0000   0.0013953133   97.9184709892 
560.0000   0.0013641295   115.1723476075 
570.0000   0.0014825054   136.2037616592 
580.0000   0.0015655179   155.4925235896 
590.0000   0.0017199322   174.7440624260 
600.0000   0.0019171249   -166.6018871167 
610.0000   0.0020988252   -148.9291451153 
620.0000   0.0022866858   -131.9224711376 
630.0000   0.0024205226   -115.3984047354 
640.0000   0.0025250059   -99.2399442567 
650.0000   0.0026898004   -82.1023804071 
660.0000   0.0026176039   -64.7844861769 
670.0000   0.0024288270   -48.2527405309 
680.0000   0.0026276758   -28.5459227471 
690.0000   0.0025753143   -11.3208370717 
700.0000   0.0025522344   6.2977875181 
710.0000   0.0024476349   23.1318678316 
720.0000   0.0023166060   42.2577789393 
730.0000   0.0021935604   61.0401946813 
740.0000   0.0020447479   82.7084713161 
750.0000   0.0019518124   104.0095041324 
760.0000   0.0019087735   126.9653315091 
770.0000   0.0019816849   151.0115073227 
780.0000   0.0019041266   171.2131005188 
790.0000   0.0019997456   -167.7016737847 
800.0000   0.0019583982   -147.4136999427 
810.0000   0.0020219763   -126.7891437015 
820.0000   0.0021290984   -107.3239398830 
830.0000   0.0021987785   -88.0283917368 
840.0000   0.0022706887   -69.7713998911 
850.0000   0.0023301512   -52.2406127401 
860.0000   0.0023522148   -34.5636554765 
870.0000   0.0023592905   -15.9361699480 
880.0000   0.0023233328   3.4368399606 
890.0000   0.0022229663   19.6061425245 
900.0000   0.0023080418   39.6813554092 
910.0000   0.0022966291   60.3483357289 
920.0000   0.0022531151   76.8570276454 
930.0000   0.0022490829   95.7371889953 
940.0000   0.0022135812   114.2270425844 
950.0000   0.0021823852   132.5342551842 
960.0000   0.0021720142   152.2504293673 
970.0000   0.0021777052   171.9133314738 
980.0000   0.0021821466   -167.3269992307 
990.0000   0.0022481559   -147.1978581443 
1000.0000   0.0023180087   -127.0509675584 
1010.0000   0.0025213669   -106.7233338996 
1020.0000   0.0025007402   -90.1079866809 
1030.0000   0.0026122268   -72.6951342311 
1040.0000   0.0026652712   -55.7698749778 
1050.0000   0.0027167890   -37.9463184223 
1060.0000   0.0027239917   -21.0987728634 
1070.0000   0.0026707273   -4.7563143242 
1080.0000   0.0026373742   12.6824755936 
1090.0000   0.0025418990   29.8621719483 
1100.0000   0.0024392125   47.8826022623 
1110.0000   0.0023739477   66.8131044068 
1120.0000   0.0023376818   85.9346083787 
1130.0000   0.0022700850   106.4091239035 
1140.0000   0.0023108979   124.4343013573 
1150.0000   0.0023169199   142.0819615920 
1160.0000   0.0022599511   161.1027736461 
1170.0000   0.0022569483   179.7730880177 
1180.0000   0.0022661889   -162.4172962769 
1190.0000   0.0022851242   -144.3988774432 
1200.0000   0.0022933327   -125.2500024148 
1210.0000   0.0023204977   -107.9542769650 
1220.0000   0.0023753045   -89.8506202889 
1230.0000   0.0023825573   -73.0592041926 
1240.0000   0.0024216744   -55.5445257176 
1250.0000   0.0024015856   -38.7560193720 
1260.0000   0.0024526124   -20.9661065522 
1270.0000   0.0025021635   -2.9774986140 
1280.0000   0.0025131277   13.6879165099 
1290.0000   0.0025309285   30.6549876118 
1300.0000   0.0025511982   47.5377399325 
1310.0000   0.0025796973   64.7474641548 
1320.0000   0.0025326684   82.4395304723 
1330.0000   0.0025136031   99.9865922438 
1340.0000   0.0024837947   118.1732585534 
1350.0000   0.0024873836   136.5846319186 
1360.0000   0.0025012402   155.3728044211 
1370.0000   0.0025380812   174.1786004837 
1380.0000   0.0025776754   -167.7495919454 
1390.0000   0.0025798220   -150.5629485847 
1400.0000   0.0026697016   -132.6371870636 
1410.0000   0.0026749004   -115.2624477428 
1420.0000   0.0026976884   -97.1224933761 
1430.0000   0.0026812882   -80.0178307592 
1440.0000   0.0026442623   -63.3127343234 
1450.0000   0.0025739916   -46.8095665867 
1460.0000   0.0025111065   -30.6881547655 
1470.0000   0.0024428646   -12.9831138280 
1480.0000   0.0024079530   3.5092694053 
1490.0000   0.0024610794   21.1606218026 
1500.0000   0.0024479229   40.7232945421 
1510.0000   0.0024383344   59.7816364587 
1520.0000   0.0024721011   78.5549662753 
1530.0000   0.0025184990   97.8613771513 
1540.0000   0.0026022950   118.4708154670 
1550.0000   0.0026974980   138.8006911323 
1560.0000   0.0027799296   158.6375497013 
1570.0000   0.0028492650   178.4391789061 
1580.0000   0.0029203840   -161.6612990224 
1590.0000   0.0029591066   -141.5980150442 
1600.0000   0.0030239597   -121.4048229698 
1610.0000   0.0030024982   -100.1092013734 
1620.0000   0.0030743816   -80.1334649797 
1630.0000   0.0030137299   -58.7907673965 
1640.0000   0.0030729708   -38.3932861705 
1650.0000   0.0031057202   -17.1961968751 
1660.0000   0.0031392099   3.7573571675 
1670.0000   0.0032275531   24.7872030574 
1680.0000   0.0033367877   46.0757292556 
1690.0000   0.0034643346   66.1536512169 
1700.0000   0.0036341237   85.8164625060 
1710.0000   0.0038378172   104.7103602194 
1720.0000   0.0039969444   123.1343457432 
1730.0000   0.0042435670   139.8997548673 
1740.0000   0.0043352781   157.2433931247 
1750.0000   0.0044587841   173.2492789927 
1760.0000   0.0045387029   -170.7367316581 
1770.0000   0.0045882395   -155.0794157018 
1780.0000   0.0045517186   -139.5864401809 
1790.0000   0.0044590324   -124.0808943795 
1800.0000   0.0043288147   -108.7313956348 
1810.0000   0.0041295928   -93.2470947852 
1820.0000   0.0038824550   -77.7817608807 
1830.0000   0.0036647253   -62.4127215729 
1840.0000   0.0034318281   -46.0630264703 
1850.0000   0.0031961715   -29.4893979118 
1860.0000   0.0029208760   -10.4910585922 
1870.0000   0.0026981418   8.7114844572 
1880.0000   0.0024193933   29.1681439929 
1890.0000   0.0022162710   51.1720798078 
1900.0000   0.0020303062   73.5027265284 
1910.0000   0.0019178340   97.8311643274 
1920.0000   0.0019062286   123.3228256442 
1930.0000   0.0019377971   148.6804997841 
1940.0000   0.0020700769   171.8611149060 
1950.0000   0.0022599367   -167.0202242719 
1960.0000   0.0024375061   -147.5882828137 
1970.0000   0.0026890209   -129.3770962001 
1980.0000   0.0028517700   -112.1913029017 
1990.0000   0.0030310008   -93.9166591570 
2000.0000   0.0031995044   -77.1270267490 
2010.0000   0.0033311230   -59.3250346998 
2020.0000   0.0033817667   -41.4055863708 
2030.0000   0.0033972078   -24.3574529354 
2040.0000   0.0033616090   -7.5829193999 
2050.0000   0.0032471211   9.0138093330 
2060.0000   0.0031131099   26.0504196525 
2070.0000   0.0029481873   43.1270744209 
2080.0000   0.0027421385   61.3612870046 
2090.0000   0.0025387217   79.6017839616 
2100.0000   0.0024134970   99.0397530717 
2110.0000   0.0022919997   119.1172323769 
2120.0000   0.0022669438   140.2027530551 
2130.0000   0.0023197940   159.7527878175 
2140.0000   0.0023837968   179.4595431165 
2150.0000   0.0025240347   -162.9851468471 
2160.0000   0.0026243524   -146.0557899258 
2170.0000   0.0027251389   -130.0360040986 
2180.0000   0.0028011279   -114.6729619936 
2190.0000   0.0028198089   -99.5633364145 
2200.0000   0.0028009444   -81.0574274664 
2210.0000   0.0028121889   -66.7465222305 
2220.0000   0.0027383944   -51.2673591097 
2230.0000   0.0026862947   -36.3361574707 
2240.0000   0.0024865164   -18.8987133589 
2250.0000   0.0023523504   -2.4382983544 
2260.0000   0.0022191907   16.2774470935 
2270.0000   0.0020782588   35.2819385979 
2280.0000   0.0020239631   55.4021225602 
2290.0000   0.0019404032   76.7770277350 
2300.0000   0.0019494615   98.5816948762 
2310.0000   0.0019763171   119.5318277504 
2320.0000   0.0020399554   140.6092954597 
2330.0000   0.0021390161   159.6148280258 
2340.0000   0.0022193435   177.8725283114 
2350.0000   0.0023264331   -164.3705152189 
2360.0000   0.0023939078   -148.4166071476 
2370.0000   0.0024408129   -131.6795158978 
2380.0000   0.0024623282   -115.5490895401 
2390.0000   0.0024621568   -98.8746571468 
2400.0000   0.0024500312   -83.2663334917 
2410.0000   0.0023977886   -66.5703441313 
2420.0000   0.0023076844   -49.9014864159 
2430.0000   0.0022127078   -33.4003989755 
2440.0000   0.0021399950   -16.5863496607 
2450.0000   0.0020778013   0.5000085143 
2460.0000   0.0020001743   18.1659923485 
2470.0000   0.0019155031   36.3040620510 
2480.0000   0.0018690865   55.5417407727 
2490.0000   0.0018076492   74.2157590095 
2500.0000   0.0018052318   92.6210356634 
2510.0000   0.0018109542   110.7727917697 
2520.0000   0.0018702971   129.8202037235 
2530.0000   0.0019185824   147.4570654652 
2540.0000   0.0019745383   165.8315030508 
2550.0000   0.0020228486   -176.9013232241 
2560.0000   0.0020704027   -159.9676149629 
2570.0000   0.0021025557   -143.5472476120 
2580.0000   0.0021275726   -127.2762737102 
2590.0000   0.0021491542   -111.4485265203 
2600.0000   0.0021545957   -95.6802246814 
2610.0000   0.0021714310   -79.3493347225 
2620.0000   0.0021424225   -63.1185881250 
2630.0000   0.0021390171   -46.2731623296 
2640.0000   0.0021304305   -27.8459267710 
2650.0000   0.0021015164   -9.5045800798 
2660.0000   0.0020825333   8.8774250361 
2670.0000   0.0021260010   26.8372460579 
2680.0000   0.0021790916   45.6839729137 
2690.0000   0.0022022368   64.9085406006 
2700.0000   0.0022667487   83.6788292306 
2710.0000   0.0023411870   101.8700756392 
2720.0000   0.0023921466   119.4980006680 
2730.0000   0.0024590713   136.5416547980 
2740.0000   0.0025202549   153.6970236023 
2750.0000   0.0025871690   170.5630620809 
2760.0000   0.0025915781   -172.1458148128 
2770.0000   0.0025625516   -155.7701257276 
2780.0000   0.0025456926   -138.2033378975 
2790.0000   0.0025203539   -120.2764283719 
2800.0000   0.0025128481   -101.9706377749 
2810.0000   0.0024998014   -82.4223957390 
2820.0000   0.0024639466   -63.8707724313 
2830.0000   0.0025338369   -44.3629968218 
2840.0000   0.0025975527   -19.9818154534 
2850.0000   0.0027196362   -0.5524507458 
2860.0000   0.0028351193   18.2991824760 
2870.0000   0.0029494487   37.2672172848 
2880.0000   0.0030503398   54.8739028883 
2890.0000   0.0030972482   79.1299097651 
2900.0000   0.0033230865   96.0624335722 
2910.0000   0.0035093341   112.6498274328 
2920.0000   0.0036297110   128.9382327351 
2930.0000   0.0036971808   144.2262436410 
2940.0000   0.0036808332   159.6839474851 
2950.0000   0.0036274394   175.2098141065 
2960.0000   0.0034839940   -168.9560840063 
2970.0000   0.0032921921   -152.7771448491 
2980.0000   0.0030506904   -135.5903101867 
2990.0000   0.0028002475   -117.1105471257 
3000.0000   0.0025203677   -96.4844742614 
3010.0000   0.0022385395   -73.9368878280 
3020.0000   0.0020058650   -48.5494601925 
3030.0000   0.0018839155   -21.9383026893 
3040.0000   0.0019066842   5.4349530651 
3050.0000   0.0020344193   31.8425746922 
3060.0000   0.0022572898   56.7659265698 
3070.0000   0.0025517501   77.5744752379 
3080.0000   0.0027947606   96.8469643269 
3090.0000   0.0030084344   113.8901102905 
3100.0000   0.0031899209   129.5770530583 
3110.0000   0.0033652224   144.6847368264 
3120.0000   0.0034648657   159.0736182639 
3130.0000   0.0034624465   173.1133449046 
3140.0000   0.0034151137   -173.1028390422 
3150.0000   0.0032713742   -159.3445973250 
3160.0000   0.0031422712   -145.3383097945 
3170.0000   0.0029111835   -131.0184909045 
3180.0000   0.0026091725   -116.2181376520 
3190.0000   0.0023323821   -99.6916100357 
3200.0000   0.0019846066   -82.0970565268 
3210.0000   0.0017184382   -59.4484497959 
3220.0000   0.0014984619   -34.7150552766 
3230.0000   0.0014088496   -4.1862724658 
3240.0000   0.0014866528   26.7980078819 
3250.0000   0.0017428269   52.5261545007 
3260.0000   0.0020771197   73.9414322693 
3270.0000   0.0023882798   91.8814323064 
3280.0000   0.0027244846   107.0616407386 
3290.0000   0.0030147026   120.5795067976 
3300.0000   0.0032651176   134.2335217626 
3310.0000   0.0034508299   147.5227587578 
3320.0000   0.0035200337   160.2613307419 
3330.0000   0.0035384729   173.4345777574 
3340.0000   0.0034228049   -173.0888058280 
3350.0000   0.0032577855   -159.5729741129 
3360.0000   0.0030654858   -144.3680505852 
3370.0000   0.0028310129   -130.2476603900 
3380.0000   0.0025553379   -114.0532652811 
3390.0000   0.0022822497   -96.9169826720 
3400.0000   0.0020254564   -77.2857644754 
3410.0000   0.0017760903   -55.7814753943 
3420.0000   0.0016026486   -31.7103398878 
3430.0000   0.0014805021   -6.0003085148 
3440.0000   0.0014421277   19.7543772054 
3450.0000   0.0014467431   44.0325286486 
3460.0000   0.0014854846   66.5189576429 
3470.0000   0.0016012853   86.2424393581 
3480.0000   0.0016586279   105.8148711020 
3490.0000   0.0016994325   123.1558950003 
3500.0000   0.0017247029   140.7229467180 
3510.0000   0.0017502180   157.3925188628 
3520.0000   0.0017246252   172.6583586140 
3530.0000   0.0016690194   -169.4811114777 
3540.0000   0.0016524406   -151.5143431651 
3550.0000   0.0015840659   -133.3573241102 
3560.0000   0.0015655105   -115.8263290285 
3570.0000   0.0015453347   -97.5128472000 
3580.0000   0.0015736752   -77.6747937603 
3590.0000   0.0016371120   -56.8135204338 
3600.0000   0.0017356407   -37.1819439564 
3610.0000   0.0018711787   -18.9121188103 
3620.0000   0.0020072144   -2.8197385944 
3630.0000   0.0021312099   13.6492907633 
3640.0000   0.0021935958   26.4668166798 
3650.0000   0.0023236865   40.1704205280 
3660.0000   0.0024145741   53.9863145494 
3670.0000   0.0024849826   66.5815780191 
3680.0000   0.0024539971   79.4977397967 
3690.0000   0.0024024362   91.9805017556 
3700.0000   0.0019074611   104.4717015647 
3710.0000   0.0017285649   119.7032356887 
3720.0000   0.0014924576   135.7551885029 
3730.0000   0.0012535874   150.6364880697 
3740.0000   0.0010600168   166.9007489743 
3750.0000   0.0008431316   -172.6818671666 
3760.0000   0.0006656622   -143.9704490296 
3770.0000   0.0005987605   -103.8770189594 
3780.0000   0.0006840409   -65.8764407429 
3790.0000   0.0008414709   -36.6902213999 
3800.0000   0.0010744105   -14.5222189505 
3810.0000   0.0012970274   2.9636266890 
3820.0000   0.0014861161   16.7582111092 
3830.0000   0.0016977807   29.6648659352 
3840.0000   0.0018547198   41.4573779937 
3850.0000   0.0020076619   52.5729168069 
3860.0000   0.0020997230   62.8076421092 
3870.0000   0.0021893231   73.4030839373 
3880.0000   0.0021935327   84.2081323171 
3890.0000   0.0021553447   94.7164268386 
3900.0000   0.0021152452   106.1916910914 
3910.0000   0.0020120991   117.2782697637 
3920.0000   0.0018381063   128.0142700765 
3930.0000   0.0016455104   139.6844096239 
3940.0000   0.0014244138   151.9315597218 
3950.0000   0.0012116253   165.7514341024 
3960.0000   0.0009748100   -177.6917321917 
3970.0000   0.0007351654   -154.2877058109 
3980.0000   0.0005462689   -121.1906215925 
3990.0000   0.0004877439   -73.4583948374 
4000.0000   0.0006228014   -30.1707796383 
4010.0000   0.0007802832   -4.0025193561 
4020.0000   0.0009560693   12.1486880028 
4030.0000   0.0011416968   25.3943404083 
4040.0000   0.0013391119   36.5332600367 
4050.0000   0.0014761252   49.8459503392 
4060.0000   0.0015905346   62.6131137547 
4070.0000   0.0015694364   74.8559594559 
4080.0000   0.0015177802   85.6306480847 
4090.0000   0.0014226717   94.0514643580 
4100.0000   0.0013272754   101.4024607076 
4110.0000   0.0012023035   109.0913360383 
4120.0000   0.0010798501   118.7262208351 
4130.0000   0.0009058200   128.2355963653 
4140.0000   0.0006834220   137.7730286761 
4150.0000   0.0004068747   146.7767400310 
4160.0000   0.0001557750   141.7247478845 
4170.0000   0.0001502452   11.1184230210 
4180.0000   0.0004269676   1.8577377251 
4190.0000   0.0006888316   8.5610378340 
4200.0000   0.0009208846   16.5415941553 
4210.0000   0.0011949565   22.5542483837 
4220.0000   0.0014403251   30.4638325672 
4230.0000   0.0016969822   37.3670393044 
4240.0000   0.0019201056   45.9348888504 
4250.0000   0.0021094977   54.1149337877 
4260.0000   0.0022496282   62.1990254120 
4270.0000   0.0023514304   72.1008604836 
4280.0000   0.0024220738   79.7667243634 
4290.0000   0.0023924124   88.3509378499 
4300.0000   0.0023164323   95.5571473914 
4310.0000   0.0022089769   103.5480852242 
4320.0000   0.0020836065   110.9066390362 
4330.0000   0.0018292856   117.8661408759 
4340.0000   0.0015939245   124.5525870984 
4350.0000   0.0013087887   127.8817298915 
4360.0000   0.0009992240   127.2928411713 
4370.0000   0.0007483094   116.2809893842 
4380.0000   0.0006147373   96.5602091780 
4390.0000   0.0006884022   72.5588322636 
