! 140 4400 10
# MHz S MA R 50.0
!freq ReS11 ImS11
140.0000   0.0005664001   -93.7230795642 
150.0000   0.0006641332   -92.7002984435 
160.0000   0.0006969032   -86.2955920765 
170.0000   0.0004181604   -89.3741699051 
180.0000   0.0007942451   -68.9326068813 
190.0000   0.0010909668   -40.0485273127 
200.0000   0.0008674442   -57.9934529931 
210.0000   0.0009207294   -52.8280207732 
220.0000   0.0010010492   -49.1460830564 
230.0000   0.0010711634   -41.1769690366 
240.0000   0.0011101670   -37.1196180691 
250.0000   0.0012271707   -31.7286313546 
260.0000   0.0012835553   -26.0144462929 
270.0000   0.0013572586   -15.7005510757 
280.0000   0.0013936883   -8.7618925411 
290.0000   0.0015693971   10.0623135056 
300.0000   0.0015051313   7.8416943494 
310.0000   0.0008320431   -8.4240659155 
320.0000   0.0015662313   22.3748477270 
330.0000   0.0016299310   27.8932659350 
340.0000   0.0016559626   36.1177914147 
350.0000   0.0017099341   42.4121870323 
360.0000   0.0017777169   49.6896799725 
370.0000   0.0018329858   56.7773811588 
380.0000   0.0018750491   63.0592445765 
390.0000   0.0019179249   70.5990056351 
400.0000   0.0019733835   76.0944030464 
410.0000   0.0027950787   97.7155418139 
420.0000   0.0021047766   90.5731528204 
430.0000   0.0026343474   103.4802415793 
440.0000   0.0021865391   105.0793081990 
450.0000   0.0022506560   111.9733767108 
460.0000   0.0023029920   118.8975622943 
470.0000   0.0023319302   124.6743746141 
480.0000   0.0023770099   131.8278009860 
490.0000   0.0024363470   138.2574336112 
500.0000   0.0025057782   145.1916894838 
510.0000   0.0025428566   150.7547836983 
520.0000   0.0026318354   156.6432667344 
530.0000   0.0024801124   157.8659257828 
540.0000   0.0027722756   169.2422477342 
550.0000   0.0028592346   174.8336305466 
560.0000   0.0029356576   -178.0615884054 
570.0000   0.0030561704   -172.5155486382 
580.0000   0.0032202213   -166.5257764922 
590.0000   0.0034324421   -160.2908652819 
600.0000   0.0036864433   -154.6874115392 
610.0000   0.0038985623   -148.6600463240 
620.0000   0.0041309901   -142.8135018052 
630.0000   0.0043741995   -136.3734225891 
640.0000   0.0045962923   -129.6608989010 
650.0000   0.0048053393   -122.2370140118 
660.0000   0.0049844018   -115.5862259978 
670.0000   0.0049753498   -107.6704476893 
680.0000   0.0053413053   -99.5829519921 
690.0000   0.0054897681   -91.6107588128 
700.0000   0.0056647961   -83.3699548562 
710.0000   0.0057808690   -75.4765613074 
720.0000   0.0058910123   -67.6969293279 
730.0000   0.0059742027   -59.9849567361 
740.0000   0.0060586302   -52.1254656857 
750.0000   0.0060988782   -44.6307219717 
760.0000   0.0061207236   -36.6844813691 
770.0000   0.0061999547   -30.2167562690 
780.0000   0.0061814289   -21.4704250010 
790.0000   0.0061417547   -13.9623269717 
800.0000   0.0061529491   -6.3557468615 
810.0000   0.0061040436   0.5454538111 
820.0000   0.0060211292   7.3583347452 
830.0000   0.0059391900   13.9112727422 
840.0000   0.0058170220   20.1901839697 
850.0000   0.0056933661   26.4643614823 
860.0000   0.0055935340   32.3424853765 
870.0000   0.0055062642   38.3961732160 
880.0000   0.0054962928   44.2977577940 
890.0000   0.0054127734   49.4488324368 
900.0000   0.0053772739   55.4264397622 
910.0000   0.0053607230   60.0435933171 
920.0000   0.0054171956   65.8091144733 
930.0000   0.0054796244   71.4502354625 
940.0000   0.0055590311   76.8905634994 
950.0000   0.0056948201   82.3904929679 
960.0000   0.0058082642   87.9745304579 
970.0000   0.0059337060   94.2801735965 
980.0000   0.0060982118   100.5578470488 
990.0000   0.0062090232   107.4793951013 
1000.0000   0.0063298930   114.4737841093 
1010.0000   0.0064800788   123.2819741027 
1020.0000   0.0065296567   129.5701071108 
1030.0000   0.0066403254   137.3365912872 
1040.0000   0.0066758862   144.9548839154 
1050.0000   0.0067432701   152.4507500481 
1060.0000   0.0067804157   160.3361461292 
1070.0000   0.0068217726   167.8742861474 
1080.0000   0.0068764863   175.7049449331 
1090.0000   0.0068989932   -176.7103781428 
1100.0000   0.0069067522   -169.2244288278 
1110.0000   0.0068622025   -161.9728900050 
1120.0000   0.0068150961   -154.9708981927 
1130.0000   0.0066736730   -148.6356957769 
1140.0000   0.0066154010   -141.9813974937 
1150.0000   0.0064957684   -136.3274378387 
1160.0000   0.0063651131   -129.6665751891 
1170.0000   0.0061981890   -124.0479579202 
1180.0000   0.0060462008   -118.5073685880 
1190.0000   0.0058368907   -113.5643142935 
1200.0000   0.0057161568   -108.7045265631 
1210.0000   0.0055936101   -104.5673296026 
1220.0000   0.0054909765   -100.5191766962 
1230.0000   0.0054486710   -96.3042260127 
1240.0000   0.0054180493   -92.8091526188 
1250.0000   0.0054603957   -88.6099033683 
1260.0000   0.0055511008   -85.4381020957 
1270.0000   0.0056889610   -81.4476073024 
1280.0000   0.0058804419   -76.5838563045 
1290.0000   0.0061472928   -71.5169985878 
1300.0000   0.0064175336   -66.2750859163 
1310.0000   0.0067038419   -60.9474137443 
1320.0000   0.0070339483   -55.0887136618 
1330.0000   0.0073397089   -48.9201996059 
1340.0000   0.0076067099   -42.6969180575 
1350.0000   0.0079312279   -35.9440950620 
1360.0000   0.0081747676   -29.0545482498 
1370.0000   0.0084379410   -21.8989813166 
1380.0000   0.0085988520   -14.2399865972 
1390.0000   0.0088215510   -6.4968606949 
1400.0000   0.0088268067   1.8288110560 
1410.0000   0.0088605484   10.1906264918 
1420.0000   0.0089425885   18.7285541770 
1430.0000   0.0089403702   27.1401480874 
1440.0000   0.0088643556   36.1858306569 
1450.0000   0.0087487522   44.8319016168 
1460.0000   0.0085825319   53.6792587566 
1470.0000   0.0083409987   62.3597510003 
1480.0000   0.0081161422   70.8521488563 
1490.0000   0.0078779801   78.5398745018 
1500.0000   0.0076075108   86.6552067256 
1510.0000   0.0073205144   93.8212458475 
1520.0000   0.0070619908   100.9954946448 
1530.0000   0.0068043731   107.1513978123 
1540.0000   0.0065226217   112.7942946591 
1550.0000   0.0063083260   117.7609970617 
1560.0000   0.0061613118   122.1871971325 
1570.0000   0.0060377910   126.7005818299 
1580.0000   0.0060152663   131.0423600819 
1590.0000   0.0060522503   134.9225288694 
1600.0000   0.0061850609   138.9600075067 
1610.0000   0.0064402564   144.0038261906 
1620.0000   0.0067218980   148.6037371926 
1630.0000   0.0071046246   153.8851884985 
1640.0000   0.0075074009   160.5885294881 
1650.0000   0.0079689576   167.5326627045 
1660.0000   0.0084731707   174.9610724332 
1670.0000   0.0089771766   -177.1759833375 
1680.0000   0.0094335394   -168.8717974039 
1690.0000   0.0098295807   -160.2684610479 
1700.0000   0.0102352069   -151.5140710922 
1710.0000   0.0105090919   -142.6467368081 
1720.0000   0.0107202061   -133.4257263929 
1730.0000   0.0108914277   -124.1640528954 
1740.0000   0.0109180203   -115.2265867796 
1750.0000   0.0108586837   -106.1283200039 
1760.0000   0.0107548022   -97.4809507820 
1770.0000   0.0105723354   -88.9346782639 
1780.0000   0.0103196301   -80.4466770908 
1790.0000   0.0099820756   -72.1692077485 
1800.0000   0.0095771700   -64.1366081204 
1810.0000   0.0091528396   -56.9053062368 
1820.0000   0.0086870667   -50.1044906411 
1830.0000   0.0082171743   -43.7479490410 
1840.0000   0.0077722473   -37.5341605668 
1850.0000   0.0073808931   -33.2589767164 
1860.0000   0.0069394802   -28.2848513772 
1870.0000   0.0065573028   -24.7840246374 
1880.0000   0.0063246083   -22.4799282693 
1890.0000   0.0061605679   -20.4568048964 
1900.0000   0.0061389358   -18.6418200589 
1910.0000   0.0062124468   -16.9047821181 
1920.0000   0.0063752966   -14.8624323274 
1930.0000   0.0066333914   -11.8892251349 
1940.0000   0.0069540917   -8.2413002203 
1950.0000   0.0073030305   -3.6447443970 
1960.0000   0.0076263624   1.7654222176 
1970.0000   0.0079830057   7.6500089871 
1980.0000   0.0082750035   13.9793916904 
1990.0000   0.0086163559   20.8173411308 
2000.0000   0.0089226014   27.7546396049 
2010.0000   0.0092175323   35.6370768797 
2020.0000   0.0094978338   44.1014365231 
2030.0000   0.0096734197   53.2009990772 
2040.0000   0.0097215894   63.1337268516 
2050.0000   0.0096305094   73.3451135388 
2060.0000   0.0094254578   83.6450964087 
2070.0000   0.0091225795   93.9487538012 
2080.0000   0.0087619177   104.2126359283 
2090.0000   0.0083328355   114.3493015239 
2100.0000   0.0078655645   124.4523657547 
2110.0000   0.0073792441   134.0029246826 
2120.0000   0.0068975484   143.1570214829 
2130.0000   0.0063801318   152.1120387771 
2140.0000   0.0059030505   160.6402026073 
2150.0000   0.0054430165   168.4746637554 
2160.0000   0.0049762862   175.6428414339 
2170.0000   0.0045320337   -177.8561017632 
2180.0000   0.0040840261   -172.6227673210 
2190.0000   0.0036707633   -168.7757519681 
2200.0000   0.0032475704   -165.1793193597 
2210.0000   0.0030468689   -164.1551642909 
2220.0000   0.0029174675   -165.3487932782 
2230.0000   0.0029457775   -167.2689889544 
2240.0000   0.0030669500   -168.8545360554 
2250.0000   0.0033526102   -168.9858385249 
2260.0000   0.0036984421   -166.6904716997 
2270.0000   0.0041068207   -163.2261492136 
2280.0000   0.0045075826   -157.8625771568 
2290.0000   0.0049525235   -151.4341942079 
2300.0000   0.0053627380   -144.5011196439 
2310.0000   0.0057647262   -136.2808896413 
2320.0000   0.0061322283   -128.0744568210 
2330.0000   0.0064249209   -119.3676190092 
2340.0000   0.0066998598   -110.0379722357 
2350.0000   0.0068931320   -100.1986446682 
2360.0000   0.0070102701   -90.3748490970 
2370.0000   0.0070587830   -80.5192401285 
2380.0000   0.0070741628   -70.5394179990 
2390.0000   0.0070463033   -60.5871384400 
2400.0000   0.0069163805   -50.2542607928 
2410.0000   0.0067362554   -40.1870286715 
2420.0000   0.0065057592   -30.1418320758 
2430.0000   0.0062738209   -20.3663763861 
2440.0000   0.0059879979   -10.6982168986 
2450.0000   0.0056671080   -1.3650617370 
2460.0000   0.0052824621   8.0455583824 
2470.0000   0.0049303563   17.0583762367 
2480.0000   0.0044633781   25.5986240039 
2490.0000   0.0040558293   33.1302488978 
2500.0000   0.0036017987   39.8451185750 
2510.0000   0.0031642601   45.5655353893 
2520.0000   0.0027759849   50.1388248170 
2530.0000   0.0024168512   51.8247747252 
2540.0000   0.0021011475   50.2923619079 
2550.0000   0.0018917091   46.1118496466 
2560.0000   0.0018442222   38.1245632859 
2570.0000   0.0020058007   31.8742294888 
2580.0000   0.0023151359   28.8021981906 
2590.0000   0.0027492309   28.0229880461 
2600.0000   0.0032334085   31.3221504311 
2610.0000   0.0037532340   36.3033715352 
2620.0000   0.0042720791   42.9781909689 
2630.0000   0.0048553026   50.0229566332 
2640.0000   0.0053985822   57.7776677242 
2650.0000   0.0059480441   66.5429878828 
2660.0000   0.0064550864   75.4893273918 
2670.0000   0.0069183964   84.9001772580 
2680.0000   0.0073210460   94.5818286595 
2690.0000   0.0076774133   103.5509685782 
2700.0000   0.0079961169   113.4303328759 
2710.0000   0.0082418975   123.0417042345 
2720.0000   0.0083852540   132.9700607083 
2730.0000   0.0084483179   142.7417843303 
2740.0000   0.0084199142   152.2500909077 
2750.0000   0.0083042051   161.6492036831 
2760.0000   0.0080970366   171.2895046183 
2770.0000   0.0078108368   -179.4748270521 
2780.0000   0.0074502678   -170.5617594286 
2790.0000   0.0069638276   -161.8383667972 
2800.0000   0.0064157126   -153.3458535463 
2810.0000   0.0057743776   -145.5787096686 
2820.0000   0.0051153860   -138.3414481399 
2830.0000   0.0044316334   -132.5826841360 
2840.0000   0.0036949775   -124.5487136470 
2850.0000   0.0030512566   -124.5489024331 
2860.0000   0.0025060813   -130.3841725922 
2870.0000   0.0023021148   -142.2491702551 
2880.0000   0.0025316623   -154.4472622791 
2890.0000   0.0036189660   -159.5518146057 
2900.0000   0.0043801399   -159.5267942436 
2910.0000   0.0052364002   -156.0019241620 
2920.0000   0.0060899480   -149.6775958518 
2930.0000   0.0069903582   -142.5059449761 
2940.0000   0.0078238382   -133.4056035587 
2950.0000   0.0085407453   -123.9116177164 
2960.0000   0.0092161308   -113.6629159594 
2970.0000   0.0098318188   -103.4481681839 
2980.0000   0.0103706823   -92.5119428257 
2990.0000   0.0107781839   -80.8203982677 
3000.0000   0.0110632140   -68.9303761257 
3010.0000   0.0111772560   -57.2219356038 
3020.0000   0.0111253273   -45.3191275908 
3030.0000   0.0109923750   -33.5407459343 
3040.0000   0.0107838384   -21.3048486078 
3050.0000   0.0104485326   -9.4235817862 
3060.0000   0.0099595492   2.7966709956 
3070.0000   0.0094219450   15.0141364596 
3080.0000   0.0087886098   26.7939527044 
3090.0000   0.0080930103   38.4827275071 
3100.0000   0.0073237694   49.9288998648 
3110.0000   0.0064358994   61.1639125434 
3120.0000   0.0056000093   71.4089371318 
3130.0000   0.0047918106   80.8215966579 
3140.0000   0.0039118256   89.3872591653 
3150.0000   0.0030336014   94.8754185427 
3160.0000   0.0021994824   96.7139857452 
3170.0000   0.0015624595   86.8553696826 
3180.0000   0.0013500322   63.3954635470 
3190.0000   0.0016703906   41.3347881600 
3200.0000   0.0022598987   34.4213496064 
3210.0000   0.0030867880   35.0672247245 
3220.0000   0.0038964813   40.2546678167 
3230.0000   0.0047542376   47.8610729187 
3240.0000   0.0055556020   56.9371714060 
3250.0000   0.0063369780   65.7176085458 
3260.0000   0.0070876741   75.1429431573 
3270.0000   0.0077290184   84.4324918284 
3280.0000   0.0083415794   93.8878861465 
3290.0000   0.0088886861   103.1357999816 
3300.0000   0.0093105690   113.0899398881 
3310.0000   0.0096156423   123.2373381539 
3320.0000   0.0097432265   133.2620728804 
3330.0000   0.0097778034   143.3861137561 
3340.0000   0.0095881371   153.5830941259 
3350.0000   0.0093206073   163.5454089299 
3360.0000   0.0089288792   174.0196067609 
3370.0000   0.0084575116   -176.1151018381 
3380.0000   0.0078447006   -165.9013314224 
3390.0000   0.0071182879   -155.9952651270 
3400.0000   0.0063218831   -146.2379768534 
3410.0000   0.0054893986   -137.1824516745 
3420.0000   0.0046263113   -128.3556196778 
3430.0000   0.0037233208   -120.6687347509 
3440.0000   0.0028682134   -115.5564331253 
3450.0000   0.0020408876   -116.2930174082 
3460.0000   0.0013642833   -127.3066174012 
3470.0000   0.0011812118   -156.6611149653 
3480.0000   0.0015914776   -177.3268700820 
3490.0000   0.0022084670   177.4370167418 
3500.0000   0.0029123999   179.9723171505 
3510.0000   0.0036337118   -174.5370285488 
3520.0000   0.0042909563   -166.4990080725 
3530.0000   0.0048921243   -156.9187925595 
3540.0000   0.0054645885   -146.6216504974 
3550.0000   0.0059603669   -135.9946059569 
3560.0000   0.0064266448   -125.5032288581 
3570.0000   0.0068275045   -115.5706252676 
3580.0000   0.0072017587   -104.4012274717 
3590.0000   0.0075263170   -93.3128083527 
3600.0000   0.0077920999   -81.2238910567 
3610.0000   0.0080216800   -70.3016281330 
3620.0000   0.0081738431   -58.8215637928 
3630.0000   0.0082502538   -47.7720904673 
3640.0000   0.0081555288   -39.7667992364 
3650.0000   0.0081460451   -28.6733765480 
3660.0000   0.0080556121   -17.2042201587 
3670.0000   0.0078972460   -6.0836964983 
3680.0000   0.0075902302   4.8366493072 
3690.0000   0.0072012498   15.0936069470 
3700.0000   0.0064728776   21.2842756710 
3710.0000   0.0058711349   30.4688630398 
3720.0000   0.0052905280   39.1838153941 
3730.0000   0.0046071300   46.6882511774 
3740.0000   0.0039543242   53.3623669683 
3750.0000   0.0032629861   57.2179719872 
3760.0000   0.0026430165   57.3142531746 
3770.0000   0.0021656404   51.0095289706 
3780.0000   0.0019522537   38.8781028801 
3790.0000   0.0020764739   27.3639773534 
3800.0000   0.0024401331   20.4814677036 
3810.0000   0.0029840516   18.3477474509 
3820.0000   0.0035354886   20.4757568277 
3830.0000   0.0041235754   25.1081189440 
3840.0000   0.0046551668   32.1288770297 
3850.0000   0.0051604794   39.1770899286 
3860.0000   0.0056445430   47.1102663249 
3870.0000   0.0060575729   55.2633526741 
3880.0000   0.0063886787   64.2039275041 
3890.0000   0.0066814968   72.9128792236 
3900.0000   0.0069052922   82.7709970066 
3910.0000   0.0070510051   92.5997281770 
3920.0000   0.0071130206   102.3934304854 
3930.0000   0.0071756717   112.4733452851 
3940.0000   0.0071266204   122.9682382609 
3950.0000   0.0070103673   133.6935245689 
3960.0000   0.0068619184   145.2546070128 
3970.0000   0.0066322896   156.4311027712 
3980.0000   0.0063133981   168.0443230819 
3990.0000   0.0060171583   179.4900277030 
4000.0000   0.0057031881   -168.3076722204 
4010.0000   0.0053537699   -155.9639669030 
4020.0000   0.0049879731   -143.0396500656 
4030.0000   0.0045585843   -129.8639381691 
4040.0000   0.0041561081   -116.5770141268 
4050.0000   0.0037418916   -103.3800098770 
4060.0000   0.0033600340   -91.2911565416 
4070.0000   0.0030510892   -79.1240460554 
4080.0000   0.0027115071   -67.7462047098 
4090.0000   0.0024351646   -56.5909708650 
4100.0000   0.0021356763   -45.8116377499 
4110.0000   0.0018226348   -37.7782044943 
4120.0000   0.0015455184   -33.5756598966 
4130.0000   0.0013046108   -35.4763638288 
4140.0000   0.0011882323   -41.2738631031 
4150.0000   0.0012374992   -48.5314613874 
4160.0000   0.0014046935   -54.8331988621 
4170.0000   0.0017137777   -56.9940354833 
4180.0000   0.0020913839   -56.1506552049 
4190.0000   0.0025626877   -52.3484031263 
4200.0000   0.0030110966   -47.7992702598 
4210.0000   0.0035847826   -41.5715143551 
4220.0000   0.0041714839   -34.0860137015 
4230.0000   0.0047585678   -26.5255682217 
4240.0000   0.0053416776   -18.2105483196 
4250.0000   0.0059110271   -10.1624331054 
4260.0000   0.0064859428   -1.6366929841 
4270.0000   0.0069765179   6.8142676157 
4280.0000   0.0074901367   15.7545565761 
4290.0000   0.0078986244   24.4720572060 
4300.0000   0.0082810626   33.2092044751 
4310.0000   0.0085658759   41.7536199857 
4320.0000   0.0087656401   50.7455512454 
4330.0000   0.0088593269   58.9087184112 
4340.0000   0.0088347813   67.4908299104 
4350.0000   0.0087428960   75.9572518613 
4360.0000   0.0085441442   83.6299103498 
4370.0000   0.0082635127   90.9566239794 
4380.0000   0.0078855855   98.4129052094 
4390.0000   0.0074586267   104.8064954305 
