! 140 4400 10
# MHz S MA R 50.0
!freq ReS11 ImS11
140.0000   0.0158537115   62.0195021438 
150.0000   0.0137395751   90.0820673727 
160.0000   0.0113849670   124.9816962909 
170.0000   0.0093541480   171.0380718319 
180.0000   0.0090052038   -155.5117867156 
190.0000   0.0089000194   -114.7283333316 
200.0000   0.0095603744   -83.0665968003 
210.0000   0.0106267140   -49.5976420911 
220.0000   0.0119187911   -17.7600285426 
230.0000   0.0126427836   14.6792226331 
240.0000   0.0123904235   45.3833133435 
250.0000   0.0114354673   76.3315932528 
260.0000   0.0100545628   108.1702959060 
270.0000   0.0084549490   140.1473539808 
280.0000   0.0068474020   173.8565013053 
290.0000   0.0056157294   -150.4252259745 
300.0000   0.0051552490   -104.0312481826 
310.0000   0.0060400318   -54.8658447175 
320.0000   0.0066456507   -23.8860652272 
330.0000   0.0080719308   7.8988673779 
340.0000   0.0095101484   37.1362173974 
350.0000   0.0108612548   64.7303179542 
360.0000   0.0116979649   91.8887344623 
370.0000   0.0119055951   118.7941170180 
380.0000   0.0113126796   144.9013917001 
390.0000   0.0101996818   170.1564406226 
400.0000   0.0085678737   -164.9648809296 
410.0000   0.0069779454   -131.5163932652 
420.0000   0.0049308266   -111.1465457907 
430.0000   0.0037214569   -77.7890258971 
440.0000   0.0021594552   -14.0464354544 
450.0000   0.0028357492   53.5108156267 
460.0000   0.0044680504   95.1527951675 
470.0000   0.0061396895   125.2985185173 
480.0000   0.0075865929   152.8591471374 
490.0000   0.0085722786   179.3145590023 
500.0000   0.0089918084   -154.7012278190 
510.0000   0.0087320351   -128.8863455028 
520.0000   0.0079615250   -102.6755229247 
530.0000   0.0070624433   -74.7463024101 
540.0000   0.0054143044   -44.1302129054 
550.0000   0.0042596079   -5.0774414159 
560.0000   0.0038376579   42.6185610955 
570.0000   0.0045128049   90.6830311336 
580.0000   0.0061008638   128.5317462198 
590.0000   0.0079351214   158.6698368771 
600.0000   0.0099030175   -175.1197689963 
610.0000   0.0115425616   -150.9679039387 
620.0000   0.0126746231   -127.5785003688 
630.0000   0.0129904838   -105.2082090501 
640.0000   0.0125042833   -83.6810718395 
650.0000   0.0112634781   -63.4875017782 
660.0000   0.0093843459   -44.8375869479 
670.0000   0.0070160429   -30.3613070997 
680.0000   0.0048863844   -21.6078338590 
690.0000   0.0030925184   -32.4133126299 
700.0000   0.0032298652   -64.3756841119 
710.0000   0.0051238582   -72.7598201022 
720.0000   0.0073476252   -63.9059647810 
730.0000   0.0093570187   -49.0163512958 
740.0000   0.0109551625   -31.6459317787 
750.0000   0.0118927645   -12.6600054889 
760.0000   0.0121829506   7.0965759442 
770.0000   0.0116673538   27.1632285461 
780.0000   0.0107359069   46.3890150514 
790.0000   0.0092569641   65.6281045756 
800.0000   0.0073903953   84.5412595368 
810.0000   0.0053477050   102.3911172563 
820.0000   0.0032296168   120.1891499070 
830.0000   0.0012258906   136.0344162492 
840.0000   0.0005763027   -16.6279039852 
850.0000   0.0020601164   -4.8065275536 
860.0000   0.0032012331   10.3444866408 
870.0000   0.0039259825   24.8229718752 
880.0000   0.0042140761   36.3329351595 
890.0000   0.0041862789   46.2925447132 
900.0000   0.0041435828   50.1333969745 
910.0000   0.0043266265   48.3275682925 
920.0000   0.0050429955   47.9820116214 
930.0000   0.0062623094   51.7179665461 
940.0000   0.0078458794   60.0766202365 
950.0000   0.0094723963   72.5155622961 
960.0000   0.0110518992   87.3951727625 
970.0000   0.0122977973   103.9376191065 
980.0000   0.0130999084   121.7722249659 
990.0000   0.0132961535   140.6866845190 
1000.0000   0.0128314865   159.9732372065 
1010.0000   0.0117913220   179.3668319464 
1020.0000   0.0099145706   -161.9235021036 
1030.0000   0.0077222129   -144.8109076640 
1040.0000   0.0052475814   -130.4322681443 
1050.0000   0.0027061248   -127.4494087671 
1060.0000   0.0015898047   174.9144244613 
1070.0000   0.0036593119   149.2794991643 
1080.0000   0.0062811174   159.4235993367 
1090.0000   0.0087395393   176.4354285454 
1100.0000   0.0108384325   -164.4957378125 
1110.0000   0.0123576569   -143.3635885523 
1120.0000   0.0130889165   -120.7897401506 
1130.0000   0.0129117641   -97.1300465012 
1140.0000   0.0120833497   -72.4008388561 
1150.0000   0.0106173218   -45.3065294045 
1160.0000   0.0089667689   -15.7255598699 
1170.0000   0.0075318682   19.7047777998 
1180.0000   0.0069839672   61.0107351384 
1190.0000   0.0076854669   102.2913196639 
1200.0000   0.0094205188   137.7311287084 
1210.0000   0.0117766578   167.2664431338 
1220.0000   0.0144143469   -166.5601163286 
1230.0000   0.0169937486   -141.7919911123 
1240.0000   0.0191620045   -117.1326952719 
1250.0000   0.0205908988   -92.5107613784 
1260.0000   0.0209604224   -66.9985551660 
1270.0000   0.0199717824   -41.5008329022 
1280.0000   0.0177952699   -16.1788333728 
1290.0000   0.0147645704   9.2100123428 
1300.0000   0.0113125356   35.7123852584 
1310.0000   0.0077390247   66.5650003511 
1320.0000   0.0048380887   113.0539408943 
1330.0000   0.0045684832   -175.3689219632 
1340.0000   0.0073833546   -124.6066147781 
1350.0000   0.0111531326   -93.1593472678 
1360.0000   0.0151381528   -67.1116611071 
1370.0000   0.0190073178   -42.6699577350 
1380.0000   0.0222043136   -17.9190822516 
1390.0000   0.0245586294   7.2049577533 
1400.0000   0.0253256240   33.2635395479 
1410.0000   0.0246673099   59.4212017689 
1420.0000   0.0229061252   85.5740822273 
1430.0000   0.0202404758   111.4818286863 
1440.0000   0.0172663891   137.9348175041 
1450.0000   0.0143586251   165.9836924000 
1460.0000   0.0118656468   -162.6641387693 
1470.0000   0.0101943999   -126.4189330069 
1480.0000   0.0096462628   -86.1223152790 
1490.0000   0.0105051393   -46.1934735373 
1500.0000   0.0121680889   -10.9053039140 
1510.0000   0.0141779142   20.4296625740 
1520.0000   0.0159996841   49.5210288899 
1530.0000   0.0171484053   77.0993845187 
1540.0000   0.0172992037   103.9036845648 
1550.0000   0.0162901421   129.8125609718 
1560.0000   0.0141306121   154.7705671074 
1570.0000   0.0111668226   179.1345045774 
1580.0000   0.0076170658   -157.0024751919 
1590.0000   0.0037917164   -132.0455084462 
1600.0000   0.0004719778   -2.9909201415 
1610.0000   0.0041922145   79.2360260899 
1620.0000   0.0081537595   102.6730650863 
1630.0000   0.0118554286   124.8232579487 
1640.0000   0.0151392160   147.4164804209 
1650.0000   0.0177066437   170.0220862975 
1660.0000   0.0192789362   -167.2802270049 
1670.0000   0.0196048326   -144.5282712904 
1680.0000   0.0186342849   -122.1010367696 
1690.0000   0.0165598901   -100.7040731095 
1700.0000   0.0135791183   -80.4687425248 
1710.0000   0.0101790827   -62.4797137377 
1720.0000   0.0065198745   -48.8112410050 
1730.0000   0.0030774785   -51.4259525422 
1740.0000   0.0026010896   -112.2345117809 
1750.0000   0.0054243056   -123.9304969993 
1760.0000   0.0083293174   -110.2275572258 
1770.0000   0.0106157877   -91.1408065654 
1780.0000   0.0119920390   -69.3485371676 
1790.0000   0.0122466720   -45.8418693853 
1800.0000   0.0114151068   -20.3441752823 
1810.0000   0.0097518672   7.6771481068 
1820.0000   0.0076954274   40.5934942507 
1830.0000   0.0060254960   85.7151810397 
1840.0000   0.0060889791   140.9537887331 
1850.0000   0.0082453674   -174.1352855468 
1860.0000   0.0115083425   -140.3222070146 
1870.0000   0.0151590170   -113.4663835572 
1880.0000   0.0188743511   -88.7392924522 
1890.0000   0.0222681867   -64.8521990539 
1900.0000   0.0250420207   -40.6992069162 
1910.0000   0.0267065352   -15.8313128600 
1920.0000   0.0267895208   9.8970914258 
1930.0000   0.0250359142   36.0264068330 
1940.0000   0.0218336387   62.5532455839 
1950.0000   0.0177639423   89.7629139155 
1960.0000   0.0134553518   119.3724424389 
1970.0000   0.0095870675   154.9351659358 
1980.0000   0.0072588944   -155.7208959915 
1990.0000   0.0077268332   -100.2834448013 
2000.0000   0.0103430098   -57.7158633690 
2010.0000   0.0138249164   -25.8037440836 
2020.0000   0.0173883408   1.7205132836 
2030.0000   0.0206591584   28.1425631394 
2040.0000   0.0232298765   54.9142968615 
2050.0000   0.0247148519   82.7448039999 
2060.0000   0.0247743237   111.4694427045 
2070.0000   0.0233936675   140.7941881196 
2080.0000   0.0210369436   170.4702662901 
2090.0000   0.0183448337   -159.4476397343 
2100.0000   0.0158653903   -128.3819838046 
2110.0000   0.0140201700   -95.9138704505 
2120.0000   0.0130063803   -62.3339065126 
2130.0000   0.0129559606   -28.8667265510 
2140.0000   0.0137977838   3.0756600390 
2150.0000   0.0152892211   33.0077834373 
2160.0000   0.0172677171   61.0851400582 
2170.0000   0.0194763956   88.1358803520 
2180.0000   0.0215960748   114.8291715217 
2190.0000   0.0232912420   141.9791283811 
2200.0000   0.0238252645   172.3117950532 
2210.0000   0.0231787642   -159.7017866527 
2220.0000   0.0214095799   -131.1706746280 
2230.0000   0.0186686278   -102.8957998349 
2240.0000   0.0154543194   -74.6568223381 
2250.0000   0.0123554140   -44.9540022762 
2260.0000   0.0096963296   -11.7360856025 
2270.0000   0.0079950140   27.0606123717 
2280.0000   0.0076428577   70.0263773024 
2290.0000   0.0086001856   109.9156042127 
2300.0000   0.0104212242   143.6933819836 
2310.0000   0.0126300537   172.7876461433 
2320.0000   0.0149150229   -160.8377912843 
2330.0000   0.0169851181   -135.2862595615 
2340.0000   0.0185884867   -109.6699803464 
2350.0000   0.0194186963   -83.7084738197 
2360.0000   0.0193316312   -57.5416634855 
2370.0000   0.0183525763   -31.3062353555 
2380.0000   0.0167588553   -5.3315785846 
2390.0000   0.0148528731   20.8062532687 
2400.0000   0.0129167649   47.3706444422 
2410.0000   0.0112149986   75.2097430322 
2420.0000   0.0099273352   104.7239552217 
2430.0000   0.0092147657   135.9036740398 
2440.0000   0.0090987693   167.8057877641 
2450.0000   0.0096456406   -161.9038469532 
2460.0000   0.0107035424   -133.0067544852 
2470.0000   0.0120342703   -106.1116372725 
2480.0000   0.0136156458   -80.7716955682 
2490.0000   0.0152243333   -55.7297116537 
2500.0000   0.0166199168   -30.5943990081 
2510.0000   0.0176140529   -4.9426146214 
2520.0000   0.0178741447   21.4010542171 
2530.0000   0.0173819399   47.7177211397 
2540.0000   0.0161034663   74.6264921198 
2550.0000   0.0143138049   101.5765871200 
2560.0000   0.0123016547   129.4293239256 
2570.0000   0.0104577818   158.8483795552 
2580.0000   0.0089918793   -168.2044294078 
2590.0000   0.0082861834   -131.4686539607 
2600.0000   0.0086524384   -93.6305872800 
2610.0000   0.0099845651   -58.8561599946 
2620.0000   0.0121043226   -28.0577696301 
2630.0000   0.0148043513   -0.1416275510 
2640.0000   0.0177909779   26.5781449168 
2650.0000   0.0207359134   53.1287692282 
2660.0000   0.0231333852   80.5800953324 
2670.0000   0.0245005160   108.7345747180 
2680.0000   0.0243677903   137.2607714052 
2690.0000   0.0228481856   165.2859840245 
2700.0000   0.0205587948   -166.4943903392 
2710.0000   0.0179527845   -138.4823481730 
2720.0000   0.0155917460   -109.2930769830 
2730.0000   0.0138133431   -77.6472010102 
2740.0000   0.0130228586   -43.8319110259 
2750.0000   0.0134698763   -9.2905371011 
2760.0000   0.0151209966   23.5054491780 
2770.0000   0.0177076486   53.3917650798 
2780.0000   0.0209405794   81.8723922871 
2790.0000   0.0243700451   109.7313676353 
2800.0000   0.0276234995   138.0582443609 
2810.0000   0.0297638754   167.1715524495 
2820.0000   0.0301459671   -162.3330610652 
2830.0000   0.0284215362   -131.7995201767 
2840.0000   0.0252159465   -96.3883326944 
2850.0000   0.0214362973   -65.3140459549 
2860.0000   0.0179378841   -32.5178099557 
2870.0000   0.0153726968   3.1374698115 
2880.0000   0.0142709729   41.4627866660 
2890.0000   0.0145447057   81.6748902132 
2900.0000   0.0169177132   116.5945853190 
2910.0000   0.0201414007   147.4572988754 
2920.0000   0.0237501170   175.7095166032 
2930.0000   0.0273314674   -157.1006057437 
2940.0000   0.0302188036   -129.1586501030 
2950.0000   0.0316949635   -100.3798602995 
2960.0000   0.0311939354   -70.4759301261 
2970.0000   0.0285657377   -40.1283812560 
2980.0000   0.0244635748   -9.2132573091 
2990.0000   0.0198853718   22.5497763244 
3000.0000   0.0155571922   57.0156444015 
3010.0000   0.0123321956   95.9633590672 
3020.0000   0.0109492805   140.3764128248 
3030.0000   0.0115029109   -176.4840264304 
3040.0000   0.0133864358   -139.1549960235 
3050.0000   0.0158292138   -107.3983515639 
3060.0000   0.0183099897   -78.3287924572 
3070.0000   0.0203811809   -50.1470165910 
3080.0000   0.0216986980   -22.0082067139 
3090.0000   0.0219037495   6.9886159277 
3100.0000   0.0205727246   36.7653225380 
3110.0000   0.0178927653   67.2448320013 
3120.0000   0.0145399478   98.9990057898 
3130.0000   0.0110750767   132.9689989959 
3140.0000   0.0082137126   173.6168884673 
3150.0000   0.0068547128   -136.2024348729 
3160.0000   0.0075478257   -86.1794848397 
3170.0000   0.0094992193   -46.8482642754 
3180.0000   0.0118239028   -15.0777919951 
3190.0000   0.0141550846   12.9841650412 
3200.0000   0.0160867470   39.6928512738 
3210.0000   0.0173137406   66.4556526834 
3220.0000   0.0174168921   94.0248185125 
3230.0000   0.0162280788   122.6503414116 
3240.0000   0.0137838647   152.6057562340 
3250.0000   0.0105826913   -175.0543068895 
3260.0000   0.0074726949   -135.5523311861 
3270.0000   0.0057214279   -80.8557981227 
3280.0000   0.0066105857   -23.4873393182 
3290.0000   0.0092331142   16.5134425490 
3300.0000   0.0123501118   46.0589824391 
3310.0000   0.0154790684   70.8772523184 
3320.0000   0.0183581079   94.1061621995 
3330.0000   0.0207857759   117.4908222248 
3340.0000   0.0224379971   142.0066969384 
3350.0000   0.0228609299   168.2263189197 
3360.0000   0.0216924802   -163.3110038420 
3370.0000   0.0190139459   -133.5927187414 
3380.0000   0.0154261728   -101.4023848260 
3390.0000   0.0118303395   -65.2934170724 
3400.0000   0.0093324601   -22.3895534000 
3410.0000   0.0087303949   24.5683387687 
3420.0000   0.0098978383   66.6864902505 
3430.0000   0.0119838998   100.0620620618 
3440.0000   0.0143002788   128.0760272279 
3450.0000   0.0166354858   153.4365129319 
3460.0000   0.0187348184   178.3530520672 
3470.0000   0.0204003802   -155.9450330562 
3480.0000   0.0213984967   -128.1827384239 
3490.0000   0.0213370424   -98.9598273674 
3500.0000   0.0200079412   -66.7014517850 
3510.0000   0.0175468338   -32.0027874162 
3520.0000   0.0147839764   5.2189302205 
3530.0000   0.0125774931   44.2607915948 
3540.0000   0.0116229189   84.5043135184 
3550.0000   0.0118126483   121.8616519709 
3560.0000   0.0128738914   154.4719111731 
3570.0000   0.0144099432   -177.3893056694 
3580.0000   0.0160447717   -152.1639518295 
3590.0000   0.0177841849   -128.5984038103 
3600.0000   0.0195143830   -105.1630805532 
3610.0000   0.0211380964   -82.4276968536 
3620.0000   0.0224357394   -58.3653085901 
3630.0000   0.0230172570   -32.9391130081 
3640.0000   0.0223123331   -8.3806795824 
3650.0000   0.0205537003   20.2125325815 
3660.0000   0.0174853279   50.3143670728 
3670.0000   0.0138705306   81.1486066367 
3680.0000   0.0103646452   114.8472081499 
3690.0000   0.0077490857   154.2901898930 
3700.0000   0.0067095424   -155.4526260232 
3710.0000   0.0074437550   -113.3194282876 
3720.0000   0.0089466847   -79.9627485279 
3730.0000   0.0106696110   -53.2357249198 
3740.0000   0.0122899702   -29.4931282418 
3750.0000   0.0137800034   -6.8846348421 
3760.0000   0.0148888501   15.7406662152 
3770.0000   0.0155631521   39.0005739927 
3780.0000   0.0154748493   63.8896975262 
3790.0000   0.0145218927   90.5977641025 
3800.0000   0.0126945954   118.9838313818 
3810.0000   0.0103340233   149.8275413292 
3820.0000   0.0079843915   -175.0941193678 
3830.0000   0.0063412312   -134.1023988914 
3840.0000   0.0058868068   -89.3902024712 
3850.0000   0.0064954299   -49.6616236679 
3860.0000   0.0076585962   -18.5859710368 
3870.0000   0.0089630658   6.7755224857 
3880.0000   0.0102302521   28.5356327466 
3890.0000   0.0114076837   48.5869974595 
3900.0000   0.0123628370   68.3185056080 
3910.0000   0.0131278454   87.7475712290 
3920.0000   0.0136079555   107.9006017092 
3930.0000   0.0137364420   129.2151616710 
3940.0000   0.0133213389   152.0177289558 
3950.0000   0.0122773599   176.3131152254 
3960.0000   0.0106644132   -157.8495659068 
3970.0000   0.0085622606   -130.8411743824 
3980.0000   0.0063190852   -101.2290346200 
3990.0000   0.0042617195   -66.2109902981 
4000.0000   0.0028077911   -18.6393354235 
4010.0000   0.0025852304   41.7607769616 
4020.0000   0.0033726152   91.0879606968 
4030.0000   0.0045343816   124.2051613455 
4040.0000   0.0057658920   152.0155141827 
4050.0000   0.0070270694   176.9836195464 
4060.0000   0.0082693311   -158.5270880333 
4070.0000   0.0094866413   -133.7972351179 
4080.0000   0.0105526982   -107.9839158119 
4090.0000   0.0112681529   -81.4578260007 
4100.0000   0.0114385673   -53.9479780798 
4110.0000   0.0109571955   -26.4551772567 
4120.0000   0.0098834128   0.9320203776 
4130.0000   0.0084679143   27.5202879027 
4140.0000   0.0068864530   55.0716099973 
4150.0000   0.0054069418   84.8328948803 
4160.0000   0.0042089179   119.6810948611 
4170.0000   0.0036333755   162.6684864596 
4180.0000   0.0039762138   -152.4418658166 
4190.0000   0.0050834266   -116.0901667176 
4200.0000   0.0065867079   -87.6609010817 
4210.0000   0.0081988399   -63.3048639190 
4220.0000   0.0097416946   -40.3327333954 
4230.0000   0.0109518738   -17.6826163224 
4240.0000   0.0115116890   4.7481242182 
4250.0000   0.0111822826   26.5644919981 
4260.0000   0.0098825279   47.1758850233 
4270.0000   0.0078425122   64.5559726764 
4280.0000   0.0055072263   76.6845331141 
4290.0000   0.0033083712   75.5691101278 
4300.0000   0.0023343708   38.5826276194 
4310.0000   0.0037904081   10.4472977281 
4320.0000   0.0061524470   11.8323173043 
4330.0000   0.0086281361   21.5883534384 
4340.0000   0.0110279484   35.3905224379 
4350.0000   0.0132601726   51.4285808970 
4360.0000   0.0149306544   69.7234281539 
4370.0000   0.0157306296   89.4896113582 
4380.0000   0.0152638543   111.0099538691 
4390.0000   0.0134996216   132.5322690506 
