! 140 4400 10
# MHz S MA R 50.0
!freq ReS11 ImS11
140.0000   0.0153559109   153.3068366404 
150.0000   0.0163556704   171.2028593788 
160.0000   0.0164068912   -166.1738793344 
170.0000   0.0159285853   -142.4565288597 
180.0000   0.0161095921   -119.0502116415 
190.0000   0.0155932644   -102.2927822601 
200.0000   0.0153666920   -80.2804085984 
210.0000   0.0150909651   -62.0709057868 
220.0000   0.0153465925   -44.3290335952 
230.0000   0.0154128586   -25.4778613612 
240.0000   0.0153130749   -7.7453244450 
250.0000   0.0154657675   10.6492566356 
260.0000   0.0156848813   31.0575074113 
270.0000   0.0158221629   51.1061579435 
280.0000   0.0159010900   70.9906625728 
290.0000   0.0162010558   91.5943691707 
300.0000   0.0160386039   111.2066491587 
310.0000   0.0155566365   134.1043045385 
320.0000   0.0160522674   150.4833095058 
330.0000   0.0160727775   169.6082741704 
340.0000   0.0161355787   -171.4785997761 
350.0000   0.0161593763   -152.5815827862 
360.0000   0.0162303472   -133.7664780467 
370.0000   0.0163085981   -114.8055254788 
380.0000   0.0163938725   -95.9711581440 
390.0000   0.0163682901   -77.0733503146 
400.0000   0.0163985749   -58.4488260290 
410.0000   0.0154422415   -40.6137031321 
420.0000   0.0163489154   -20.2120232355 
430.0000   0.0162801930   -3.2866688216 
440.0000   0.0163733366   17.7649101490 
450.0000   0.0163053699   36.7944905890 
460.0000   0.0163182473   55.5599655200 
470.0000   0.0163067027   74.7670335032 
480.0000   0.0162786799   93.8124035986 
490.0000   0.0162303986   113.1507010224 
500.0000   0.0163121251   132.4765967065 
510.0000   0.0163071770   151.5870057422 
520.0000   0.0163478140   170.6090028688 
530.0000   0.0166079755   -169.9264564026 
540.0000   0.0163249335   -151.2195488415 
550.0000   0.0163407693   -132.3505781338 
560.0000   0.0163783387   -113.5072310370 
570.0000   0.0164758295   -94.6282676163 
580.0000   0.0165894415   -75.9756579492 
590.0000   0.0166425933   -57.3474663861 
600.0000   0.0166907014   -38.5392325382 
610.0000   0.0166728742   -19.6529133891 
620.0000   0.0166945363   -0.6280281554 
630.0000   0.0166139452   18.4776693090 
640.0000   0.0165902114   37.6094129860 
650.0000   0.0164870296   56.6728227933 
660.0000   0.0164860739   75.9615693778 
670.0000   0.0164607955   95.7998565586 
680.0000   0.0163707437   114.3569149386 
690.0000   0.0162750870   133.7975211491 
700.0000   0.0161976625   153.1403591692 
710.0000   0.0161703163   172.3331373881 
720.0000   0.0161134001   -167.9987244306 
730.0000   0.0160916828   -148.8229264024 
740.0000   0.0161000831   -129.4606585068 
750.0000   0.0161136158   -110.1703576612 
760.0000   0.0160944412   -91.1019467088 
770.0000   0.0160333193   -72.4470879004 
780.0000   0.0161208268   -53.0043181102 
790.0000   0.0160681221   -34.0780908349 
800.0000   0.0160916556   -15.1011167491 
810.0000   0.0160299909   3.9258708616 
820.0000   0.0160172244   22.5839166391 
830.0000   0.0159455753   41.4882068413 
840.0000   0.0157971387   60.3308946118 
850.0000   0.0157548946   79.3351264129 
860.0000   0.0157035379   98.4768419771 
870.0000   0.0156981013   117.5327607947 
880.0000   0.0156689315   136.4877774365 
890.0000   0.0156599837   155.6444734363 
900.0000   0.0156595137   174.2005801955 
910.0000   0.0156285877   -166.6846805870 
920.0000   0.0155458434   -147.8809408920 
930.0000   0.0155044973   -128.8967940164 
940.0000   0.0154136589   -109.4467468837 
950.0000   0.0153722131   -90.2888935833 
960.0000   0.0153630811   -70.9291418149 
970.0000   0.0153233365   -51.5283896766 
980.0000   0.0153018521   -32.3223110457 
990.0000   0.0152399600   -12.9850291118 
1000.0000   0.0151803202   6.4032310738 
1010.0000   0.0150614723   25.3329737335 
1020.0000   0.0150050638   45.7107212552 
1030.0000   0.0148970320   65.3100928909 
1040.0000   0.0148071383   85.1918846254 
1050.0000   0.0147452581   104.7619065675 
1060.0000   0.0147045371   124.5738055443 
1070.0000   0.0147216340   144.0991132051 
1080.0000   0.0147937907   163.7073012863 
1090.0000   0.0148377578   -177.0230997373 
1100.0000   0.0148485348   -158.0931442795 
1110.0000   0.0148612799   -139.4276392576 
1120.0000   0.0148056671   -120.7081587113 
1130.0000   0.0148058303   -102.5719468019 
1140.0000   0.0145825655   -84.0127717429 
1150.0000   0.0143852309   -65.8185129181 
1160.0000   0.0142853805   -47.3746869063 
1170.0000   0.0140543962   -29.1824785645 
1180.0000   0.0138669170   -10.8152093317 
1190.0000   0.0136994915   7.5530157515 
1200.0000   0.0135222855   26.2125378029 
1210.0000   0.0133469978   44.9168807141 
1220.0000   0.0131692587   64.0073825933 
1230.0000   0.0130560510   83.0619976029 
1240.0000   0.0129958362   102.3966406109 
1250.0000   0.0129120487   121.4418754579 
1260.0000   0.0129375300   140.8615706032 
1270.0000   0.0129738098   160.2561833240 
1280.0000   0.0130345367   179.2549211182 
1290.0000   0.0131261085   -161.8430822802 
1300.0000   0.0132130532   -143.0886442174 
1310.0000   0.0133248074   -124.5938126072 
1320.0000   0.0134358177   -106.2478925269 
1330.0000   0.0135266029   -88.1954937276 
1340.0000   0.0135866323   -70.1978532653 
1350.0000   0.0136040954   -52.4364935918 
1360.0000   0.0135549428   -34.5234050700 
1370.0000   0.0134130990   -16.7128593094 
1380.0000   0.0132957577   1.3118571110 
1390.0000   0.0131493532   19.3364852558 
1400.0000   0.0128824383   38.0491654475 
1410.0000   0.0126888096   56.8266600969 
1420.0000   0.0125058022   75.7315428995 
1430.0000   0.0123256523   94.7742773228 
1440.0000   0.0121944485   114.0294095243 
1450.0000   0.0120973642   133.0390538005 
1460.0000   0.0119875670   152.2589240222 
1470.0000   0.0119029393   171.4267980223 
1480.0000   0.0118589420   -169.3889395035 
1490.0000   0.0117456562   -150.3224724082 
1500.0000   0.0116760417   -131.4167813662 
1510.0000   0.0116000699   -112.8340635515 
1520.0000   0.0115208175   -94.0369039366 
1530.0000   0.0114387634   -75.2555769836 
1540.0000   0.0113244584   -56.5546804136 
1550.0000   0.0111939009   -37.4317633713 
1560.0000   0.0110248398   -18.0918940811 
1570.0000   0.0108373953   1.3873822552 
1580.0000   0.0106569199   21.4036115191 
1590.0000   0.0105299604   41.4382062942 
1600.0000   0.0104450692   61.9582566535 
1610.0000   0.0104372506   82.1572660781 
1620.0000   0.0104248970   102.9514309423 
1630.0000   0.0104990772   123.4221077149 
1640.0000   0.0106304921   143.2583071236 
1650.0000   0.0107560342   163.0805902757 
1660.0000   0.0109582502   -177.5123711231 
1670.0000   0.0110991839   -158.4597027811 
1680.0000   0.0112532686   -139.5934154100 
1690.0000   0.0113225339   -121.1904290987 
1700.0000   0.0113534213   -102.6197152359 
1710.0000   0.0113176074   -84.3826294385 
1720.0000   0.0112222071   -66.2093921382 
1730.0000   0.0110395150   -47.9225404549 
1740.0000   0.0109160922   -29.3051806721 
1750.0000   0.0106923048   -10.8189122964 
1760.0000   0.0103778670   8.0178142579 
1770.0000   0.0100808842   26.8574354610 
1780.0000   0.0097933810   46.0009286602 
1790.0000   0.0095264971   65.3508754103 
1800.0000   0.0093203141   85.2561670139 
1810.0000   0.0091532384   105.1731893314 
1820.0000   0.0089907010   124.7665371325 
1830.0000   0.0089477518   144.6765562230 
1840.0000   0.0089209157   164.3420306193 
1850.0000   0.0089478176   -176.7205208817 
1860.0000   0.0090486867   -157.2459411963 
1870.0000   0.0091164826   -138.6618391560 
1880.0000   0.0092197457   -120.0469075273 
1890.0000   0.0092913149   -101.9239295890 
1900.0000   0.0093700363   -84.1355589858 
1910.0000   0.0094239194   -66.5627512143 
1920.0000   0.0094370295   -49.4187780584 
1930.0000   0.0093805626   -32.3219722328 
1940.0000   0.0092414683   -15.2352128757 
1950.0000   0.0090674808   1.9001977450 
1960.0000   0.0088121441   19.3563236585 
1970.0000   0.0085388906   36.9193533112 
1980.0000   0.0081283425   54.9506760636 
1990.0000   0.0077035874   73.0105507507 
2000.0000   0.0073675846   91.9283604471 
2010.0000   0.0069985454   111.1006624570 
2020.0000   0.0066544047   131.0258442253 
2030.0000   0.0064485581   151.2301679176 
2040.0000   0.0063113243   172.4561572012 
2050.0000   0.0062946585   -166.1447882527 
2060.0000   0.0063721423   -144.5626722790 
2070.0000   0.0065301025   -123.6993579108 
2080.0000   0.0067493564   -103.4839909364 
2090.0000   0.0069872431   -84.3582261293 
2100.0000   0.0072066559   -65.5533887501 
2110.0000   0.0074191038   -47.3835674622 
2120.0000   0.0075475280   -29.7481589664 
2130.0000   0.0076277272   -12.1892988637 
2140.0000   0.0076092734   5.4916646676 
2150.0000   0.0075587104   23.0611596463 
2160.0000   0.0074720668   40.9133185790 
2170.0000   0.0073325321   59.3463081458 
2180.0000   0.0072249485   77.5281942427 
2190.0000   0.0071257521   96.0840219522 
2200.0000   0.0069553939   116.9801069637 
2210.0000   0.0067045636   135.9247109247 
2220.0000   0.0066836342   155.8171984078 
2230.0000   0.0066589543   175.4757049055 
2240.0000   0.0066631030   -165.1607617481 
2250.0000   0.0067445372   -145.5229704833 
2260.0000   0.0068554228   -126.0007147489 
2270.0000   0.0069860469   -106.7421238916 
2280.0000   0.0071006126   -87.5068354331 
2290.0000   0.0072608400   -68.6769821113 
2300.0000   0.0073974708   -49.8229063153 
2310.0000   0.0075567762   -30.9480669850 
2320.0000   0.0076591061   -12.4226802247 
2330.0000   0.0077867060   5.9323226710 
2340.0000   0.0079106895   24.3468171064 
2350.0000   0.0079908931   42.6664953758 
2360.0000   0.0080407086   61.0806423394 
2370.0000   0.0080357079   79.3938337068 
2380.0000   0.0079772655   97.6750688704 
2390.0000   0.0078978610   115.9286247458 
2400.0000   0.0077632831   134.0783969851 
2410.0000   0.0076255731   152.5647457210 
2420.0000   0.0074352381   171.1642697430 
2430.0000   0.0072006787   -170.0231065926 
2440.0000   0.0069644250   -150.8415953417 
2450.0000   0.0067057198   -131.4591138148 
2460.0000   0.0065109357   -111.6070369273 
2470.0000   0.0062953168   -91.2318046853 
2480.0000   0.0061824362   -71.4250295337 
2490.0000   0.0061464036   -51.3923242097 
2500.0000   0.0061666426   -31.3979723009 
2510.0000   0.0062095636   -11.4226210146 
2520.0000   0.0063094675   8.3139568954 
2530.0000   0.0064898970   27.3924247971 
2540.0000   0.0066322323   45.7170537152 
2550.0000   0.0068220742   63.7598287962 
2560.0000   0.0069613580   81.4343977257 
2570.0000   0.0071367040   98.3139069551 
2580.0000   0.0072707841   115.3598370994 
2590.0000   0.0073293182   132.0486060683 
2600.0000   0.0073871826   148.6556180237 
2610.0000   0.0073775413   164.9277112935 
2620.0000   0.0073720245   -178.4990698623 
2630.0000   0.0072293080   -161.7155902084 
2640.0000   0.0070095709   -144.7398170438 
2650.0000   0.0067440142   -127.4417228034 
2660.0000   0.0065017030   -110.0180477149 
2670.0000   0.0061900008   -91.7402338060 
2680.0000   0.0058916570   -72.2690910178 
2690.0000   0.0056280427   -52.4149445448 
2700.0000   0.0054167975   -31.1752596282 
2710.0000   0.0052106148   -9.6502882714 
2720.0000   0.0051403826   12.2124612099 
2730.0000   0.0051644683   33.8439978469 
2740.0000   0.0052681424   54.8712346061 
2750.0000   0.0054410951   75.3905051281 
2760.0000   0.0056237463   95.0941233895 
2770.0000   0.0058129353   113.7987541065 
2780.0000   0.0060194020   131.9306671218 
2790.0000   0.0061729877   149.2753207502 
2800.0000   0.0063086749   166.5075366559 
2810.0000   0.0063567803   -176.7123990624 
2820.0000   0.0063687040   -160.0078867440 
2830.0000   0.0063674713   -143.2931354545 
2840.0000   0.0062744783   -121.9948077259 
2850.0000   0.0061563221   -104.8508868246 
2860.0000   0.0060028276   -87.2934690080 
2870.0000   0.0058620564   -69.3114258737 
2880.0000   0.0057084188   -50.9989486020 
2890.0000   0.0053963701   -37.3855669077 
2900.0000   0.0051220876   -17.4218464576 
2910.0000   0.0049179638   3.3823558046 
2920.0000   0.0048238840   25.0364189891 
2930.0000   0.0047329168   47.2025830908 
2940.0000   0.0048351619   69.1964511205 
2950.0000   0.0050301644   90.7950871427 
2960.0000   0.0052739738   111.4261905143 
2970.0000   0.0055745411   131.7513323227 
2980.0000   0.0058170503   150.8954735905 
2990.0000   0.0060200558   169.1959539094 
3000.0000   0.0061642681   -172.9030656409 
3010.0000   0.0062851202   -155.2613132885 
3020.0000   0.0063853633   -138.2300505246 
3030.0000   0.0063862054   -120.7348974385 
3040.0000   0.0063649983   -102.5845470706 
3050.0000   0.0062308164   -84.7439826261 
3060.0000   0.0060777624   -66.5241757080 
3070.0000   0.0058950667   -48.1080916289 
3080.0000   0.0057331614   -29.2202441247 
3090.0000   0.0056009793   -9.7367037696 
3100.0000   0.0054440572   9.7189172895 
3110.0000   0.0052568961   28.6681251073 
3120.0000   0.0051818375   48.2438832741 
3130.0000   0.0051526791   67.1499141358 
3140.0000   0.0050914664   86.6629986079 
3150.0000   0.0050117518   104.9018188678 
3160.0000   0.0048934692   124.1478721040 
3170.0000   0.0047792875   142.0788700099 
3180.0000   0.0046833035   160.1619358001 
3190.0000   0.0045628354   178.4860228918 
3200.0000   0.0043873022   -162.6953512328 
3210.0000   0.0041772327   -143.0039494353 
3220.0000   0.0039948950   -123.3573843402 
3230.0000   0.0038081426   -102.8150563009 
3240.0000   0.0036501613   -81.5729054768 
3250.0000   0.0035941846   -59.5749364947 
3260.0000   0.0036391265   -36.7957997114 
3270.0000   0.0037491670   -14.7410148899 
3280.0000   0.0039755550   6.7212536995 
3290.0000   0.0042767112   27.1586111360 
3300.0000   0.0045991170   47.0808056683 
3310.0000   0.0048649629   64.8691699462 
3320.0000   0.0051683721   82.1333879450 
3330.0000   0.0053376180   98.6664840375 
3340.0000   0.0054614237   114.9404493598 
3350.0000   0.0055659111   130.9079080555 
3360.0000   0.0055770659   147.0472947717 
3370.0000   0.0054765851   163.0272381125 
3380.0000   0.0053132239   -179.9337653479 
3390.0000   0.0051055051   -162.9600155126 
3400.0000   0.0048185444   -145.1388848223 
3410.0000   0.0045220916   -127.4756124895 
3420.0000   0.0042393203   -108.1881736543 
3430.0000   0.0040037089   -88.0947918170 
3440.0000   0.0037906090   -67.6367426134 
3450.0000   0.0035840695   -46.3314292157 
3460.0000   0.0035015865   -24.4583418242 
3470.0000   0.0034938241   -2.6714549047 
3480.0000   0.0035377194   17.4779689243 
3490.0000   0.0036178398   36.3288049085 
3500.0000   0.0037316468   55.0967261574 
3510.0000   0.0038399546   73.5770493619 
3520.0000   0.0039142561   90.3056434771 
3530.0000   0.0039497627   106.9964754005 
3540.0000   0.0039183038   123.0488920686 
3550.0000   0.0038622466   139.7468686388 
3560.0000   0.0037538957   156.4480782236 
3570.0000   0.0037152389   173.6895616458 
3580.0000   0.0035484835   -168.0980330206 
3590.0000   0.0034140901   -149.0067228161 
3600.0000   0.0033048990   -127.3608733104 
3610.0000   0.0032613740   -106.0353499980 
3620.0000   0.0032973282   -84.2067781700 
3630.0000   0.0033956783   -63.2426663737 
3640.0000   0.0035107018   -46.5791080483 
3650.0000   0.0037127613   -27.1403875171 
3660.0000   0.0039122166   -7.7018557015 
3670.0000   0.0040762241   10.1610465054 
3680.0000   0.0041649042   27.2192140202 
3690.0000   0.0041580875   44.1527073874 
3700.0000   0.0040748168   60.1247748254 
3710.0000   0.0033802863   74.2624174129 
3720.0000   0.0031307937   91.9282391190 
3730.0000   0.0028974686   110.2266224880 
3740.0000   0.0027273153   129.8469405065 
3750.0000   0.0024861405   150.8389966836 
3760.0000   0.0022781288   173.3452885122 
3770.0000   0.0021489752   -162.8154819132 
3780.0000   0.0020826108   -137.3185904641 
3790.0000   0.0021361776   -114.0111089183 
3800.0000   0.0022328962   -91.0753281546 
3810.0000   0.0024203973   -70.3224552037 
3820.0000   0.0026330339   -52.1188070184 
3830.0000   0.0028521378   -35.0781310319 
3840.0000   0.0030218527   -19.3018365450 
3850.0000   0.0032144869   -4.6231896587 
3860.0000   0.0033451426   9.4935486887 
3870.0000   0.0034769735   22.6815880123 
3880.0000   0.0035236827   36.0092796651 
3890.0000   0.0035030847   48.7282443216 
3900.0000   0.0034391994   62.0857640409 
3910.0000   0.0032956448   74.7472094832 
3920.0000   0.0031406449   87.5172893670 
3930.0000   0.0029022668   101.1218551916 
3940.0000   0.0026104491   115.8089377055 
3950.0000   0.0022722978   132.1173703224 
3960.0000   0.0019111555   151.1669353365 
3970.0000   0.0015160525   173.4225069270 
3980.0000   0.0011687558   -156.0961137353 
3990.0000   0.0010253269   -117.8251494195 
4000.0000   0.0011387170   -80.9356521566 
4010.0000   0.0014673862   -51.0999637307 
4020.0000   0.0018156051   -29.6218623909 
4030.0000   0.0022288884   -11.7627823963 
4040.0000   0.0026148463   4.1031452708 
4050.0000   0.0029436069   18.8171213989 
4060.0000   0.0031710295   32.6581965728 
4070.0000   0.0032842860   44.9934363846 
4080.0000   0.0033122286   57.2629308347 
4090.0000   0.0033288994   68.4256144448 
4100.0000   0.0032816976   79.0837298660 
4110.0000   0.0031782183   89.8437521757 
4120.0000   0.0029597135   101.9265627163 
4130.0000   0.0026716266   113.5174346879 
4140.0000   0.0023165186   125.4970219752 
4150.0000   0.0019047827   137.1900800055 
4160.0000   0.0015003701   150.5495503503 
4170.0000   0.0010490813   166.0738362449 
4180.0000   0.0006217497   -171.4519069617 
4190.0000   0.0003467382   -109.7844986961 
4200.0000   0.0005250980   -43.5528507186 
4210.0000   0.0009379426   -14.8526330455 
4220.0000   0.0013620756   1.0681527273 
4230.0000   0.0017837055   15.2194552900 
4240.0000   0.0021453232   27.9374005051 
4250.0000   0.0024440345   39.4183854400 
4260.0000   0.0026999953   50.2626131696 
4270.0000   0.0028515304   61.7408687781 
4280.0000   0.0029569873   72.3674285937 
4290.0000   0.0030045972   83.3454104338 
4300.0000   0.0029501013   94.0894006879 
4310.0000   0.0027719663   104.7661273359 
4320.0000   0.0025536670   115.9243132892 
4330.0000   0.0022423552   126.2737410878 
4340.0000   0.0019242618   138.2894940150 
4350.0000   0.0015339993   149.7150956975 
4360.0000   0.0011171151   163.8363806945 
4370.0000   0.0006647947   -177.8162848806 
4380.0000   0.0002660569   -130.6683303879 
4390.0000   0.0004105141   -39.2016688547 
