! 140 4400 10
# MHz S MA R 50.0
!freq ReS11 ImS11
140.0000   0.4180630167   144.3156522020 
150.0000   0.4301298567   162.5700858123 
160.0000   0.4206776811   -175.6453630645 
170.0000   0.4169856825   -148.1281755465 
180.0000   0.4215268773   -133.1575768005 
190.0000   0.4159446803   -114.7808899330 
200.0000   0.4092636443   -96.0734588115 
210.0000   0.4174373264   -78.7641908802 
220.0000   0.4364651206   -61.9274169889 
230.0000   0.4453268056   -43.8555705120 
240.0000   0.4445323924   -26.6731797182 
250.0000   0.4544961953   -7.6534408571 
260.0000   0.4590956444   13.2096086678 
270.0000   0.4545796095   33.0944659900 
280.0000   0.4462388792   52.4224676338 
290.0000   0.4414208047   70.9083602270 
300.0000   0.4407124953   90.4623848218 
310.0000   0.4375641537   109.3957352203 
320.0000   0.4392449953   126.4257103659 
330.0000   0.4487895886   143.7407124558 
340.0000   0.4596835776   161.4086743439 
350.0000   0.4690499741   179.2940631793 
360.0000   0.4755952225   -162.2053743048 
370.0000   0.4877858255   -142.9955835509 
380.0000   0.4905297460   -123.8174856169 
390.0000   0.4847531554   -104.3312540736 
400.0000   0.4753571810   -85.2755533128 
410.0000   0.4670299715   -66.4434705264 
420.0000   0.4646105420   -48.0471499007 
430.0000   0.4581271174   -30.2264546903 
440.0000   0.4568816056   -12.6358280537 
450.0000   0.4621516574   4.7151835320 
460.0000   0.4697134601   22.2330949412 
470.0000   0.4754958721   40.2017744812 
480.0000   0.4810937847   58.6259126840 
490.0000   0.4894125595   77.3706415788 
500.0000   0.4922191285   96.3899366330 
510.0000   0.4877455102   115.6417126934 
520.0000   0.4775266472   134.7883214410 
530.0000   0.4681943333   153.5835342182 
540.0000   0.4619435038   171.9961301146 
550.0000   0.4539667227   -170.2528120163 
560.0000   0.4514423732   -152.7303420458 
570.0000   0.4550231122   -135.4506723654 
580.0000   0.4610843676   -118.2869732798 
590.0000   0.4683817848   -100.8387306994 
600.0000   0.4758348910   -82.9642427014 
610.0000   0.4872575540   -64.6488340437 
620.0000   0.4942835575   -45.8257197325 
630.0000   0.4964482214   -26.7117403533 
640.0000   0.4912439249   -7.2518629167 
650.0000   0.4875520898   12.2365642286 
660.0000   0.4833926165   31.4146045530 
670.0000   0.4768237693   50.1747106511 
680.0000   0.4725478456   68.5289218140 
690.0000   0.4730100893   86.7610310449 
700.0000   0.4745054935   104.6657205056 
710.0000   0.4766038328   122.3453457634 
720.0000   0.4784536972   140.3738955356 
730.0000   0.4837009280   158.7479724209 
740.0000   0.4879617873   177.5167795933 
750.0000   0.4855269767   -163.6018487484 
760.0000   0.4807730106   -144.5451502954 
770.0000   0.4778361444   -125.5884453524 
780.0000   0.4760066562   -106.8094982422 
790.0000   0.4702892256   -88.2874096478 
800.0000   0.4659939435   -70.1225857248 
810.0000   0.4651828409   -52.3216749904 
820.0000   0.4641360039   -34.7276484956 
830.0000   0.4630961669   -17.1585023464 
840.0000   0.4617838088   0.6154266753 
850.0000   0.4636692737   18.7571739075 
860.0000   0.4624673490   37.0017521353 
870.0000   0.4580131619   55.4265815265 
880.0000   0.4525052550   73.8528613166 
890.0000   0.4496089867   92.2560695660 
900.0000   0.4480440008   110.8193325936 
910.0000   0.4446013294   129.0128087543 
920.0000   0.4434205762   147.0004280150 
930.0000   0.4469882557   165.0027631948 
940.0000   0.4526326056   -176.8271908924 
950.0000   0.4564686065   -158.4228395792 
960.0000   0.4607578347   -139.6671445573 
970.0000   0.4664414906   -120.5026565943 
980.0000   0.4701425921   -100.8829155133 
990.0000   0.4674208721   -81.0000377473 
1000.0000   0.4612813308   -61.0805543892 
1010.0000   0.4551537758   -41.4507257073 
1020.0000   0.4480923161   -22.2852043566 
1030.0000   0.4390155138   -3.6691249015 
1040.0000   0.4322897747   14.3588694637 
1050.0000   0.4302844034   32.0370356158 
1060.0000   0.4305161544   49.4182572416 
1070.0000   0.4328630817   66.8703860097 
1080.0000   0.4376701387   84.9190905116 
1090.0000   0.4459733970   103.4020216223 
1100.0000   0.4522177564   122.5304807067 
1110.0000   0.4530162344   142.3146158379 
1120.0000   0.4488505456   162.3429957502 
1130.0000   0.4410260006   -177.7641433989 
1140.0000   0.4281207601   -158.4758114836 
1150.0000   0.4113205430   -140.1077516452 
1160.0000   0.3960756702   -122.7829042604 
1170.0000   0.3856143052   -106.3009366554 
1180.0000   0.3776474210   -90.4317653710 
1190.0000   0.3733524311   -74.8407967981 
1200.0000   0.3745068611   -59.1759081227 
1210.0000   0.3821502193   -43.0326677644 
1220.0000   0.3941487973   -26.0462081655 
1230.0000   0.4066281395   -7.9252602933 
1240.0000   0.4190456955   11.3519704459 
1250.0000   0.4294703219   31.7086648025 
1260.0000   0.4326157153   52.6604801530 
1270.0000   0.4263594350   73.5057521353 
1280.0000   0.4143712899   93.4672884615 
1290.0000   0.3996321364   112.2576935443 
1300.0000   0.3850476172   129.8143600971 
1310.0000   0.3726789784   146.3462346197 
1320.0000   0.3651202287   162.4635702463 
1330.0000   0.3641438663   178.2603854329 
1340.0000   0.3676457451   -165.7883640884 
1350.0000   0.3754240396   -149.3712729986 
1360.0000   0.3862144905   -132.0663658978 
1370.0000   0.3994814530   -113.6420620744 
1380.0000   0.4101241055   -93.9116292629 
1390.0000   0.4143596922   -73.4238726755 
1400.0000   0.4107721527   -52.6692654021 
1410.0000   0.4001392635   -32.3489660836 
1420.0000   0.3858765334   -12.5928832638 
1430.0000   0.3683906532   5.8187791249 
1440.0000   0.3528823342   23.3909653636 
1450.0000   0.3421093140   40.2817649530 
1460.0000   0.3353666530   56.8271873803 
1470.0000   0.3326172364   73.2808588544 
1480.0000   0.3340434000   89.9109204330 
1490.0000   0.3402177870   106.9353871664 
1500.0000   0.3490946067   124.6205091685 
1510.0000   0.3584836056   142.9977165171 
1520.0000   0.3670750647   162.0764348347 
1530.0000   0.3726182998   -178.3930511930 
1540.0000   0.3730087191   -158.6892816854 
1550.0000   0.3681739140   -139.1497861707 
1560.0000   0.3604587020   -120.0182064776 
1570.0000   0.3521958905   -101.4502129799 
1580.0000   0.3447029711   -83.3879128510 
1590.0000   0.3396142219   -65.6449626701 
1600.0000   0.3374468605   -47.9675024118 
1610.0000   0.3384840175   -30.1960566642 
1620.0000   0.3418416424   -11.8697554346 
1630.0000   0.3463187857   6.8780386008 
1640.0000   0.3504213506   26.2005815188 
1650.0000   0.3523294987   46.0314562766 
1660.0000   0.3516012057   66.1085913278 
1670.0000   0.3464091742   86.0224317793 
1680.0000   0.3385405978   105.6915307295 
1690.0000   0.3297351031   124.5832527186 
1700.0000   0.3214907594   142.9324432946 
1710.0000   0.3149003817   160.8039753703 
1720.0000   0.3104413667   178.3772086593 
1730.0000   0.3091431023   -164.0465056714 
1740.0000   0.3108685619   -146.1314203361 
1750.0000   0.3137606793   -127.9675753038 
1760.0000   0.3163666083   -109.1695613957 
1770.0000   0.3176583430   -89.9749338390 
1780.0000   0.3156376845   -70.4920601439 
1790.0000   0.3095154004   -51.1768277548 
1800.0000   0.2999495525   -32.1657617531 
1810.0000   0.2895426690   -14.0747022216 
1820.0000   0.2791478926   3.0691073775 
1830.0000   0.2710776045   19.7291433937 
1840.0000   0.2657307514   35.9437712808 
1850.0000   0.2640826270   51.8804075811 
1860.0000   0.2670512679   67.9658274025 
1870.0000   0.2721125022   84.5516643746 
1880.0000   0.2797962384   101.9450890412 
1890.0000   0.2890744402   120.3558153110 
1900.0000   0.2974985383   139.9915964192 
1910.0000   0.3014056582   160.5097691495 
1920.0000   0.2994080480   -178.4785663036 
1930.0000   0.2916591449   -157.9411618172 
1940.0000   0.2796804894   -138.2763659073 
1950.0000   0.2661139376   -119.8106614742 
1960.0000   0.2540172742   -102.5212308688 
1970.0000   0.2447907932   -86.1043183053 
1980.0000   0.2391414771   -69.9926808677 
1990.0000   0.2366166243   -54.1559363524 
2000.0000   0.2379765325   -38.0318927782 
2010.0000   0.2423483468   -21.2323666723 
2020.0000   0.2484336600   -3.4679989406 
2030.0000   0.2548087710   15.5877882316 
2040.0000   0.2594198560   36.0119670691 
2050.0000   0.2595934454   57.1866514092 
2060.0000   0.2541777660   78.4725877525 
2070.0000   0.2441222457   99.1131492869 
2080.0000   0.2316461611   118.5859021626 
2090.0000   0.2196698151   136.6594731985 
2100.0000   0.2097500037   153.6809463661 
2110.0000   0.2026424134   169.8970930937 
2120.0000   0.1989941788   -174.5103263377 
2130.0000   0.1984504920   -158.9447185724 
2140.0000   0.2010140436   -143.2402837670 
2150.0000   0.2064892493   -127.0794881520 
2160.0000   0.2145283449   -110.0993733287 
2170.0000   0.2243760046   -92.3745542857 
2180.0000   0.2346128941   -73.7111926529 
2190.0000   0.2433610479   -54.1438893640 
2200.0000   0.2474065755   -31.6095995056 
2210.0000   0.2483967463   -11.9767242454 
2220.0000   0.2467440958   7.9694519578 
2230.0000   0.2424025108   27.2145090637 
2240.0000   0.2366128173   45.8190790959 
2250.0000   0.2308894141   63.6683398277 
2260.0000   0.2256480374   80.9253718459 
2270.0000   0.2218255801   97.9433606130 
2280.0000   0.2193164809   114.6422329313 
2290.0000   0.2189730929   131.4418764556 
2300.0000   0.2201956429   148.2398764096 
2310.0000   0.2232642843   165.5368783853 
2320.0000   0.2279995276   -176.8947656140 
2330.0000   0.2336416984   -158.9472680889 
2340.0000   0.2400376595   -140.2110577280 
2350.0000   0.2460727173   -120.8379157667 
2360.0000   0.2500590724   -100.9866801692 
2370.0000   0.2505607421   -80.6711987364 
2380.0000   0.2469114166   -60.4008016740 
2390.0000   0.2392814191   -40.4765909924 
2400.0000   0.2290118323   -21.2831197479 
2410.0000   0.2179657626   -2.9766203502 
2420.0000   0.2084139408   14.3997924326 
2430.0000   0.1994038961   30.6589737572 
2440.0000   0.1937785431   46.4086122496 
2450.0000   0.1911726392   61.5402514036 
2460.0000   0.1915663550   76.9350917235 
2470.0000   0.1952877863   92.3597941989 
2480.0000   0.2023189626   108.4147930408 
2490.0000   0.2120397702   125.5133138944 
2500.0000   0.2234981219   144.0542368516 
2510.0000   0.2342207266   164.3268647085 
2520.0000   0.2401900105   -173.8813601488 
2530.0000   0.2387199697   -151.4574126253 
2540.0000   0.2294715109   -129.6052670685 
2550.0000   0.2155937844   -109.2144922951 
2560.0000   0.2011833350   -90.6489760130 
2570.0000   0.1887179703   -73.9338428740 
2580.0000   0.1800123894   -58.1026153632 
2590.0000   0.1748600884   -43.3566017117 
2600.0000   0.1737137589   -28.8731966640 
2610.0000   0.1763977260   -14.3686690432 
2620.0000   0.1827331183   0.6999286657 
2630.0000   0.1934212216   16.7546108706 
2640.0000   0.2057544983   34.5111070406 
2650.0000   0.2190380260   54.1440842049 
2660.0000   0.2282544012   75.8846635448 
2670.0000   0.2292530124   98.7579524415 
2680.0000   0.2213590025   121.3479952724 
2690.0000   0.2066510117   141.9435626658 
2700.0000   0.1916009494   160.9393915565 
2710.0000   0.1785742023   177.7320060812 
2720.0000   0.1689168516   -166.8585545323 
2730.0000   0.1631004516   -152.2472345373 
2740.0000   0.1609779196   -138.1239237997 
2750.0000   0.1623845422   -123.9729482114 
2760.0000   0.1672310881   -109.2063034473 
2770.0000   0.1753015559   -93.8535667504 
2780.0000   0.1860346969   -76.9548342701 
2790.0000   0.1980784870   -58.1704453588 
2800.0000   0.2083729868   -37.5791788107 
2810.0000   0.2131257489   -15.9863168662 
2820.0000   0.2100489854   6.4305621375 
2830.0000   0.2008767864   27.6211805597 
2840.0000   0.1896763426   52.0882245891 
2850.0000   0.1785763994   70.1890554729 
2860.0000   0.1697722179   86.9932040123 
2870.0000   0.1641303278   102.9959696142 
2880.0000   0.1614157407   118.6433353550 
2890.0000   0.1627759691   134.1696305602 
2900.0000   0.1663200205   149.9093468374 
2910.0000   0.1724255158   166.3133524835 
2920.0000   0.1801627570   -176.2798852490 
2930.0000   0.1886190090   -157.9459518666 
2940.0000   0.1957897548   -137.9776496022 
2950.0000   0.1993033623   -117.3393762798 
2960.0000   0.1981771742   -96.3793275457 
2970.0000   0.1928101079   -75.8097233821 
2980.0000   0.1847955876   -56.1454346986 
2990.0000   0.1765422631   -37.4259879248 
3000.0000   0.1691173146   -19.4874995104 
3010.0000   0.1636785911   -2.4395403635 
3020.0000   0.1604204947   14.3897704308 
3030.0000   0.1592304154   31.1426637835 
3040.0000   0.1601242455   48.1438558486 
3050.0000   0.1628339905   65.4450252913 
3060.0000   0.1665842211   83.7670761405 
3070.0000   0.1708417781   102.6306841483 
3080.0000   0.1742415434   122.1262360032 
3090.0000   0.1761143752   142.1166468369 
3100.0000   0.1755043479   162.2146760708 
3110.0000   0.1725069715   -177.9746377502 
3120.0000   0.1678153747   -158.5690219416 
3130.0000   0.1624657502   -140.1071158654 
3140.0000   0.1575597971   -122.0495969896 
3150.0000   0.1538065218   -104.4758390827 
3160.0000   0.1514377083   -87.1818891902 
3170.0000   0.1506610199   -70.0746083089 
3180.0000   0.1512384336   -52.4681240538 
3190.0000   0.1529276856   -34.5538551154 
3200.0000   0.1552108361   -16.0800772449 
3210.0000   0.1573551353   3.0095138681 
3220.0000   0.1582649920   22.5884017392 
3230.0000   0.1575872758   42.4674098344 
3240.0000   0.1550828707   62.4869767028 
3250.0000   0.1512588296   81.5437297392 
3260.0000   0.1466036079   100.1839209247 
3270.0000   0.1420296619   117.8979255036 
3280.0000   0.1382470769   135.0858017552 
3290.0000   0.1357322676   151.5116434629 
3300.0000   0.1350657534   168.2995288978 
3310.0000   0.1358310729   -175.1410049265 
3320.0000   0.1380318874   -158.1393111454 
3330.0000   0.1415597920   -140.5345897412 
3340.0000   0.1453857488   -121.9038202559 
3350.0000   0.1484808125   -102.2858017446 
3360.0000   0.1494869007   -81.5002048794 
3370.0000   0.1477184985   -61.0692219240 
3380.0000   0.1432827112   -40.6377990429 
3390.0000   0.1370536264   -21.0456478306 
3400.0000   0.1307455001   -2.5454866775 
3410.0000   0.1253469168   14.6468079712 
3420.0000   0.1214542104   31.2830868745 
3430.0000   0.1195373358   47.2056754349 
3440.0000   0.1195566760   62.7320884681 
3450.0000   0.1217927384   78.5231097815 
3460.0000   0.1259178480   94.7919755796 
3470.0000   0.1315063074   111.9700539816 
3480.0000   0.1377454323   130.7530722391 
3490.0000   0.1431739566   150.2085467891 
3500.0000   0.1454964798   171.2275120696 
3510.0000   0.1438077426   -167.3722143671 
3520.0000   0.1378943838   -146.3924401727 
3530.0000   0.1297497492   -126.7778497145 
3540.0000   0.1216503966   -108.3490243433 
3550.0000   0.1142859957   -91.4265348144 
3560.0000   0.1086050821   -75.5664666794 
3570.0000   0.1051647257   -60.3610998762 
3580.0000   0.1038889034   -45.4318730846 
3590.0000   0.1047341260   -30.5123831530 
3600.0000   0.1074626511   -14.8059277817 
3610.0000   0.1121526027   0.9022092323 
3620.0000   0.1184593280   18.1997463870 
3630.0000   0.1253230748   36.8618828587 
3640.0000   0.1298113723   54.5998327706 
3650.0000   0.1309042642   75.9655031012 
3660.0000   0.1289417227   98.1652001686 
3670.0000   0.1241381761   119.4375800806 
3680.0000   0.1171600776   139.3983985625 
3690.0000   0.1096787432   157.8148473870 
3700.0000   0.1003849345   175.3030544876 
3710.0000   0.0946625898   -168.4187477034 
3720.0000   0.0904476569   -152.4606266813 
3730.0000   0.0878440321   -137.2066612054 
3740.0000   0.0866107772   -121.6955173660 
3750.0000   0.0871196395   -105.6370672115 
3760.0000   0.0891585588   -88.7490121388 
3770.0000   0.0926464792   -70.7907551285 
3780.0000   0.0967481726   -51.2567352285 
3790.0000   0.1002548062   -30.5858286113 
3800.0000   0.1016959477   -8.9243928113 
3810.0000   0.1000055057   12.6993876308 
3820.0000   0.0948419088   33.4297804578 
3830.0000   0.0879034666   52.6147191244 
3840.0000   0.0807589591   70.5824341362 
3850.0000   0.0744039801   86.8011493672 
3860.0000   0.0695403479   102.3364740853 
3870.0000   0.0661701821   117.1850850357 
3880.0000   0.0643782020   131.8740778748 
3890.0000   0.0641619323   146.4185026303 
3900.0000   0.0652340347   161.5978119770 
3910.0000   0.0678311897   177.4198925344 
3920.0000   0.0717392879   -165.6015712491 
3930.0000   0.0766072838   -147.1945788968 
3940.0000   0.0816024483   -127.1697796398 
3950.0000   0.0849786225   -105.6825364848 
3960.0000   0.0850912395   -83.3173655463 
3970.0000   0.0819568990   -61.6209963311 
3980.0000   0.0771514875   -41.0711393745 
3990.0000   0.0721817614   -22.2210464893 
4000.0000   0.0680354405   -4.7989707418 
4010.0000   0.0653497235   11.1997389131 
4020.0000   0.0637096925   26.8634462876 
4030.0000   0.0635619845   41.9578074120 
4040.0000   0.0646998351   57.1956304837 
4050.0000   0.0670220185   72.9817106379 
4060.0000   0.0702188247   89.8496462462 
4070.0000   0.0736833339   108.0850953489 
4080.0000   0.0762976836   128.1738188843 
4090.0000   0.0769355485   149.2912058738 
4100.0000   0.0749203619   171.4094703321 
4110.0000   0.0707666468   -166.9229756976 
4120.0000   0.0656984558   -146.3379872001 
4130.0000   0.0609868479   -127.3381293386 
4140.0000   0.0569193303   -109.5219938276 
4150.0000   0.0540518078   -92.8432202053 
4160.0000   0.0524485719   -76.8688425334 
4170.0000   0.0519435221   -61.2144152456 
4180.0000   0.0525112535   -45.7446448597 
4190.0000   0.0539967874   -29.8743218831 
4200.0000   0.0561564455   -13.1101063424 
4210.0000   0.0585807350   4.2542236615 
4220.0000   0.0610052779   22.9741685263 
4230.0000   0.0625223904   42.7002872007 
4240.0000   0.0625887020   63.3052814693 
4250.0000   0.0613030570   83.6110417999 
4260.0000   0.0587325948   103.5161646115 
4270.0000   0.0556580092   122.1490861819 
4280.0000   0.0527856447   139.5863524014 
4290.0000   0.0504210930   156.1926853162 
4300.0000   0.0487426141   172.3685898064 
4310.0000   0.0477554508   -171.6605100988 
4320.0000   0.0474309725   -155.0655505974 
4330.0000   0.0477678984   -138.3968380506 
4340.0000   0.0485312881   -120.5349567853 
4350.0000   0.0496512355   -101.5259317470 
4360.0000   0.0506395324   -81.3381049608 
4370.0000   0.0511592936   -60.4902072783 
4380.0000   0.0506904320   -39.1677511727 
4390.0000   0.0494273446   -18.6079371522 
