! 140 4400 10
# MHz S MA R 50.0
!freq ReS11 ImS11
140.0000   0.2667349872   -58.7758703267 
150.0000   0.2784710842   -29.6221499575 
160.0000   0.2756307788   3.6055508641 
170.0000   0.2759396328   38.9010389196 
180.0000   0.2814195468   68.6636193907 
190.0000   0.2796209141   97.9539161267 
200.0000   0.2769291075   127.6712196231 
210.0000   0.2831094677   155.1999859278 
220.0000   0.2953169623   -177.1891575503 
230.0000   0.2983815844   -148.3946504964 
240.0000   0.2949038323   -119.8616096560 
250.0000   0.2999141211   -89.9128884995 
260.0000   0.3018418774   -58.2034952490 
270.0000   0.2981525471   -26.9887181616 
280.0000   0.2924419458   3.3931275747 
290.0000   0.2891308935   33.4011543351 
300.0000   0.2885204742   63.9742009602 
310.0000   0.2840162503   93.2118515651 
320.0000   0.2867502415   122.3817194375 
330.0000   0.2924331848   150.9391719351 
340.0000   0.2981432695   179.8727466107 
350.0000   0.3025832339   -150.9236820420 
360.0000   0.3052991494   -121.0667818068 
370.0000   0.3124545227   -90.6088012329 
380.0000   0.3134397136   -59.9715672467 
390.0000   0.3081764699   -29.1513381067 
400.0000   0.3008991280   1.3654552595 
410.0000   0.2961353458   31.4371429071 
420.0000   0.2924986197   61.7792912939 
430.0000   0.2879329837   91.5569819929 
440.0000   0.2873677566   120.7953559743 
450.0000   0.2913446232   149.8495945359 
460.0000   0.2972120272   179.0962349638 
470.0000   0.3029159561   -151.4583258032 
480.0000   0.3089862483   -121.6789818174 
490.0000   0.3187671640   -91.5127344523 
500.0000   0.3242987496   -61.2061401067 
510.0000   0.3240664787   -30.9233335195 
520.0000   0.3195487964   -0.8639337416 
530.0000   0.3155054661   28.7675703951 
540.0000   0.3134381711   57.8921329827 
550.0000   0.3086846740   86.4453987180 
560.0000   0.3072199091   114.6150044634 
570.0000   0.3094538864   142.5656512632 
580.0000   0.3123233550   170.5124708468 
590.0000   0.3156693122   -161.3209103310 
600.0000   0.3186986287   -132.7733984751 
610.0000   0.3249620633   -103.6250479613 
620.0000   0.3277800594   -73.8930512864 
630.0000   0.3254847329   -43.6970599805 
640.0000   0.3191140355   -13.0591721424 
650.0000   0.3130800878   17.7910079911 
660.0000   0.3077951160   48.5545411682 
670.0000   0.3008407335   78.9955246242 
680.0000   0.2955913900   109.1060008871 
690.0000   0.2943708211   139.1099732797 
700.0000   0.2945026404   168.9263308639 
710.0000   0.2960675049   -161.5371059777 
720.0000   0.2976969464   -131.8423097406 
730.0000   0.3021597565   -101.8772251670 
740.0000   0.3060518744   -71.5826224091 
750.0000   0.3058780789   -41.1059922714 
760.0000   0.3039368335   -10.5521016212 
770.0000   0.3033129459   19.9339932672 
780.0000   0.3035105701   50.2095413937 
790.0000   0.3004798583   80.2675279150 
800.0000   0.2989404466   109.8963175895 
810.0000   0.3001492505   139.2436281281 
820.0000   0.3018940927   168.3013717039 
830.0000   0.3038594518   -162.9100609351 
840.0000   0.3056109344   -134.1493685192 
850.0000   0.3104845643   -105.2615565151 
860.0000   0.3138748870   -76.3789722023 
870.0000   0.3143700700   -47.4636155386 
880.0000   0.3128804695   -18.6569581031 
890.0000   0.3119750656   9.9873914728 
900.0000   0.3106946133   38.7218745838 
910.0000   0.3065015857   67.1996511873 
920.0000   0.3027671589   95.5832213768 
930.0000   0.3010077665   124.1597040023 
940.0000   0.2998032005   153.0700269521 
950.0000   0.2967476981   -177.6085822403 
960.0000   0.2940697626   -147.5888141518 
970.0000   0.2930193300   -116.7465225738 
980.0000   0.2915683266   -85.2538132709 
990.0000   0.2871847818   -53.2427920270 
1000.0000   0.2819054898   -21.0767072864 
1010.0000   0.2784689429   10.8462104270 
1020.0000   0.2751730694   42.2822299599 
1030.0000   0.2710080315   72.8410932909 
1040.0000   0.2684625217   102.5821897538 
1050.0000   0.2694536801   131.7921030199 
1060.0000   0.2714153761   160.5630461403 
1070.0000   0.2740904879   -170.6365087838 
1080.0000   0.2781875073   -141.3886598256 
1090.0000   0.2845033453   -111.6221495381 
1100.0000   0.2890406474   -81.0591796266 
1110.0000   0.2898691847   -49.6304703572 
1120.0000   0.2880250998   -17.6933505196 
1130.0000   0.2847652978   14.1080021733 
1140.0000   0.2782833759   45.2401805968 
1150.0000   0.2697223843   75.2093092602 
1160.0000   0.2625565216   103.9793011622 
1170.0000   0.2586618488   131.5023796743 
1180.0000   0.2565957476   158.0680780082 
1190.0000   0.2562305826   -175.9916892682 
1200.0000   0.2587616990   -150.1741493704 
1210.0000   0.2648279794   -124.0822360641 
1220.0000   0.2721549470   -97.3082064728 
1230.0000   0.2783077958   -69.2249315494 
1240.0000   0.2832567787   -39.6674118137 
1250.0000   0.2851791894   -8.7665592311 
1260.0000   0.2806320673   23.2364878801 
1270.0000   0.2685031921   55.5328795302 
1280.0000   0.2531673209   87.3943850488 
1290.0000   0.2375949613   118.3702431150 
1300.0000   0.2239637916   148.3223253229 
1310.0000   0.2141042118   177.3755136172 
1320.0000   0.2085888396   -154.2166397633 
1330.0000   0.2083221923   -126.3761501508 
1340.0000   0.2114553986   -98.6033063877 
1350.0000   0.2176309201   -70.6028253774 
1360.0000   0.2258786775   -41.9594267922 
1370.0000   0.2349772899   -12.3898941743 
1380.0000   0.2414979252   18.4419175762 
1390.0000   0.2433983595   50.1716567141 
1400.0000   0.2391344860   82.2695165236 
1410.0000   0.2304982906   114.1127955554 
1420.0000   0.2199784986   145.3726813967 
1430.0000   0.2086772166   175.3550480858 
1440.0000   0.2001252020   -155.5771432197 
1450.0000   0.1958248999   -127.3937250192 
1460.0000   0.1950838616   -99.7479697338 
1470.0000   0.1976378072   -72.5029555827 
1480.0000   0.2036784586   -45.3424001585 
1490.0000   0.2125657156   -18.0403246091 
1500.0000   0.2227927798   9.7336177022 
1510.0000   0.2320514470   37.9405721961 
1520.0000   0.2391755962   66.6682570401 
1530.0000   0.2419091703   95.6787910970 
1540.0000   0.2392792757   124.8437457892 
1550.0000   0.2315186336   153.8184286013 
1560.0000   0.2207412105   -177.4629720779 
1570.0000   0.2093705161   -148.9531197202 
1580.0000   0.1984201785   -120.3960974008 
1590.0000   0.1895386254   -91.5171968679 
1600.0000   0.1833813302   -62.0558694192 
1610.0000   0.1806303837   -31.8285385677 
1620.0000   0.1809690895   -0.6582268383 
1630.0000   0.1841283602   31.1643008805 
1640.0000   0.1886517806   63.4628135971 
1650.0000   0.1937362031   95.8833762654 
1660.0000   0.1977440314   128.0321940746 
1670.0000   0.1995662466   159.5070274454 
1680.0000   0.1991452776   -169.8379342160 
1690.0000   0.1972690825   -140.2535713432 
1700.0000   0.1944501205   -111.3494947454 
1710.0000   0.1911953251   -82.9900567309 
1720.0000   0.1882886417   -54.6971050732 
1730.0000   0.1862076374   -26.1335575711 
1740.0000   0.1855092744   3.2327219348 
1750.0000   0.1854112364   33.2866884139 
1760.0000   0.1859632354   64.2814184784 
1770.0000   0.1864982587   96.0077619152 
1780.0000   0.1868030097   127.9705639775 
1790.0000   0.1858237699   159.4873207860 
1800.0000   0.1841421864   -169.6928635960 
1810.0000   0.1826673188   -140.4195315002 
1820.0000   0.1807781019   -112.6842516360 
1830.0000   0.1798114065   -85.9374152963 
1840.0000   0.1795216892   -60.0994235304 
1850.0000   0.1801267111   -34.8347068459 
1860.0000   0.1823173686   -9.5210270748 
1870.0000   0.1839367878   16.2778289298 
1880.0000   0.1853907304   43.0109948173 
1890.0000   0.1860169295   71.1444050423 
1900.0000   0.1842714800   101.0584638290 
1910.0000   0.1787442033   132.6373972869 
1920.0000   0.1699547092   165.5132113460 
1930.0000   0.1591340400   -161.1775389030 
1940.0000   0.1482776545   -128.0532699215 
1950.0000   0.1396562249   -95.8368727513 
1960.0000   0.1342020759   -64.8875346789 
1970.0000   0.1321825131   -35.3507653628 
1980.0000   0.1329592916   -6.9855271072 
1990.0000   0.1358368050   20.3208982174 
2000.0000   0.1405271825   47.2214562233 
2010.0000   0.1462945961   74.2174551276 
2020.0000   0.1519316888   101.8256616782 
2030.0000   0.1562026626   130.5574978318 
2040.0000   0.1579932779   160.6476186909 
2050.0000   0.1556057614   -168.0926895056 
2060.0000   0.1489361704   -136.0385586018 
2070.0000   0.1397547956   -103.8494565049 
2080.0000   0.1302575733   -72.0595840311 
2090.0000   0.1224222249   -41.0019580119 
2100.0000   0.1173462110   -10.7538227416 
2110.0000   0.1156149861   18.4424434073 
2120.0000   0.1170353668   46.6329296927 
2130.0000   0.1212545528   73.8305911980 
2140.0000   0.1277526639   100.3485218263 
2150.0000   0.1355225213   126.4076188210 
2160.0000   0.1441385029   152.7191565832 
2170.0000   0.1528151178   179.4158103564 
2180.0000   0.1600182430   -153.1381148878 
2190.0000   0.1644166194   -124.7271630180 
2200.0000   0.1633791313   -93.2853036223 
2210.0000   0.1584100590   -64.2117508836 
2220.0000   0.1505035899   -33.9770269881 
2230.0000   0.1404700626   -3.3687490536 
2240.0000   0.1303385360   27.6999810247 
2250.0000   0.1221073669   59.1806100106 
2260.0000   0.1166209519   91.0057198186 
2270.0000   0.1149347217   122.6400514371 
2280.0000   0.1163630963   153.4572651413 
2290.0000   0.1207816723   -176.5396689453 
2300.0000   0.1270777409   -147.8092094394 
2310.0000   0.1342995011   -119.7516333411 
2320.0000   0.1416983857   -92.2342319890 
2330.0000   0.1487716774   -64.8751313430 
2340.0000   0.1539027368   -36.8646326012 
2350.0000   0.1569781070   -8.2109717910 
2360.0000   0.1567697829   21.4796062328 
2370.0000   0.1528007845   52.1107237112 
2380.0000   0.1454793964   83.5475309820 
2390.0000   0.1359555801   115.6829160359 
2400.0000   0.1265691572   147.9050826744 
2410.0000   0.1189573444   179.8775534822 
2420.0000   0.1141184762   -149.1549990192 
2430.0000   0.1123384708   -119.5393586064 
2440.0000   0.1131036017   -91.2812994077 
2450.0000   0.1163869389   -64.5978125845 
2460.0000   0.1217940283   -38.6726518676 
2470.0000   0.1287802258   -13.5208449577 
2480.0000   0.1367621475   11.6889224079 
2490.0000   0.1456465288   37.5493323374 
2500.0000   0.1536471659   64.7594887203 
2510.0000   0.1587415905   93.8869579690 
2520.0000   0.1581394961   124.8900271781 
2530.0000   0.1506105591   157.1767764355 
2540.0000   0.1378865211   -170.3535732274 
2550.0000   0.1226672855   -138.4546538718 
2560.0000   0.1091472879   -107.2930037490 
2570.0000   0.0985193146   -76.9434499311 
2580.0000   0.0926484253   -46.8460535610 
2590.0000   0.0908305814   -17.6203265096 
2600.0000   0.0930268456   10.6657224386 
2610.0000   0.0987352533   38.0428915843 
2620.0000   0.1072363340   64.8979082934 
2630.0000   0.1181509767   91.8667516821 
2640.0000   0.1305060641   119.6314846726 
2650.0000   0.1419971847   148.8769304051 
2660.0000   0.1493123333   179.7762358740 
2670.0000   0.1489754648   -148.4435770888 
2680.0000   0.1404574569   -116.7902444441 
2690.0000   0.1270910170   -86.7102279930 
2700.0000   0.1128723233   -57.3157472870 
2710.0000   0.1005566172   -29.0748942811 
2720.0000   0.0914709931   -0.9086268024 
2730.0000   0.0861289590   27.4015798257 
2740.0000   0.0846336275   55.7709852480 
2750.0000   0.0869877951   84.1070221895 
2760.0000   0.0930550076   112.3284383843 
2770.0000   0.1025902477   140.1288874290 
2780.0000   0.1145492392   168.2553903850 
2790.0000   0.1276628584   -162.8631952162 
2800.0000   0.1388782192   -133.0843197398 
2810.0000   0.1451871702   -103.0061247430 
2820.0000   0.1443339134   -72.4062264815 
2830.0000   0.1367296918   -43.0150048798 
2840.0000   0.1260057715   -10.0431376227 
2850.0000   0.1139168703   17.0729260358 
2860.0000   0.1026435078   43.6599322589 
2870.0000   0.0930994807   70.6894762976 
2880.0000   0.0860546566   98.7476250811 
2890.0000   0.0825235312   128.1179845459 
2900.0000   0.0819614413   158.4915194271 
2910.0000   0.0850256525   -170.1897833969 
2920.0000   0.0913210273   -138.5233683743 
2930.0000   0.1000506287   -106.9941969526 
2940.0000   0.1095496586   -75.2319419131 
2950.0000   0.1176332568   -43.9682225229 
2960.0000   0.1222141193   -13.4393933331 
2970.0000   0.1225856521   16.0006662631 
2980.0000   0.1193716353   44.0743364000 
2990.0000   0.1137179299   71.1126748672 
3000.0000   0.1069309869   97.4954430666 
3010.0000   0.0998284145   123.3012282217 
3020.0000   0.0929109892   149.6091745357 
3030.0000   0.0866167343   176.9254726132 
3040.0000   0.0814270655   -153.8962038879 
3050.0000   0.0781725390   -122.7196291091 
3060.0000   0.0776541560   -89.1882738612 
3070.0000   0.0802575649   -54.6329267004 
3080.0000   0.0855283605   -20.2017764230 
3090.0000   0.0922764069   13.2389054430 
3100.0000   0.0987895642   45.0674459762 
3110.0000   0.1039127065   75.0724455048 
3120.0000   0.1066567910   103.4352050696 
3130.0000   0.1073187743   130.0118433615 
3140.0000   0.1059153202   155.6698975970 
3150.0000   0.1029305325   -179.3661642169 
3160.0000   0.0988007538   -154.4051512835 
3170.0000   0.0938258960   -129.0109908777 
3180.0000   0.0884479583   -101.9188650927 
3190.0000   0.0832193885   -73.0408939981 
3200.0000   0.0784879933   -41.6518722462 
3210.0000   0.0753744490   -7.6120016442 
3220.0000   0.0745390794   28.2052888443 
3230.0000   0.0764360145   64.3474795803 
3240.0000   0.0802554886   99.1334730214 
3250.0000   0.0846181079   130.9280189302 
3260.0000   0.0884150385   160.3491220046 
3270.0000   0.0912856960   -172.5274650823 
3280.0000   0.0929340686   -146.9572648920 
3290.0000   0.0937081892   -122.7100225253 
3300.0000   0.0936322025   -98.5402371606 
3310.0000   0.0928034023   -74.4648370706 
3320.0000   0.0910342006   -49.6105712311 
3330.0000   0.0883139675   -23.4173059091 
3340.0000   0.0845484870   4.9622004011 
3350.0000   0.0797029479   35.9897658054 
3360.0000   0.0742068762   70.1579078701 
3370.0000   0.0689936125   106.1075677330 
3380.0000   0.0652051985   143.4518126447 
3390.0000   0.0637047474   179.9564675622 
3400.0000   0.0644153602   -145.9506386611 
3410.0000   0.0666298879   -115.3377920843 
3420.0000   0.0697698866   -87.2335563083 
3430.0000   0.0731885622   -61.5240304286 
3440.0000   0.0768073168   -37.1380826064 
3450.0000   0.0804983632   -13.2996558875 
3460.0000   0.0839714302   10.8737980157 
3470.0000   0.0869939286   35.9296046567 
3480.0000   0.0887496305   62.9033372413 
3490.0000   0.0882787854   91.2332871646 
3500.0000   0.0846291002   122.1289299205 
3510.0000   0.0779005327   154.8180595166 
3520.0000   0.0697590110   -171.2498054516 
3530.0000   0.0623291455   -137.0765231122 
3540.0000   0.0572933026   -103.0751222440 
3550.0000   0.0551000353   -70.8391331258 
3560.0000   0.0554043863   -40.9023817622 
3570.0000   0.0575695059   -13.3862767723 
3580.0000   0.0611573136   12.0762725626 
3590.0000   0.0655610195   36.0369793198 
3600.0000   0.0704649827   59.7552096594 
3610.0000   0.0754543188   82.7884007314 
3620.0000   0.0800483356   107.1375466940 
3630.0000   0.0831496494   132.9637791676 
3640.0000   0.0828023594   158.2497043120 
3650.0000   0.0785077241   -172.0914263953 
3660.0000   0.0713853148   -140.5138500020 
3670.0000   0.0626682524   -108.2104749952 
3680.0000   0.0540867194   -75.1704159225 
3690.0000   0.0472957568   -41.3296365290 
3700.0000   0.0422132049   -7.6001387648 
3710.0000   0.0406525237   25.8012069378 
3720.0000   0.0414504445   57.4883790397 
3730.0000   0.0438812443   86.4147346114 
3740.0000   0.0473354335   113.5964668009 
3750.0000   0.0515403165   139.7064337730 
3760.0000   0.0559549326   165.5233927465 
3770.0000   0.0606109067   -168.3062602490 
3780.0000   0.0645755360   -140.8987012664 
3790.0000   0.0669794292   -112.3508179750 
3800.0000   0.0668565792   -82.6614544753 
3810.0000   0.0635365090   -52.3781886946 
3820.0000   0.0575637999   -22.1478955137 
3830.0000   0.0504082999   7.8709398112 
3840.0000   0.0437265033   38.1403453758 
3850.0000   0.0384532172   68.2660722171 
3860.0000   0.0350754809   98.9538433171 
3870.0000   0.0337145530   129.3796146951 
3880.0000   0.0341822165   159.0218652254 
3890.0000   0.0363157749   -173.0148667703 
3900.0000   0.0397279211   -146.2151224850 
3910.0000   0.0442675495   -120.4442034215 
3920.0000   0.0496818182   -94.8690054168 
3930.0000   0.0553592019   -68.9920110489 
3940.0000   0.0603388181   -42.2661764180 
3950.0000   0.0630164172   -14.3926031316 
3960.0000   0.0615146072   14.3611921871 
3970.0000   0.0561909478   42.6592989580 
3980.0000   0.0486600410   70.6067208251 
3990.0000   0.0406305233   97.9862634632 
4000.0000   0.0332191865   125.9005225505 
4010.0000   0.0271574397   155.8212667404 
4020.0000   0.0229458224   -170.0758945304 
4030.0000   0.0214294262   -132.2689364292 
4040.0000   0.0229868877   -94.2908837940 
4050.0000   0.0272677603   -59.8375015557 
4060.0000   0.0334362261   -29.2977052988 
4070.0000   0.0403937186   -0.9352835893 
4080.0000   0.0468502804   27.2244640533 
4090.0000   0.0513513433   55.0363373661 
4100.0000   0.0526169117   83.0113989961 
4110.0000   0.0506047234   110.1694012060 
4120.0000   0.0462760483   136.2331980754 
4130.0000   0.0411376394   161.0114350881 
4140.0000   0.0357066106   -174.3218781851 
4150.0000   0.0307132293   -149.0336144005 
4160.0000   0.0264539348   -121.8499343847 
4170.0000   0.0235704622   -91.4604607127 
4180.0000   0.0224663410   -57.8273131820 
4190.0000   0.0236209124   -22.9858892585 
4200.0000   0.0267994523   10.7082580270 
4210.0000   0.0315134432   41.5588682661 
4220.0000   0.0367952185   70.9948088496 
4230.0000   0.0413763889   99.4001292492 
4240.0000   0.0443845058   127.1606184261 
4250.0000   0.0454199463   153.8500122173 
4260.0000   0.0444269989   179.6946117397 
4270.0000   0.0419817371   -155.8794723411 
4280.0000   0.0386223703   -132.4962891611 
4290.0000   0.0349246068   -109.5847958759 
4300.0000   0.0310482300   -86.3207379285 
4310.0000   0.0271203714   -61.7728636551 
4320.0000   0.0233676961   -34.4178691034 
4330.0000   0.0200329690   -3.2974524050 
4340.0000   0.0176155634   34.3046669835 
4350.0000   0.0170569475   77.2526435413 
4360.0000   0.0185915731   120.9007953403 
4370.0000   0.0216195215   160.4232616627 
4380.0000   0.0249624799   -163.9990076641 
4390.0000   0.0278328758   -132.5079131604 
