# MHz S MA R 50.0
140.0000   0.40399950   107.8750 
141.0000   0.40723153   106.5886 
142.0000   0.39576473   107.1398 
143.0000   0.42010343   107.8929 
144.0000   0.41716865   110.1960 
145.0000   0.42664245   109.8295 
146.0000   0.42370383   107.7330 
147.0000   0.43419864   112.3408 
148.0000   0.43322616   115.5023 
149.0000   0.43262327   114.4245 
150.0000   0.43605130   115.7982 
151.0000   0.43644349   116.7008 
152.0000   0.43769916   117.9209 
153.0000   0.44096730   119.4373 
154.0000   0.43417748   120.8157 
155.0000   0.43641323   122.0267 
156.0000   0.43697951   121.5836 
157.0000   0.43781906   124.9272 
158.0000   0.43304768   126.0521 
159.0000   0.43878778   127.8159 
160.0000   0.43982505   129.7760 
161.0000   0.43554794   131.1635 
162.0000   0.43617894   132.8495 
163.0000   0.43575911   134.8566 
164.0000   0.43853320   136.6124 
165.0000   0.43515700   138.7299 
166.0000   0.43950302   144.5074 
167.0000   0.43560600   142.4075 
168.0000   0.43123734   142.0506 
169.0000   0.43633104   144.7739 
170.0000   0.43482824   143.7988 
171.0000   0.43382902   146.8164 
172.0000   0.43874657   146.6436 
173.0000   0.43513653   148.5428 
174.0000   0.43502051   149.1935 
175.0000   0.43472209   150.0133 
176.0000   0.43349256   150.6569 
177.0000   0.43627319   151.9577 
178.0000   0.43672576   152.5415 
179.0000   0.43409982   153.4290 
180.0000   0.43726137   154.4442 
181.0000   0.43580019   155.4589 
182.0000   0.43725231   155.7372 
183.0000   0.43178063   157.1278 
184.0000   0.43723863   157.8193 
185.0000   0.43403330   158.7659 
186.0000   0.43227713   159.6660 
187.0000   0.43095037   160.8453 
188.0000   0.43058382   161.6521 
189.0000   0.42911086   162.4076 
190.0000   0.43422314   164.8916 
191.0000   0.42953479   164.7430 
192.0000   0.42871379   165.5169 
193.0000   0.42846676   166.2840 
194.0000   0.43003413   167.0096 
195.0000   0.42733500   168.4544 
196.0000   0.42147081   169.2777 
197.0000   0.42001576   170.1335 
198.0000   0.42146478   170.8686 
199.0000   0.42223166   172.2459 
200.0000   0.41732934   173.1538 
201.0000   0.41539152   173.9791 
202.0000   0.41748919   174.9631 
203.0000   0.41234740   175.6946 
204.0000   0.41077845   176.6534 
205.0000   0.41590931   177.5038 
206.0000   0.41466098   178.5947 
207.0000   0.41145444   178.8114 
208.0000   0.41557308   179.6273 
209.0000   0.41674684   -179.8210 
210.0000   0.41659886   -179.1653 
211.0000   0.41501013   -178.2798 
212.0000   0.41617936   -177.2934 
213.0000   0.42029308   -176.8157 
214.0000   0.42614677   -175.4166 
215.0000   0.42236533   -175.5185 
216.0000   0.42597654   -175.2417 
217.0000   0.42345838   -173.8432 
218.0000   0.42083946   -172.4714 
219.0000   0.42241040   -172.0773 
220.0000   0.42422240   -171.4435 
221.0000   0.42774165   -170.3320 
222.0000   0.42503653   -169.9984 
223.0000   0.42696906   -168.6671 
224.0000   0.42698054   -167.8488 
225.0000   0.42637456   -167.3725 
226.0000   0.42885233   -166.2374 
227.0000   0.42722435   -165.6288 
228.0000   0.42795515   -164.2652 
229.0000   0.42701958   -163.7750 
230.0000   0.42669893   -163.3788 
231.0000   0.42684117   -162.2424 
232.0000   0.42958891   -161.2191 
233.0000   0.43022698   -160.3865 
234.0000   0.42767255   -159.7387 
235.0000   0.42833517   -158.8410 
236.0000   0.42849733   -158.0531 
237.0000   0.42971425   -157.1847 
238.0000   0.42964532   -156.2455 
239.0000   0.43062957   -155.5439 
240.0000   0.43304909   -155.0889 
241.0000   0.42989065   -153.9485 
242.0000   0.43320330   -153.9269 
243.0000   0.43426406   -152.2646 
244.0000   0.43154827   -151.5096 
245.0000   0.43199462   -150.6385 
246.0000   0.43636626   -149.7192 
247.0000   0.43530549   -148.6135 
248.0000   0.43587193   -147.5939 
249.0000   0.43653861   -146.6462 
250.0000   0.43716164   -145.7224 
251.0000   0.43864445   -144.8556 
252.0000   0.43591333   -143.4425 
253.0000   0.43692711   -142.6257 
254.0000   0.43588345   -142.0568 
255.0000   0.43860674   -140.8087 
256.0000   0.43866040   -139.5631 
257.0000   0.44091384   -138.5176 
258.0000   0.44060406   -137.4914 
259.0000   0.44088941   -136.4356 
260.0000   0.43867058   -135.5698 
261.0000   0.44042494   -134.4147 
262.0000   0.44130735   -133.0651 
263.0000   0.44175834   -132.4049 
264.0000   0.44294323   -131.7875 
265.0000   0.44039148   -130.5002 
266.0000   0.43921034   -128.5026 
267.0000   0.44126611   -128.4466 
268.0000   0.44186749   -127.5089 
269.0000   0.44057873   -126.5396 
270.0000   0.43772897   -125.5292 
271.0000   0.44123070   -124.6862 
272.0000   0.43963846   -123.7047 
273.0000   0.43746026   -122.6949 
274.0000   0.44065574   -121.8947 
275.0000   0.44081559   -120.9508 
276.0000   0.43716128   -120.1592 
277.0000   0.43721683   -119.0108 
278.0000   0.44040662   -117.8667 
279.0000   0.43677408   -117.1084 
280.0000   0.43682239   -116.1270 
281.0000   0.43660504   -115.1120 
282.0000   0.43927904   -114.3160 
283.0000   0.43937745   -113.3375 
284.0000   0.43877694   -112.4601 
285.0000   0.43890790   -111.4499 
286.0000   0.43531106   -110.4786 
287.0000   0.43736296   -109.6442 
288.0000   0.43781865   -108.4708 
289.0000   0.43733020   -107.6796 
290.0000   0.44077225   -106.6129 
291.0000   0.43835461   -105.4436 
292.0000   0.43565858   -104.6496 
293.0000   0.43931933   -103.4715 
294.0000   0.43594357   -102.7597 
295.0000   0.43928621   -101.5145 
296.0000   0.43647910   -100.7525 
297.0000   0.43645047   -99.7427 
298.0000   0.43907082   -98.5978 
299.0000   0.43664186   -97.7176 
300.0000   0.43905778   -96.5984 
301.0000   0.43866959   -95.6340 
302.0000   0.43782989   -94.6272 
303.0000   0.43849711   -93.6790 
304.0000   0.43762227   -92.6795 
305.0000   0.43780268   -91.7374 
306.0000   0.43830549   -90.6734 
307.0000   0.43918959   -89.7129 
308.0000   0.43941627   -88.7791 
309.0000   0.43743808   -87.8837 
310.0000   0.43701012   -87.1974 
311.0000   0.44023983   -85.9212 
312.0000   0.43731817   -84.8506 
313.0000   0.43774815   -84.0397 
314.0000   0.44064366   -82.7739 
315.0000   0.44048827   -82.3147 
316.0000   0.43919834   -81.5521 
317.0000   0.44036836   -80.5714 
318.0000   0.43928195   -79.3992 
319.0000   0.44020498   -78.8333 
320.0000   0.44015749   -77.9434 
321.0000   0.44008799   -77.0732 
322.0000   0.43955764   -76.1939 
323.0000   0.44156146   -74.9949 
324.0000   0.44020733   -74.4379 
325.0000   0.44243817   -73.2495 
326.0000   0.44280256   -72.3779 
327.0000   0.44307411   -71.5351 
328.0000   0.44113191   -70.8789 
329.0000   0.44147782   -70.0017 
330.0000   0.44358012   -68.9403 
331.0000   0.44394212   -68.1088 
332.0000   0.44286972   -67.2948 
333.0000   0.44295991   -66.4245 
334.0000   0.44274905   -65.3249 
335.0000   0.44444678   -64.6765 
336.0000   0.44479193   -63.8028 
337.0000   0.44508236   -62.9237 
338.0000   0.44615355   -62.1558 
339.0000   0.44596785   -61.1880 
340.0000   0.44624176   -60.3739 
341.0000   0.44527289   -59.4559 
342.0000   0.44702286   -58.6343 
343.0000   0.44587278   -57.7507 
344.0000   0.44635004   -56.8772 
345.0000   0.44644256   -56.0073 
346.0000   0.44709566   -55.1382 
347.0000   0.44751185   -54.2348 
348.0000   0.44764749   -53.4412 
349.0000   0.44941179   -52.6989 
350.0000   0.44987669   -51.8894 
351.0000   0.44939214   -50.7938 
352.0000   0.45008102   -49.9335 
353.0000   0.45099271   -49.0639 
354.0000   0.45017916   -48.4512 
355.0000   0.45079329   -47.5485 
356.0000   0.45275668   -46.4472 
357.0000   0.45264198   -45.6070 
358.0000   0.45453238   -44.7519 
359.0000   0.45385018   -43.8636 
360.0000   0.45270767   -43.2206 
361.0000   0.45453426   -42.1657 
362.0000   0.45582560   -41.3345 
363.0000   0.45452560   -40.5700 
364.0000   0.45564727   -39.6557 
365.0000   0.45671973   -38.7397 
366.0000   0.45618755   -37.9035 
367.0000   0.45706976   -37.0141 
368.0000   0.45761986   -36.1323 
369.0000   0.45791757   -35.2434 
370.0000   0.45807127   -34.3689 
371.0000   0.45954992   -33.5047 
372.0000   0.45831427   -32.5654 
373.0000   0.45920154   -31.7162 
374.0000   0.46085980   -30.8389 
375.0000   0.45968677   -29.9641 
376.0000   0.46155438   -29.1138 
377.0000   0.46179255   -28.2687 
378.0000   0.46191839   -27.3918 
379.0000   0.46133874   -26.4140 
380.0000   0.46251978   -25.6703 
381.0000   0.46220677   -24.6449 
382.0000   0.46298968   -24.1140 
383.0000   0.46320804   -23.0720 
384.0000   0.46293169   -22.0337 
385.0000   0.46414169   -21.1610 
386.0000   0.46449289   -20.1591 
387.0000   0.46426072   -19.5632 
388.0000   0.46488497   -18.6255 
389.0000   0.46498363   -17.8114 
390.0000   0.46514450   -16.9314 
391.0000   0.46544807   -16.0748 
392.0000   0.46599790   -15.2042 
393.0000   0.46614729   -14.3438 
394.0000   0.46662115   -13.4454 
395.0000   0.46718112   -12.5738 
396.0000   0.46725878   -11.6493 
397.0000   0.46764884   -10.7864 
398.0000   0.46871189   -9.9583 
399.0000   0.46812898   -9.0342 
400.0000   0.46862271   -8.1774 
401.0000   0.47018744   -7.3029 
402.0000   0.47043029   -6.4224 
403.0000   0.47077089   -5.5355 
404.0000   0.47040616   -4.6232 
405.0000   0.47078464   -3.7602 
406.0000   0.47188021   -2.6791 
407.0000   0.47212954   -1.9668 
408.0000   0.47179055   -1.0665 
409.0000   0.47279847   -0.1849 
410.0000   0.47317709   0.4092 
411.0000   0.47367340   1.5801 
412.0000   0.47329605   2.3580 
413.0000   0.47488148   3.4120 
414.0000   0.47335957   4.1378 
415.0000   0.47594616   5.2102 
416.0000   0.47475600   5.9301 
417.0000   0.47446239   6.8033 
418.0000   0.47508391   7.7048 
419.0000   0.47585473   8.6250 
420.0000   0.47812557   9.6938 
421.0000   0.47709242   10.4184 
422.0000   0.47801957   11.3269 
423.0000   0.47751453   12.2858 
424.0000   0.47858162   13.1299 
425.0000   0.47985965   14.0474 
426.0000   0.48012705   14.9361 
427.0000   0.47747941   15.8221 
428.0000   0.47767717   16.6928 
429.0000   0.47786540   17.5879 
430.0000   0.47893404   18.3410 
431.0000   0.47851763   19.3699 
432.0000   0.48313202   20.3256 
433.0000   0.48342067   21.1665 
434.0000   0.48327463   22.0476 
435.0000   0.48048475   22.9698 
436.0000   0.48196623   23.8957 
437.0000   0.48165804   24.5924 
438.0000   0.48336281   25.6761 
439.0000   0.48287857   26.5339 
440.0000   0.48489788   27.4507 
441.0000   0.48511237   28.3152 
442.0000   0.48634356   29.2347 
443.0000   0.48727648   30.1336 
444.0000   0.48135461   30.7811 
445.0000   0.48164951   31.6884 
446.0000   0.48251525   32.6002 
447.0000   0.48190560   33.4457 
448.0000   0.48274116   34.3519 
449.0000   0.48747497   35.3358 
450.0000   0.48766503   36.2300 
451.0000   0.48626460   37.0445 
452.0000   0.48568435   37.8968 
453.0000   0.48645852   38.8811 
454.0000   0.48912831   39.7912 
455.0000   0.48891822   40.7019 
456.0000   0.48817929   41.6174 
457.0000   0.48492464   42.3757 
458.0000   0.48474006   43.2699 
459.0000   0.48490499   44.1804 
460.0000   0.49289866   45.2268 
461.0000   0.48526179   46.0470 
462.0000   0.49338097   47.0053 
463.0000   0.48543775   47.8352 
464.0000   0.48587675   48.7470 
465.0000   0.48657436   49.7051 
466.0000   0.49021061   50.4472 
467.0000   0.48895635   51.3393 
468.0000   0.48760704   52.4578 
469.0000   0.48844922   53.1614 
470.0000   0.48809605   54.0333 
471.0000   0.48803671   54.9741 
472.0000   0.48756201   55.9140 
473.0000   0.48730405   56.8578 
474.0000   0.48709182   57.7706 
475.0000   0.48770685   58.6583 
476.0000   0.49647074   59.7692 
477.0000   0.48772321   60.5727 
478.0000   0.48792035   61.5609 
479.0000   0.48934125   62.4910 
480.0000   0.48968104   63.4241 
481.0000   0.49157418   64.4034 
482.0000   0.49166026   65.1163 
483.0000   0.49216766   66.0211 
484.0000   0.49077949   66.9602 
485.0000   0.49492984   68.1335 
486.0000   0.49085586   68.8107 
487.0000   0.49856518   70.0079 
488.0000   0.49043782   70.6607 
489.0000   0.49820608   71.8228 
490.0000   0.49900535   72.6764 
491.0000   0.49867645   73.4978 
492.0000   0.49073612   74.4906 
493.0000   0.49746304   75.2591 
494.0000   0.49609244   76.1352 
495.0000   0.49187954   77.3181 
496.0000   0.49576757   77.9715 
497.0000   0.49496484   78.8881 
498.0000   0.49579094   80.1986 
499.0000   0.49378839   80.7722 
500.0000   0.49951735   82.0707 
501.0000   0.50002066   83.0024 
502.0000   0.50112771   83.7015 
503.0000   0.49423035   84.5045 
504.0000   0.50140289   85.6829 
505.0000   0.50148740   86.4699 
506.0000   0.49515698   87.2859 
507.0000   0.49524318   88.3744 
508.0000   0.50074698   89.0871 
509.0000   0.49833767   90.3507 
510.0000   0.49709552   91.1910 
511.0000   0.50012672   91.8225 
512.0000   0.50099413   93.1648 
513.0000   0.50148645   94.1010 
514.0000   0.49886792   94.6851 
515.0000   0.50412862   95.9313 
516.0000   0.49908999   96.5949 
517.0000   0.49967904   97.5362 
518.0000   0.50482057   98.6589 
519.0000   0.50471343   99.5170 
520.0000   0.50504468   100.3386 
521.0000   0.50168053   101.4822 
522.0000   0.50596027   102.1060 
523.0000   0.50372309   103.4596 
524.0000   0.50555971   104.4225 
525.0000   0.50637797   105.3985 
526.0000   0.50548094   106.3522 
527.0000   0.50767638   107.2683 
528.0000   0.50590625   107.7027 
529.0000   0.50785848   109.0552 
530.0000   0.50609702   109.6728 
531.0000   0.50773067   110.8740 
532.0000   0.50758520   111.6953 
533.0000   0.50666049   112.5236 
534.0000   0.50701212   113.4668 
535.0000   0.50737306   114.4615 
536.0000   0.50957589   115.3045 
537.0000   0.50890299   116.4711 
538.0000   0.51109400   117.0688 
539.0000   0.51178953   117.9858 
540.0000   0.51160779   119.3665 
541.0000   0.51096937   119.9322 
542.0000   0.51231930   121.2422 
543.0000   0.51250421   122.1735 
544.0000   0.51155477   122.7950 
545.0000   0.51175785   123.7801 
546.0000   0.51194064   124.7395 
547.0000   0.51223315   125.7761 
548.0000   0.51184900   126.5414 
549.0000   0.51199776   127.4583 
550.0000   0.51190867   128.3334 
551.0000   0.51265193   129.2344 
552.0000   0.51523834   130.0150 
553.0000   0.51622343   131.0028 
554.0000   0.51673927   131.9520 
555.0000   0.51551458   133.3233 
556.0000   0.51733108   133.7702 
557.0000   0.51739850   134.7473 
558.0000   0.51773094   135.6896 
559.0000   0.51729323   136.6949 
560.0000   0.51708038   137.8054 
561.0000   0.51450411   138.7057 
562.0000   0.51837308   139.8217 
563.0000   0.51633836   140.4721 
564.0000   0.51846212   141.7148 
565.0000   0.51904962   142.6549 
566.0000   0.51905679   143.5699 
567.0000   0.51790287   144.2537 
568.0000   0.51870642   145.4818 
569.0000   0.51825899   146.4165 
570.0000   0.51891494   147.3351 
571.0000   0.52072186   147.9788 
572.0000   0.51596537   149.1341 
573.0000   0.51611051   150.0719 
574.0000   0.51640538   150.9603 
575.0000   0.51762720   151.8819 
576.0000   0.51654278   152.8891 
577.0000   0.52145675   153.9102 
578.0000   0.51781413   154.7555 
579.0000   0.51781549   155.6645 
580.0000   0.51847657   156.6043 
581.0000   0.52131538   157.7929 
582.0000   0.51793280   158.5069 
583.0000   0.51849807   159.6088 
584.0000   0.52323848   160.3213 
585.0000   0.51749884   161.4376 
586.0000   0.52290835   162.4618 
587.0000   0.52351995   163.1819 
588.0000   0.52357049   164.0565 
589.0000   0.51759390   165.2995 
590.0000   0.52297874   166.1964 
591.0000   0.52301411   167.2310 
592.0000   0.52312223   168.2170 
593.0000   0.52311901   169.1878 
594.0000   0.52279001   170.1760 
595.0000   0.52079102   171.1907 
596.0000   0.51961225   172.1459 
597.0000   0.51838308   173.0738 
598.0000   0.52031465   174.0522 
599.0000   0.51989858   175.0110 
600.0000   0.52045961   175.9946 
601.0000   0.52375155   176.5748 
602.0000   0.51768371   177.8692 
603.0000   0.52325537   178.6128 
604.0000   0.51754718   179.7858 
605.0000   0.52304538   -179.4129 
606.0000   0.51751453   -178.3107 
607.0000   0.52199507   -177.2979 
608.0000   0.52030408   -176.4732 
609.0000   0.52217583   -175.5521 
610.0000   0.51904161   -174.4861 
611.0000   0.52144690   -173.3644 
612.0000   0.51876727   -172.5468 
613.0000   0.52010142   -171.4046 
614.0000   0.52230825   -170.7034 
615.0000   0.52270372   -169.6969 
616.0000   0.52275940   -168.7521 
617.0000   0.52277508   -167.7855 
618.0000   0.52259286   -166.7575 
619.0000   0.51716828   -165.6964 
620.0000   0.52157453   -164.5094 
621.0000   0.51684173   -163.6797 
622.0000   0.52157982   -162.6005 
623.0000   0.51709843   -161.7505 
624.0000   0.52134481   -160.6441 
625.0000   0.52088624   -159.5503 
626.0000   0.51993003   -158.5707 
627.0000   0.51931016   -157.9153 
628.0000   0.51925626   -156.5785 
629.0000   0.51921238   -155.6127 
630.0000   0.51749602   -154.6583 
631.0000   0.51599898   -153.7429 
632.0000   0.51594089   -152.8176 
633.0000   0.52080499   -152.0424 
634.0000   0.51575876   -150.7519 
635.0000   0.51987257   -149.9607 
636.0000   0.51554572   -148.7881 
637.0000   0.51534796   -147.8440 
638.0000   0.51554891   -146.9046 
639.0000   0.51577401   -145.9273 
640.0000   0.51607144   -144.9531 
641.0000   0.51836004   -143.7883 
642.0000   0.51713270   -143.0594 
643.0000   0.51561703   -141.8243 
644.0000   0.51823045   -141.0800 
645.0000   0.51611766   -139.7760 
646.0000   0.51800269   -139.1110 
647.0000   0.51476835   -137.8306 
648.0000   0.51749825   -137.1507 
649.0000   0.51690214   -136.0858 
650.0000   0.51626157   -135.0068 
651.0000   0.51579457   -133.9597 
652.0000   0.51550338   -132.9298 
653.0000   0.51295429   -132.0191 
654.0000   0.51506296   -130.9757 
655.0000   0.51478946   -129.7808 
656.0000   0.51388937   -128.8254 
657.0000   0.51453672   -127.7755 
658.0000   0.51432485   -126.7702 
659.0000   0.51437002   -126.1679 
660.0000   0.51380761   -124.7566 
661.0000   0.51439794   -124.2127 
662.0000   0.51226690   -122.8267 
663.0000   0.51184751   -121.8236 
664.0000   0.51132532   -120.8542 
665.0000   0.51102025   -119.8893 
666.0000   0.51106408   -118.8327 
667.0000   0.51127363   -118.0579 
668.0000   0.51244284   -117.1527 
669.0000   0.51119898   -115.9219 
670.0000   0.51085434   -114.9901 
671.0000   0.51100146   -114.0548 
672.0000   0.51058535   -113.0068 
673.0000   0.51120354   -111.7596 
674.0000   0.51168447   -111.1352 
675.0000   0.51140759   -110.1426 
676.0000   0.51132155   -109.1492 
677.0000   0.51107267   -108.1465 
678.0000   0.51112380   -107.1494 
679.0000   0.50976386   -105.8126 
680.0000   0.50900330   -104.9502 
681.0000   0.50943767   -104.0639 
682.0000   0.50930908   -102.8138 
683.0000   0.50836184   -101.9418 
684.0000   0.50822137   -100.9655 
685.0000   0.50921507   -100.0583 
686.0000   0.50847207   -98.8218 
687.0000   0.50953957   -98.1312 
688.0000   0.50861821   -96.7990 
689.0000   0.50883108   -95.7828 
690.0000   0.50877017   -94.7822 
691.0000   0.50897020   -93.8177 
692.0000   0.50880471   -92.8740 
693.0000   0.50874318   -91.8500 
694.0000   0.50802254   -91.0551 
695.0000   0.50834683   -90.1726 
696.0000   0.50818959   -88.9830 
697.0000   0.50630603   -88.1492 
698.0000   0.50813111   -87.2054 
699.0000   0.50609764   -86.1160 
700.0000   0.50806813   -85.2430 
701.0000   0.50817363   -84.3063 
702.0000   0.50831970   -83.3425 
703.0000   0.50692599   -82.0381 
704.0000   0.50797661   -81.4753 
705.0000   0.50781390   -80.4834 
706.0000   0.50753096   -79.5030 
707.0000   0.50719708   -78.5138 
708.0000   0.50708977   -77.5255 
709.0000   0.50528794   -76.3814 
710.0000   0.50558603   -75.6194 
711.0000   0.50530144   -74.6225 
712.0000   0.50530199   -73.6181 
713.0000   0.50564696   -72.5637 
714.0000   0.50544741   -71.7456 
715.0000   0.50510558   -70.6929 
716.0000   0.50550897   -69.6673 
717.0000   0.50527343   -68.6791 
718.0000   0.50570347   -67.6768 
719.0000   0.50588920   -66.6530 
720.0000   0.50539057   -65.7320 
721.0000   0.50731030   -65.0696 
722.0000   0.50778432   -63.7687 
723.0000   0.50509856   -63.0321 
724.0000   0.50703061   -61.7507 
725.0000   0.50574449   -61.1686 
