! 140 4400 1
# MHz S MA R 50.0
!freq ReS11 ImS11
140.0000   0.4013738539   -29.0054924664 
141.0000   0.4031546934   -27.9955550915 
142.0000   0.4059747956   -25.1617989736 
143.0000   0.4083989273   -25.0101965259 
144.0000   0.4107244985   -28.4410878280 
145.0000   0.4128640611   -21.7570100236 
146.0000   0.4150034479   -20.0579427495 
147.0000   0.4154116544   -17.6024571748 
148.0000   0.4161992417   -13.0509131303 
149.0000   0.4166698771   -13.9788439449 
150.0000   0.4167585271   -11.8652757945 
151.0000   0.4167948137   -9.8719937794 
152.0000   0.4164015255   -8.6770884981 
153.0000   0.4160801586   -5.8621264005 
154.0000   0.4158581944   -3.4792242214 
155.0000   0.4152822871   -1.4902624935 
156.0000   0.4148540447   -1.2533140810 
157.0000   0.4145546007   2.4842459947 
158.0000   0.4143379857   4.5144734764 
159.0000   0.4137635150   7.2455715752 
160.0000   0.4133363419   10.4078309271 
161.0000   0.4129986858   12.6579931460 
162.0000   0.4126265275   15.4711584785 
163.0000   0.4123587341   18.6038321572 
164.0000   0.4120990221   21.5067513000 
165.0000   0.4119946303   24.2776746259 
166.0000   0.4118175776   29.9602341620 
167.0000   0.4120495485   30.3130485484 
168.0000   0.4125456950   30.7422308684 
169.0000   0.4128434030   34.8515661788 
170.0000   0.4129687578   36.2946528283 
171.0000   0.4136201640   38.6320223317 
172.0000   0.4140188165   39.4735081009 
173.0000   0.4144735492   42.3316033972 
174.0000   0.4151852036   43.7395804665 
175.0000   0.4155995203   45.5727659599 
176.0000   0.4160964492   47.3310115518 
177.0000   0.4166733044   48.9552394649 
178.0000   0.4169737911   50.9113009976 
179.0000   0.4174386604   52.9323333435 
180.0000   0.4175849366   54.0188707652 
181.0000   0.4179183961   56.3108698382 
182.0000   0.4185900195   57.3624412251 
183.0000   0.4188188656   59.4785391621 
184.0000   0.4190913902   61.3413261645 
185.0000   0.4192131123   63.4282659880 
186.0000   0.4192859625   65.1253541352 
187.0000   0.4195397291   66.7486386060 
188.0000   0.4193103473   68.5408967971 
189.0000   0.4191662060   70.6424971744 
190.0000   0.4184891454   71.4447181082 
191.0000   0.4175370652   74.2734837630 
192.0000   0.4165816270   76.7957696294 
193.0000   0.4151770614   78.4104565609 
194.0000   0.4138123986   79.7439093888 
195.0000   0.4121520918   81.6682517715 
196.0000   0.4106071033   83.8959667707 
197.0000   0.4089539695   85.7912167760 
198.0000   0.4070709924   87.5352191278 
199.0000   0.4056747622   89.3720842119 
200.0000   0.4043214166   91.2967879779 
201.0000   0.4030311845   93.4108202377 
202.0000   0.4021553005   95.3103011636 
203.0000   0.4009074207   97.1222218252 
204.0000   0.4004296568   98.1268863897 
205.0000   0.4001765658   100.6995511731 
206.0000   0.3998044702   102.5328950049 
207.0000   0.3997737441   103.8325649828 
208.0000   0.4002374874   105.3493875655 
209.0000   0.4006154030   106.9652310979 
210.0000   0.4015111368   108.6244582243 
211.0000   0.4024454380   110.1755346258 
212.0000   0.4034912647   111.8246042259 
213.0000   0.4047836148   113.4464137742 
214.0000   0.4058061365   114.9267067652 
215.0000   0.4075419875   116.8975624397 
216.0000   0.4092590140   118.5795431592 
217.0000   0.4107953950   120.0058358342 
218.0000   0.4121333329   121.2706692801 
219.0000   0.4140830521   123.5482872809 
220.0000   0.4156743510   125.3719941585 
221.0000   0.4173801777   126.9752061221 
222.0000   0.4184945755   128.6257311407 
223.0000   0.4201536305   130.3078425267 
224.0000   0.4215763305   132.2362280290 
225.0000   0.4231232013   133.8180005331 
226.0000   0.4246960950   135.6315126614 
227.0000   0.4260067040   137.1536733935 
228.0000   0.4276362773   138.9028938121 
229.0000   0.4292153307   140.8269302914 
230.0000   0.4304662859   142.6518997667 
231.0000   0.4318589364   144.2692592797 
232.0000   0.4332686287   145.9379760974 
233.0000   0.4344786438   147.7420293645 
234.0000   0.4359435716   149.1783692967 
235.0000   0.4372928702   150.8800969974 
236.0000   0.4384537624   152.5843747912 
237.0000   0.4397556278   154.3695128832 
238.0000   0.4412825194   156.4857475196 
239.0000   0.4418456246   157.8889459219 
240.0000   0.4430798667   159.1206004277 
241.0000   0.4441771727   161.2016692166 
242.0000   0.4449599777   162.0470582789 
243.0000   0.4465828272   164.3264186321 
244.0000   0.4478733865   165.8429090030 
245.0000   0.4491316312   167.9209222889 
246.0000   0.4505049869   169.6351650461 
247.0000   0.4520218304   171.5342052566 
248.0000   0.4533964712   173.2424095273 
249.0000   0.4548931520   175.2900724754 
250.0000   0.4562229648   177.1181888054 
251.0000   0.4575214240   178.9615149723 
252.0000   0.4589562059   -179.0073944287 
253.0000   0.4603669082   -176.9081130000 
254.0000   0.4613541450   -175.0422986580 
255.0000   0.4626882035   -172.9994686134 
256.0000   0.4638216214   -170.7706776110 
257.0000   0.4648789441   -168.9360786759 
258.0000   0.4661798824   -166.7103969998 
259.0000   0.4671946617   -164.7783886317 
260.0000   0.4680856291   -162.6255773203 
261.0000   0.4690379991   -160.6749546507 
262.0000   0.4686617584   -158.3124309224 
263.0000   0.4705006475   -156.7828874445 
264.0000   0.4710555090   -154.9163483829 
265.0000   0.4715559222   -152.8285063603 
266.0000   0.4727243964   -150.7418430340 
267.0000   0.4722927739   -148.7953671199 
268.0000   0.4726519202   -146.8320669594 
269.0000   0.4729956730   -144.9546658141 
270.0000   0.4731090746   -142.8931476329 
271.0000   0.4733551651   -140.9917376730 
272.0000   0.4732568782   -138.9760522515 
273.0000   0.4734530451   -136.9744917972 
274.0000   0.4735502497   -135.0373154777 
275.0000   0.4735959467   -133.0898601573 
276.0000   0.4737513946   -130.9666441243 
277.0000   0.4738807213   -129.2135907683 
278.0000   0.4739684237   -127.0985253215 
279.0000   0.4741696350   -125.2266812456 
280.0000   0.4742606032   -123.2183089423 
281.0000   0.4743725121   -121.2605290226 
282.0000   0.4747639372   -119.2776228782 
283.0000   0.4752708690   -117.2861012201 
284.0000   0.4758165368   -115.3298170006 
285.0000   0.4766198605   -113.2435886514 
286.0000   0.4770332462   -111.1455397968 
287.0000   0.4785830859   -109.2268619896 
288.0000   0.4797622310   -107.4346124614 
289.0000   0.4810094288   -105.1427761690 
290.0000   0.4826674830   -102.6919355038 
291.0000   0.4833129854   -101.0281338622 
292.0000   0.4845418166   -99.0115357083 
293.0000   0.4854563303   -96.9135532679 
294.0000   0.4865848297   -94.8323920390 
295.0000   0.4867463426   -92.7147365613 
296.0000   0.4874411947   -90.6062605854 
297.0000   0.4882756796   -88.5845312496 
298.0000   0.4895014091   -86.5636412893 
299.0000   0.4899880423   -84.4473375679 
300.0000   0.4908612448   -82.2494400598 
301.0000   0.4905755760   -80.3307791795 
302.0000   0.4921768067   -78.1523904838 
303.0000   0.4925324221   -76.1402117006 
304.0000   0.4920474754   -74.1627128541 
305.0000   0.4923554784   -72.0800976285 
306.0000   0.4929012669   -70.0137314602 
307.0000   0.4934601713   -68.0341929792 
308.0000   0.4935475803   -66.0004886231 
309.0000   0.4921178532   -63.9454617237 
310.0000   0.4905780585   -62.2878165775 
311.0000   0.4930630089   -60.0364401562 
312.0000   0.4921730018   -57.8980841259 
313.0000   0.4921408976   -56.1024066385 
314.0000   0.4941282144   -54.2049593597 
315.0000   0.4912552594   -52.1724483014 
316.0000   0.4909767286   -50.3113818403 
317.0000   0.4912433623   -48.1689724055 
318.0000   0.4896863529   -46.3637220990 
319.0000   0.4894480653   -44.2738873218 
320.0000   0.4885606535   -42.3103050816 
321.0000   0.4881833650   -40.5396841826 
322.0000   0.4874984849   -38.6619016502 
323.0000   0.4864725342   -36.5319053961 
324.0000   0.4859209450   -34.6504842292 
325.0000   0.4853442892   -32.7029081754 
326.0000   0.4846779856   -30.8823731425 
327.0000   0.4837428931   -29.0096859417 
328.0000   0.4828327097   -27.0902088826 
329.0000   0.4817564063   -24.9993761457 
330.0000   0.4807736926   -23.2513237463 
331.0000   0.4797162326   -21.3331671968 
332.0000   0.4785380058   -19.3681936957 
333.0000   0.4774947527   -17.3798023088 
334.0000   0.4756044090   -15.8521869609 
335.0000   0.4751811175   -13.5095852059 
336.0000   0.4742102570   -11.7202786636 
337.0000   0.4731351980   -9.7051953551 
338.0000   0.4711335531   -8.2907532450 
339.0000   0.4712070899   -6.0445983012 
340.0000   0.4701146347   -3.9242677136 
341.0000   0.4691081335   -2.0655417929 
342.0000   0.4681526699   -0.3405740758 
343.0000   0.4673435156   1.7290201381 
344.0000   0.4662997280   3.4902753317 
345.0000   0.4653583565   5.5076899854 
346.0000   0.4644095063   7.2774199825 
347.0000   0.4635409172   9.1851079911 
348.0000   0.4627381122   11.1903663420 
349.0000   0.4619136969   13.0601023361 
350.0000   0.4610441087   14.9925744091 
351.0000   0.4603515272   16.7246079834 
352.0000   0.4598985650   18.7368551144 
353.0000   0.4592394348   20.4918572717 
354.0000   0.4588867953   22.4883592371 
355.0000   0.4584013226   24.4533389196 
356.0000   0.4576812839   26.3489505959 
357.0000   0.4570226213   28.1520169254 
358.0000   0.4562660556   30.5611365319 
359.0000   0.4559689434   31.9110833381 
360.0000   0.4556564637   33.6068880215 
361.0000   0.4551823919   35.5157603838 
362.0000   0.4539210504   37.6624920466 
363.0000   0.4551781087   39.2171542554 
364.0000   0.4546887053   41.1183306677 
365.0000   0.4542815511   42.9218344309 
366.0000   0.4540547689   44.7719061485 
367.0000   0.4536320850   46.7305023698 
368.0000   0.4533359344   48.6166647628 
369.0000   0.4532222844   50.3494420048 
370.0000   0.4530583540   52.3029867120 
371.0000   0.4529942299   54.0371770404 
372.0000   0.4529575625   55.8776198172 
373.0000   0.4527934941   57.8367543429 
374.0000   0.4523846391   59.5424770315 
375.0000   0.4520740151   61.4703554826 
376.0000   0.4517683263   63.3409777565 
377.0000   0.4512038644   65.1614553476 
378.0000   0.4507456335   66.8132922758 
379.0000   0.4501336142   68.7856266168 
380.0000   0.4495799732   70.5770345962 
381.0000   0.4489004444   72.2607178654 
382.0000   0.4478893509   74.0073066124 
383.0000   0.4474425153   75.8765679056 
384.0000   0.4466747045   77.6933553956 
385.0000   0.4459215752   79.5587376376 
386.0000   0.4457523240   81.2626275298 
387.0000   0.4446006823   83.1198852633 
388.0000   0.4439284221   84.9079945454 
389.0000   0.4432711361   86.7221805437 
390.0000   0.4427618019   88.4696228435 
391.0000   0.4421957408   90.1488031716 
392.0000   0.4416199987   92.0433587932 
393.0000   0.4413731177   93.8011537362 
394.0000   0.4410179144   95.6170220223 
395.0000   0.4406218998   97.3987451847 
396.0000   0.4405474555   99.0380711854 
397.0000   0.4403908487   100.8256231899 
398.0000   0.4402406582   102.6115663478 
399.0000   0.4402568870   104.3846492802 
400.0000   0.4404587690   106.1840200671 
401.0000   0.4404899166   108.0382465022 
402.0000   0.4407877342   109.8157162969 
403.0000   0.4411987154   111.5914381787 
404.0000   0.4414861067   113.3344922625 
405.0000   0.4419108652   115.1007534406 
406.0000   0.4437926668   116.8555171858 
407.0000   0.4426064881   118.6357635235 
408.0000   0.4429024640   120.3782197131 
409.0000   0.4434210066   122.3195215435 
410.0000   0.4443608847   123.9976546743 
411.0000   0.4439947431   125.7774107390 
412.0000   0.4444717826   127.5287826878 
413.0000   0.4448576421   129.4359407644 
414.0000   0.4454066826   131.2426498656 
415.0000   0.4459684167   132.9406934400 
416.0000   0.4463852874   134.7785827087 
417.0000   0.4470272892   136.5584293629 
418.0000   0.4475607430   138.2898469010 
419.0000   0.4481908571   140.1474018016 
420.0000   0.4489077079   141.8726529157 
421.0000   0.4496227427   143.7346352262 
422.0000   0.4502498828   145.4299949058 
423.0000   0.4509257737   147.2379766226 
424.0000   0.4517631862   149.0708826098 
425.0000   0.4522874185   150.8876450390 
426.0000   0.4529606544   152.6003634464 
427.0000   0.4537444235   154.4804548664 
428.0000   0.4543838565   156.2908029285 
429.0000   0.4550905010   157.9862373180 
430.0000   0.4561511494   159.8189917954 
431.0000   0.4565617722   161.5790189038 
432.0000   0.4574627871   163.4248552575 
433.0000   0.4581904496   165.1838160656 
434.0000   0.4592180419   166.7799292672 
435.0000   0.4595742629   168.7555838721 
436.0000   0.4602337070   170.4996942118 
437.0000   0.4608678899   172.3359004947 
438.0000   0.4616253174   174.0938567093 
439.0000   0.4621481262   175.9147163330 
440.0000   0.4628310991   177.6341101999 
441.0000   0.4636064206   179.4309152131 
442.0000   0.4641716033   -178.7141230621 
443.0000   0.4649087001   -176.9346854543 
444.0000   0.4655613660   -175.1191982308 
445.0000   0.4663626014   -173.3279541561 
446.0000   0.4670600035   -171.5602587507 
447.0000   0.4675644830   -169.7388676580 
448.0000   0.4683401311   -167.9573362427 
449.0000   0.4687579769   -166.1824583807 
450.0000   0.4693473461   -164.3599015346 
451.0000   0.4699296900   -162.5316126645 
452.0000   0.4703723917   -160.7535646689 
453.0000   0.4710521373   -158.9193767252 
454.0000   0.4706375489   -157.0743682428 
455.0000   0.4719086826   -155.2801968635 
456.0000   0.4724328360   -153.4928617181 
457.0000   0.4726770816   -151.5791185152 
458.0000   0.4729545240   -149.7641881649 
459.0000   0.4734140634   -147.9815958909 
460.0000   0.4739484351   -146.1204804918 
461.0000   0.4742027422   -144.3177660303 
462.0000   0.4747430297   -142.4688815664 
463.0000   0.4752449633   -140.6291509126 
464.0000   0.4756850420   -138.7998357644 
465.0000   0.4762199370   -136.9472158081 
466.0000   0.4767457921   -135.0626289153 
467.0000   0.4773170990   -133.2212308312 
468.0000   0.4780727370   -131.3631915721 
469.0000   0.4787630254   -129.4789279793 
470.0000   0.4795428305   -127.6155766384 
471.0000   0.4804697853   -125.7551273578 
472.0000   0.4814358935   -123.8499815659 
473.0000   0.4824751338   -121.9651535778 
474.0000   0.4833916277   -120.1486866495 
475.0000   0.4849021101   -118.2121759430 
476.0000   0.4855588708   -116.3489074827 
477.0000   0.4874802582   -114.4650945604 
478.0000   0.4884488286   -112.6222427928 
479.0000   0.4897135442   -110.6529571414 
480.0000   0.4913363784   -108.7920711927 
481.0000   0.4929496786   -106.8837566395 
482.0000   0.4925072403   -104.9209939688 
483.0000   0.4936287977   -103.0585407555 
484.0000   0.4948516914   -101.1620385039 
485.0000   0.4968450484   -99.2663935640 
486.0000   0.4973436815   -97.3044159033 
487.0000   0.4993279054   -95.3762245118 
488.0000   0.4985414617   -93.5180563189 
489.0000   0.4991475849   -91.6248850690 
490.0000   0.4999338702   -89.6700269606 
491.0000   0.5025505293   -87.7932327817 
492.0000   0.5029559444   -85.8790639376 
493.0000   0.5028125614   -83.9262909951 
494.0000   0.5046107628   -81.9214043460 
495.0000   0.5035740552   -80.0895740321 
496.0000   0.5063560401   -78.1332377974 
497.0000   0.5038093800   -76.1458149477 
498.0000   0.5068613545   -74.3478185751 
499.0000   0.5062567229   -72.3900747970 
500.0000   0.5061997067   -70.2882942299 
501.0000   0.5056012593   -68.5093015828 
502.0000   0.5045962462   -66.4796635914 
503.0000   0.5079699647   -64.5222931152 
504.0000   0.5052664972   -62.6426337289 
505.0000   0.5054897199   -60.7072988507 
506.0000   0.5057302103   -58.7622639977 
507.0000   0.5061963127   -56.8022772792 
508.0000   0.5072281189   -54.8788850137 
509.0000   0.5078620186   -52.9466119854 
510.0000   0.5070865911   -50.9883939764 
511.0000   0.5045829584   -49.0484659902 
512.0000   0.5073552202   -47.1861269258 
513.0000   0.5042190066   -45.1381649345 
514.0000   0.5056392677   -43.2845143468 
515.0000   0.5047474584   -41.1790057115 
516.0000   0.5047948337   -39.2274482753 
517.0000   0.5044566988   -37.2659809171 
518.0000   0.5026893983   -35.4069011436 
519.0000   0.5018657478   -33.4413276993 
520.0000   0.5039124392   -31.4565102574 
521.0000   0.5026905157   -29.4749978371 
522.0000   0.5017101146   -27.5083674118 
523.0000   0.5003175532   -25.5489188229 
524.0000   0.5000105537   -23.6008677781 
525.0000   0.4995943323   -21.6718094815 
526.0000   0.4983160751   -19.6710595009 
527.0000   0.4958777749   -17.6380265361 
528.0000   0.4967800524   -15.7995350210 
529.0000   0.4943869974   -13.7141927720 
530.0000   0.4943609780   -11.8569383232 
531.0000   0.4931386251   -9.7732461388 
532.0000   0.4926599041   -7.8202749546 
533.0000   0.4909323494   -5.9812212018 
534.0000   0.4910572369   -3.9112949088 
535.0000   0.4900698382   -1.9820417103 
536.0000   0.4885672421   -0.1191048973 
537.0000   0.4879728824   1.8178116363 
538.0000   0.4876655213   3.8691198837 
539.0000   0.4868083989   5.8287273236 
540.0000   0.4862755927   7.6583269790 
541.0000   0.4852942882   9.6830332127 
542.0000   0.4849678303   11.5069621974 
543.0000   0.4842027427   13.5123292641 
544.0000   0.4835349043   15.3278778446 
545.0000   0.4828563872   17.2377842319 
546.0000   0.4821919770   19.1736562632 
547.0000   0.4815237467   21.1076996475 
548.0000   0.4809419898   23.0047989108 
549.0000   0.4802662825   24.9247843288 
550.0000   0.4795726952   26.7301496384 
551.0000   0.4792294214   28.6458118622 
552.0000   0.4789029751   30.5174830893 
553.0000   0.4784305456   32.4633410428 
554.0000   0.4778143780   34.3587615542 
555.0000   0.4776353653   36.3552175745 
556.0000   0.4772879091   38.1171108309 
557.0000   0.4769224210   39.9887073497 
558.0000   0.4768099147   41.8679873629 
559.0000   0.4765460739   43.7410319467 
560.0000   0.4763558950   45.5978892633 
561.0000   0.4760756746   47.6364861797 
562.0000   0.4759040012   49.3547700189 
563.0000   0.4757243822   51.2454185404 
564.0000   0.4755252622   53.0827609479 
565.0000   0.4753431481   55.1133714050 
566.0000   0.4749688921   56.8202566059 
567.0000   0.4745394054   58.8352670570 
568.0000   0.4741739467   60.5268576796 
569.0000   0.4736489584   62.3863213791 
570.0000   0.4729972377   64.2241685137 
571.0000   0.4722788038   66.2177760168 
572.0000   0.4715938759   67.9431795335 
573.0000   0.4710589247   69.8094247258 
574.0000   0.4700795620   71.6557308579 
575.0000   0.4694366478   73.5810832833 
576.0000   0.4687119409   75.3068316612 
577.0000   0.4679526040   77.2699666724 
578.0000   0.4674006217   78.9226301710 
579.0000   0.4666324039   80.9503856657 
580.0000   0.4658763819   82.6261433287 
581.0000   0.4653098048   84.4320540794 
582.0000   0.4646192807   86.2756365875 
583.0000   0.4641135263   88.2546555280 
584.0000   0.4634656320   89.9582974510 
585.0000   0.4631044996   91.8535331417 
586.0000   0.4625871887   93.6739965337 
587.0000   0.4621828242   95.5239380797 
588.0000   0.4618314245   97.2114891217 
589.0000   0.4614200386   99.1692835436 
590.0000   0.4610625040   100.8646905113 
591.0000   0.4609088990   102.8146288754 
592.0000   0.4606616400   104.5256795438 
593.0000   0.4604259373   106.3303704620 
594.0000   0.4603324144   108.1165813106 
595.0000   0.4600702384   110.0279084705 
596.0000   0.4600597216   111.7656849578 
597.0000   0.4601188680   113.6245903638 
598.0000   0.4599462218   115.3412389168 
599.0000   0.4602165145   117.2890525526 
600.0000   0.4603667261   118.9413732822 
601.0000   0.4607103654   120.7719316226 
602.0000   0.4606672439   122.5408285939 
603.0000   0.4612232880   124.3763717026 
604.0000   0.4614774575   126.1982931607 
605.0000   0.4615979036   128.0366800790 
606.0000   0.4620506261   129.7687832930 
607.0000   0.4623598722   131.6205673509 
608.0000   0.4623553258   133.3505664974 
609.0000   0.4626410295   135.1492265238 
610.0000   0.4629910992   136.8971567445 
611.0000   0.4631438166   138.6675302789 
612.0000   0.4633239340   140.4423249370 
613.0000   0.4634737549   142.3134682695 
614.0000   0.4635458230   144.0263195813 
615.0000   0.4637729942   145.8324497767 
616.0000   0.4639809989   147.6129649808 
