# MHz S MA R 50.0
140.0000   0.43974442   -83.5617 
141.0000   0.44650069   -83.0435 
142.0000   0.45749543   -83.9005 
143.0000   0.45172500   -82.3415 
144.0000   0.45543931   -83.7908 
145.0000   0.46473846   -79.0982 
146.0000   0.48887800   -75.1356 
147.0000   0.47017586   -76.7647 
148.0000   0.46314860   -74.7799 
149.0000   0.47049776   -74.9877 
150.0000   0.47126688   -73.0520 
151.0000   0.47759852   -71.2534 
152.0000   0.48080799   -70.5702 
153.0000   0.47425076   -69.7455 
154.0000   0.47794342   -66.6230 
155.0000   0.47828562   -67.0424 
156.0000   0.48066659   -65.4055 
157.0000   0.47940908   -63.9340 
158.0000   0.48456579   -61.7337 
159.0000   0.47511142   -60.7604 
160.0000   0.47932998   -58.3103 
161.0000   0.47469320   -57.1685 
162.0000   0.47832958   -54.4156 
163.0000   0.47366411   -53.1787 
164.0000   0.47843995   -50.9002 
165.0000   0.47541653   -48.6300 
166.0000   0.46738104   -43.4059 
167.0000   0.46965694   -45.2461 
168.0000   0.47019179   -45.4553 
169.0000   0.47374055   -42.1939 
170.0000   0.46242176   -44.8203 
171.0000   0.47440859   -40.4716 
172.0000   0.47055630   -40.1619 
173.0000   0.47283392   -38.8391 
174.0000   0.47307423   -37.7763 
175.0000   0.47331485   -36.6194 
176.0000   0.47131614   -36.5630 
177.0000   0.47467488   -35.1439 
178.0000   0.47167264   -33.7283 
179.0000   0.47404216   -32.7159 
180.0000   0.47162647   -32.5238 
181.0000   0.47041990   -32.0453 
182.0000   0.46649688   -29.9903 
183.0000   0.47312814   -29.9132 
184.0000   0.47172392   -28.2621 
185.0000   0.47230785   -27.3534 
186.0000   0.47245951   -26.3749 
187.0000   0.46886434   -25.9004 
188.0000   0.46855356   -25.3078 
189.0000   0.47022107   -23.4280 
190.0000   0.46133559   -21.3570 
191.0000   0.46609371   -21.5750 
192.0000   0.46373954   -19.5479 
193.0000   0.46284134   -19.7753 
194.0000   0.46545239   -16.5239 
195.0000   0.45921531   -17.9633 
196.0000   0.45536315   -17.1530 
197.0000   0.45639623   -15.9447 
198.0000   0.45359102   -14.9262 
199.0000   0.45311744   -13.9516 
200.0000   0.45130112   -12.9493 
201.0000   0.44832853   -12.0683 
202.0000   0.45030448   -10.8685 
203.0000   0.44967106   -9.9114 
204.0000   0.44843268   -10.0697 
205.0000   0.44450798   -8.4434 
206.0000   0.44515998   -7.4427 
207.0000   0.44409665   -6.9128 
208.0000   0.44538821   -6.1279 
209.0000   0.44717951   -5.3333 
210.0000   0.44894462   -4.7591 
211.0000   0.44923832   -3.9655 
212.0000   0.45043586   -3.2898 
213.0000   0.45064908   -2.3608 
214.0000   0.44661050   -2.3524 
215.0000   0.45052216   -0.9527 
216.0000   0.44880579   0.4742 
217.0000   0.45140111   0.7536 
218.0000   0.45383964   3.2982 
219.0000   0.45485613   2.8915 
220.0000   0.45409276   3.6269 
221.0000   0.45636707   4.6723 
222.0000   0.45455987   5.4292 
223.0000   0.45695936   6.4287 
224.0000   0.45394540   7.1373 
225.0000   0.45501628   8.0706 
226.0000   0.45432271   8.8328 
227.0000   0.45654848   9.9148 
228.0000   0.45838270   11.4954 
229.0000   0.45618104   11.8626 
230.0000   0.45385400   12.5610 
231.0000   0.45692880   13.6078 
232.0000   0.45596859   14.4824 
233.0000   0.45628128   15.3090 
234.0000   0.45523421   16.1534 
235.0000   0.45582318   17.0463 
236.0000   0.45584968   17.8566 
237.0000   0.45762137   18.7897 
238.0000   0.46136415   19.6056 
239.0000   0.45820083   20.3793 
240.0000   0.45620213   21.6599 
241.0000   0.45680296   22.3230 
242.0000   0.45179829   23.1200 
243.0000   0.45802239   24.0903 
244.0000   0.45800720   25.0050 
245.0000   0.45905603   25.8329 
246.0000   0.45746110   26.7415 
247.0000   0.45931407   27.9470 
248.0000   0.46002548   28.7283 
249.0000   0.46184756   29.8879 
250.0000   0.46199458   31.0514 
251.0000   0.46156870   32.0462 
252.0000   0.46144507   32.8176 
253.0000   0.46304909   34.3310 
254.0000   0.46485775   34.9765 
255.0000   0.46431772   36.3408 
256.0000   0.46656508   37.7079 
257.0000   0.46651427   38.7357 
258.0000   0.46565440   39.7900 
259.0000   0.46969556   41.0632 
260.0000   0.46981285   42.0712 
261.0000   0.46764663   43.0979 
262.0000   0.46909411   43.4900 
263.0000   0.46902546   45.2595 
264.0000   0.47378586   46.7278 
265.0000   0.46974896   47.4482 
266.0000   0.47067420   48.4349 
267.0000   0.47206119   49.6028 
268.0000   0.46966669   50.6324 
269.0000   0.47505329   51.7093 
270.0000   0.47238456   52.5718 
271.0000   0.47234120   53.7267 
272.0000   0.47775181   54.8245 
273.0000   0.47399808   55.8347 
274.0000   0.47928489   56.9650 
275.0000   0.47513945   57.8468 
276.0000   0.47622427   59.0411 
277.0000   0.47878257   59.9908 
278.0000   0.47971835   60.9396 
279.0000   0.48054353   62.0122 
280.0000   0.48207906   63.0766 
281.0000   0.48305213   64.1221 
282.0000   0.48283765   65.1026 
283.0000   0.47501672   65.9040 
284.0000   0.48275095   67.0839 
285.0000   0.47581697   67.9810 
286.0000   0.47723778   69.2846 
287.0000   0.47862473   70.1174 
288.0000   0.47920063   71.1882 
289.0000   0.47885822   72.1739 
290.0000   0.48206746   73.8703 
291.0000   0.47821914   74.2598 
292.0000   0.48249161   75.5790 
293.0000   0.48712019   76.4924 
294.0000   0.48544040   77.6119 
295.0000   0.48763660   78.6451 
296.0000   0.47709571   79.7457 
297.0000   0.48812977   80.7768 
298.0000   0.48503045   81.6916 
299.0000   0.47849949   83.0881 
300.0000   0.47896566   84.0340 
301.0000   0.48280411   84.8987 
302.0000   0.48102144   86.4202 
303.0000   0.48189685   87.0514 
304.0000   0.48502341   88.5814 
305.0000   0.48421152   89.6479 
306.0000   0.47928100   90.2537 
307.0000   0.47881897   91.3419 
308.0000   0.47873644   92.4382 
309.0000   0.47849617   93.4675 
310.0000   0.48009596   94.9721 
311.0000   0.47835951   95.5987 
312.0000   0.47884785   96.4937 
313.0000   0.47929992   97.6842 
314.0000   0.47997872   98.5523 
315.0000   0.48471398   99.6505 
316.0000   0.48025256   100.6696 
317.0000   0.48232151   101.7640 
318.0000   0.48152354   102.5592 
319.0000   0.47995257   103.6055 
320.0000   0.48610236   104.7316 
321.0000   0.47910678   105.5845 
322.0000   0.48928044   106.5338 
323.0000   0.48935190   107.5453 
324.0000   0.47792675   108.4790 
325.0000   0.48901187   109.3573 
326.0000   0.48692935   110.2570 
327.0000   0.48699018   111.2176 
328.0000   0.47975116   112.5930 
329.0000   0.47994874   113.5691 
330.0000   0.48351402   114.0652 
331.0000   0.48154562   115.5275 
332.0000   0.48014244   116.0649 
333.0000   0.48295523   117.4572 
334.0000   0.47752719   118.2245 
335.0000   0.47788537   118.9975 
336.0000   0.47808806   119.8507 
337.0000   0.47722802   120.9624 
338.0000   0.48883882   121.7715 
339.0000   0.48805532   122.9981 
340.0000   0.48693011   123.7294 
341.0000   0.47852762   124.9787 
342.0000   0.47658279   125.8618 
343.0000   0.48280933   126.6657 
344.0000   0.47804588   127.7955 
345.0000   0.47828414   128.7441 
346.0000   0.47851664   129.5534 
347.0000   0.48113366   130.6640 
348.0000   0.47993290   131.6426 
349.0000   0.47589813   132.4714 
350.0000   0.47468344   133.4622 
351.0000   0.48363700   134.3736 
352.0000   0.47369757   135.3702 
353.0000   0.48488518   136.1348 
354.0000   0.47322745   137.3307 
355.0000   0.48467946   138.0875 
356.0000   0.47988554   138.9713 
357.0000   0.48259468   139.9231 
358.0000   0.47312555   141.0728 
359.0000   0.47383395   142.2197 
360.0000   0.47761383   142.7629 
361.0000   0.47482314   144.1265 
362.0000   0.47485523   144.5753 
363.0000   0.47407981   145.6545 
364.0000   0.47242171   146.7602 
365.0000   0.47901159   147.8602 
366.0000   0.47120690   148.6170 
367.0000   0.46990597   149.6434 
368.0000   0.46959922   150.6050 
369.0000   0.46922108   151.5450 
370.0000   0.46918499   152.5664 
371.0000   0.46914295   153.5553 
372.0000   0.47703441   154.4288 
373.0000   0.47571840   155.3366 
374.0000   0.47335395   156.2996 
375.0000   0.46900834   157.3977 
376.0000   0.47048792   158.3547 
377.0000   0.47170442   159.2768 
378.0000   0.47122234   160.2438 
379.0000   0.46790031   161.1016 
380.0000   0.47373871   162.0223 
381.0000   0.47288767   162.9961 
382.0000   0.46453909   163.9398 
383.0000   0.46461894   164.9841 
384.0000   0.46504810   165.8675 
385.0000   0.47376076   166.6565 
386.0000   0.47112427   167.7743 
387.0000   0.46314438   168.8159 
388.0000   0.46941776   169.4289 
389.0000   0.46414315   170.6880 
390.0000   0.46975401   171.3401 
391.0000   0.46592421   172.2828 
392.0000   0.46490840   173.4504 
393.0000   0.46391186   174.1649 
394.0000   0.46196602   175.1115 
395.0000   0.46686904   176.1478 
396.0000   0.46009335   177.0030 
397.0000   0.45962763   177.9241 
398.0000   0.45954413   178.8556 
399.0000   0.45876568   179.8075 
400.0000   0.46473854   -179.1834 
401.0000   0.46440653   -178.2753 
402.0000   0.46347496   -177.3054 
403.0000   0.46328869   -176.3691 
404.0000   0.45752648   -175.4766 
405.0000   0.46132293   -174.4937 
406.0000   0.45855047   -173.2994 
407.0000   0.45905206   -172.6703 
408.0000   0.45787859   -171.6674 
409.0000   0.45631827   -170.7791 
410.0000   0.45730534   -169.5943 
411.0000   0.45592922   -168.8987 
412.0000   0.45861810   -168.0255 
413.0000   0.45424152   -166.9965 
414.0000   0.45352552   -166.0440 
415.0000   0.45730093   -165.2035 
416.0000   0.45377636   -164.1802 
417.0000   0.45647630   -163.3103 
418.0000   0.45301957   -162.2654 
419.0000   0.45348845   -161.3462 
420.0000   0.45501349   -160.4869 
421.0000   0.45424866   -159.5424 
422.0000   0.45406761   -158.5140 
423.0000   0.45347246   -157.5830 
424.0000   0.45296669   -156.6332 
425.0000   0.45214620   -155.8251 
426.0000   0.45162572   -154.8899 
427.0000   0.45088625   -153.9448 
428.0000   0.45233130   -152.9917 
429.0000   0.45182912   -152.0236 
430.0000   0.45165640   -151.1008 
431.0000   0.45113649   -150.1928 
432.0000   0.44901357   -149.3400 
433.0000   0.44994013   -148.3381 
434.0000   0.44999594   -147.3668 
435.0000   0.44928960   -146.5060 
436.0000   0.44879389   -145.6326 
437.0000   0.44902340   -144.7469 
438.0000   0.44847156   -143.8340 
439.0000   0.44808015   -142.9273 
440.0000   0.44748088   -141.9647 
441.0000   0.44743721   -141.1176 
442.0000   0.44647393   -140.1289 
443.0000   0.44639595   -139.2657 
444.0000   0.44586278   -138.3422 
445.0000   0.44555187   -137.4636 
446.0000   0.44563221   -136.6029 
447.0000   0.44503476   -135.6187 
448.0000   0.44491208   -134.7495 
449.0000   0.44472266   -133.9158 
450.0000   0.44414321   -133.0182 
451.0000   0.44442805   -132.0444 
452.0000   0.44382889   -131.2332 
453.0000   0.44331270   -130.3010 
454.0000   0.44435455   -129.4352 
455.0000   0.44391844   -128.4498 
456.0000   0.44295910   -127.6077 
457.0000   0.44264041   -126.6608 
458.0000   0.44294535   -125.9960 
459.0000   0.44251231   -124.8177 
460.0000   0.44241462   -123.9399 
461.0000   0.44225533   -123.0516 
462.0000   0.44155330   -122.1363 
463.0000   0.44154779   -121.2337 
464.0000   0.44148756   -120.2993 
465.0000   0.44118142   -119.4029 
466.0000   0.44071264   -118.4804 
467.0000   0.44117786   -117.6048 
468.0000   0.44070795   -116.6811 
469.0000   0.44001219   -115.7680 
470.0000   0.44008028   -114.8840 
471.0000   0.43967785   -113.9545 
472.0000   0.43945848   -113.0264 
473.0000   0.43991092   -112.1536 
474.0000   0.43923632   -111.2084 
475.0000   0.43932848   -110.3216 
476.0000   0.43937625   -109.4359 
477.0000   0.43891817   -108.5102 
478.0000   0.43977544   -107.5113 
479.0000   0.43855485   -106.7010 
480.0000   0.43830322   -105.7290 
481.0000   0.43858291   -104.8392 
482.0000   0.43871721   -103.8597 
483.0000   0.43810518   -103.0299 
484.0000   0.43761116   -102.1966 
485.0000   0.43763727   -101.2533 
486.0000   0.43728199   -100.3340 
487.0000   0.43729313   -99.4170 
488.0000   0.43769254   -98.4863 
489.0000   0.43729786   -97.5790 
490.0000   0.43701704   -96.6946 
491.0000   0.43709603   -95.7834 
492.0000   0.43661383   -94.9044 
493.0000   0.43668193   -93.9762 
494.0000   0.43689600   -93.0908 
495.0000   0.43614619   -92.1574 
496.0000   0.43592182   -91.2628 
497.0000   0.43641231   -90.3866 
498.0000   0.43559701   -89.4544 
499.0000   0.43573179   -88.5685 
500.0000   0.43589031   -87.6750 
501.0000   0.43491694   -86.7442 
502.0000   0.43495885   -85.7661 
503.0000   0.43531068   -84.9817 
504.0000   0.43456499   -84.0739 
505.0000   0.43451116   -83.2025 
506.0000   0.43388052   -82.2711 
507.0000   0.43372866   -81.3667 
508.0000   0.43368191   -80.4514 
509.0000   0.43378573   -79.5817 
510.0000   0.43308012   -78.6823 
511.0000   0.43301156   -77.7968 
512.0000   0.43315506   -76.8923 
513.0000   0.43254794   -75.9813 
514.0000   0.43215039   -75.1749 
515.0000   0.43210746   -74.2750 
516.0000   0.43145503   -73.3451 
517.0000   0.43127870   -72.4867 
518.0000   0.43125958   -71.6089 
519.0000   0.43043906   -70.7156 
520.0000   0.43085591   -69.7151 
521.0000   0.43046255   -68.9101 
522.0000   0.43003345   -67.9145 
523.0000   0.42970651   -67.0362 
524.0000   0.42945354   -66.1561 
525.0000   0.42907310   -65.2449 
526.0000   0.42806909   -64.4587 
527.0000   0.42838814   -63.4852 
528.0000   0.42778964   -62.5893 
529.0000   0.42741503   -61.7045 
530.0000   0.42688828   -60.7723 
531.0000   0.42702825   -60.0021 
532.0000   0.42685858   -59.0890 
533.0000   0.42636420   -58.1592 
534.0000   0.42596790   -57.3475 
535.0000   0.42574017   -56.4641 
536.0000   0.42531841   -55.4955 
537.0000   0.42505108   -54.7009 
538.0000   0.42464328   -53.7200 
539.0000   0.42483363   -52.9545 
540.0000   0.42408213   -52.0477 
541.0000   0.42392723   -51.0745 
542.0000   0.42395964   -50.3221 
543.0000   0.42336153   -49.2859 
544.0000   0.42317364   -48.5719 
545.0000   0.42313731   -47.6700 
546.0000   0.42251828   -46.8049 
547.0000   0.42246172   -45.8972 
548.0000   0.42252845   -45.0212 
549.0000   0.42214541   -44.1168 
550.0000   0.42197688   -43.1353 
551.0000   0.42224617   -42.2841 
552.0000   0.42180020   -41.5505 
553.0000   0.42187629   -40.6131 
554.0000   0.42191587   -39.8147 
555.0000   0.42167041   -38.8056 
556.0000   0.42157750   -38.0000 
557.0000   0.42156545   -37.1280 
558.0000   0.42134403   -36.2483 
559.0000   0.42152688   -35.3713 
560.0000   0.42149619   -34.4905 
561.0000   0.42112274   -33.5552 
562.0000   0.42148660   -32.6900 
563.0000   0.42106631   -31.8156 
564.0000   0.42155673   -30.9478 
565.0000   0.42123829   -30.0150 
566.0000   0.42153621   -29.2136 
567.0000   0.42114138   -28.2540 
568.0000   0.42132155   -27.4413 
569.0000   0.42138357   -26.4925 
570.0000   0.42150187   -25.7082 
571.0000   0.42157843   -24.7914 
572.0000   0.42141919   -23.8932 
573.0000   0.42142795   -23.0003 
574.0000   0.42121594   -22.0801 
575.0000   0.42159134   -21.2076 
576.0000   0.42178192   -20.4223 
577.0000   0.42200471   -19.4566 
578.0000   0.42177303   -18.5958 
579.0000   0.42211239   -17.6943 
580.0000   0.42181967   -16.8631 
581.0000   0.42217837   -15.9295 
582.0000   0.42176478   -15.1287 
583.0000   0.42211891   -14.2179 
584.0000   0.42206945   -13.2847 
585.0000   0.42232045   -12.3789 
586.0000   0.42232674   -11.4997 
587.0000   0.42241066   -10.6580 
588.0000   0.42231269   -9.8110 
589.0000   0.42237769   -8.8948 
590.0000   0.42267632   -8.0188 
591.0000   0.42275214   -7.1041 
592.0000   0.42278938   -6.2249 
593.0000   0.42297606   -5.3576 
594.0000   0.42295035   -4.4745 
595.0000   0.42285172   -3.6427 
596.0000   0.42307790   -2.6622 
597.0000   0.42324431   -1.8664 
598.0000   0.42305734   -0.9258 
599.0000   0.42366232   -0.0357 
600.0000   0.42383497   0.7989 
601.0000   0.42381043   1.7367 
602.0000   0.42377380   2.5213 
603.0000   0.42405213   3.5275 
604.0000   0.42420814   4.3866 
605.0000   0.42429894   5.2694 
606.0000   0.42433729   6.1522 
607.0000   0.42441364   7.1049 
608.0000   0.42449874   7.9811 
609.0000   0.42477969   8.8842 
610.0000   0.42473963   9.7263 
611.0000   0.42517407   10.5942 
612.0000   0.42492660   11.5056 
613.0000   0.42548982   12.3341 
614.0000   0.42531527   13.3078 
615.0000   0.42544149   14.1998 
616.0000   0.42563600   15.0780 
617.0000   0.42607163   15.9376 
618.0000   0.42595371   16.8401 
619.0000   0.42604944   17.6656 
620.0000   0.42628377   18.6459 
621.0000   0.42628047   19.4694 
622.0000   0.42676040   20.3731 
623.0000   0.42672858   21.3232 
624.0000   0.42675612   22.1763 
625.0000   0.42696679   23.0946 
626.0000   0.42712043   24.0345 
627.0000   0.42690245   24.8205 
628.0000   0.42715078   25.7485 
629.0000   0.42728460   26.6342 
630.0000   0.42724261   27.5157 
631.0000   0.42759891   28.3451 
632.0000   0.42736982   29.3113 
633.0000   0.42759380   30.1635 
634.0000   0.42762555   31.1092 
635.0000   0.42765079   31.9631 
636.0000   0.42763568   32.8838 
637.0000   0.42774522   33.7796 
638.0000   0.42784431   34.6606 
639.0000   0.42796841   35.5063 
640.0000   0.42792456   36.4686 
641.0000   0.42800302   37.3458 
642.0000   0.42803244   38.2275 
643.0000   0.42843370   39.0654 
644.0000   0.42837765   40.0086 
645.0000   0.42846049   40.8556 
646.0000   0.42853063   41.8704 
647.0000   0.42856749   42.6684 
648.0000   0.42847230   43.5812 
649.0000   0.42881748   44.4718 
650.0000   0.42923789   45.3785 
651.0000   0.42891651   46.2837 
652.0000   0.42901107   47.1770 
653.0000   0.42913635   48.0423 
654.0000   0.42917983   48.9343 
655.0000   0.42938322   49.8102 
656.0000   0.42962495   50.7084 
657.0000   0.42954960   51.6152 
658.0000   0.42965626   52.5085 
659.0000   0.42963636   53.3527 
660.0000   0.42974197   54.2643 
661.0000   0.42979759   55.1258 
662.0000   0.43008742   56.0534 
663.0000   0.43014285   56.9691 
664.0000   0.43031026   57.8575 
665.0000   0.43036774   58.7285 
666.0000   0.43052753   59.6175 
667.0000   0.43045852   60.5041 
668.0000   0.43056038   61.3654 
669.0000   0.43067138   62.2450 
670.0000   0.43039405   63.1914 
671.0000   0.43079665   64.0543 
672.0000   0.43102290   64.9560 
673.0000   0.43102582   65.8414 
674.0000   0.43127762   66.6859 
675.0000   0.43126916   67.6189 
676.0000   0.43140606   68.4971 
677.0000   0.43158740   69.3395 
678.0000   0.43162283   70.2702 
679.0000   0.43199255   71.1234 
680.0000   0.43191235   71.9966 
681.0000   0.43192267   72.8811 
682.0000   0.43214459   73.7471 
683.0000   0.43227145   74.6684 
684.0000   0.43236181   75.5639 
685.0000   0.43240855   76.4092 
686.0000   0.43276110   77.3225 
687.0000   0.43267484   78.1758 
688.0000   0.43290810   79.0983 
689.0000   0.43309303   79.9718 
690.0000   0.43310102   80.8299 
691.0000   0.43330570   81.7078 
692.0000   0.43355050   82.5978 
693.0000   0.43370790   83.4899 
694.0000   0.43364073   84.3837 
695.0000   0.43387534   85.2155 
696.0000   0.43396890   86.1257 
697.0000   0.43418547   86.9752 
698.0000   0.43435463   87.9278 
699.0000   0.43445024   88.7554 
700.0000   0.43456120   89.6500 
701.0000   0.43475080   90.5439 
702.0000   0.43476817   91.4208 
703.0000   0.43514179   92.2410 
704.0000   0.43508449   93.1329 
705.0000   0.43537847   94.0296 
706.0000   0.43540803   94.9241 
707.0000   0.43564304   95.7889 
708.0000   0.43571625   96.6355 
709.0000   0.43584504   97.4957 
710.0000   0.43645260   98.2176 
711.0000   0.43631718   99.1016 
712.0000   0.43654163   99.9868 
713.0000   0.43653480   100.8568 
714.0000   0.43664436   101.7358 
715.0000   0.43683292   102.6071 
716.0000   0.43695471   103.4521 
717.0000   0.43698708   104.3421 
718.0000   0.43714394   105.2921 
719.0000   0.43732067   106.1070 
720.0000   0.43737570   106.9852 
721.0000   0.43749016   107.8532 
722.0000   0.43789429   108.6916 
723.0000   0.43784439   109.6232 
724.0000   0.43790353   110.5230 
725.0000   0.43809281   111.3533 
726.0000   0.43805879   112.2593 
727.0000   0.43828112   113.1156 
728.0000   0.43841074   113.9910 
729.0000   0.43846539   114.8808 
730.0000   0.43871021   115.7754 
731.0000   0.43878890   116.6191 
