!Created with skrf (http://scikit-rf.org).
# MHz S RI R 50.0 
!freq ReS11 ImS11 ReS21 ImS21 ReS12 ImS12 ReS22 ImS22
140.0 0.00743810169209154 0.014000528973697286 -0.03599519862164215 0.03377791244808757 -0.3395687211688366 0.24386424407047752 0.13827200140946438 -0.22809736303343192
150.0 -1.9679816811934126e-05 0.013739561005845502 -0.042935481499280365 0.023770742384240765 -0.41038004385647414 0.128840650530494 0.24207600279162708 -0.1376421214888511
160.0 -0.006527169176742992 0.00932810463755983 -0.046069324017816986 0.009815724557933494 -0.4194632607139378 -0.03194188921939858 0.2750852064119983 0.017333650370386384
170.0 -0.009239953215332962 0.0014571717072335844 -0.04499627981844759 -0.009694127554433505 -0.3541173548273942 -0.2201771069390281 0.21474498658864868 0.1732837894462143
180.0 -0.008195154749917404 -0.003732711360986898 -0.042272365255116406 -0.019160869139904408 -0.28832740730391676 -0.3074934381148491 0.1023924604571164 0.2621311606098276
190.0 -0.003723023087439604 -0.008083900321674435 -0.03754592976090818 -0.029199976442325366 -0.17434291528077822 -0.37764338331456115 -0.03869298250382171 0.27693087351734286
200.0 0.001154086253159196 -0.009490460662604547 -0.028047400018571766 -0.03943632500599261 -0.043301506208048166 -0.40696647295057525 -0.16923955301437668 0.21919786558322263
210.0 0.006887717859506369 -0.008092366348950907 -0.01691738598362729 -0.04811747753070698 0.08133657667125738 -0.40943654302880783 -0.25700036957154304 0.11875091890788741
220.0 0.011350770411197178 -0.003635600687332128 -0.002078222984879644 -0.0549690801085424 0.20539599664460143 -0.38511593846885045 -0.29496165916856804 -0.014481983380224878
230.0 0.012230119480638258 0.003203771940344941 0.016558350230788537 -0.05501094496275927 0.32112007704483425 -0.30854150434685423 -0.2541250333439908 -0.15637147226067133
240.0 0.008702542701710059 0.008819770123663386 0.0336289822477748 -0.046634544296733256 0.39722597430525763 -0.1995509289131633 -0.14683461584520163 -0.25574961562985504
250.0 0.002702228274326832 0.011111609906885587 0.04627170623772875 -0.03250761170894389 0.45044743005539434 -0.060530193281257506 0.0004559840055739363 -0.29991377446488204
260.0 -0.003135438778535121 0.009553180452875473 0.05342896486642434 -0.014752823880914553 0.4469482463896034 0.10490984585018531 0.15904167687366044 -0.2565429086323978
270.0 -0.0064908223843553785 0.00541806121849432 0.053655773894780455 0.0022719471950366082 0.3808338226354409 0.24821003386255355 0.26568251230035467 -0.1353061122048432
280.0 -0.006808077249698068 0.0007328016865070606 0.04926182129359865 0.016639279136442163 0.2721318339441576 0.3536571818355477 0.2919292758648627 0.017308655531467824
290.0 -0.00488406902322619 -0.002771693790877111 0.04245000517540268 0.028601923445743617 0.1443799232924055 0.4171411806236285 0.2413771019847466 0.1591658512795806
300.0 -0.0012498954971818087 -0.005001435143848777 0.03221289609998728 0.03861181975828941 -0.003556571852631354 0.4406981442100813 0.12659580467933676 0.2592635074016088
310.0 0.0034759952173808975 -0.004939579070503514 0.021171288802176984 0.046401910374068246 -0.1453110835453282 0.41273124136910194 -0.01591287102180245 0.2835701164973413
320.0 0.006076467077368726 -0.0026909517060074604 0.007979273659702022 0.051560969640433996 -0.2608148965035242 0.3534285722150276 -0.15357120799941862 0.2421602466836942
330.0 0.007995345773892302 0.0011092848127920761 -0.006476978034765858 0.05394718654632373 -0.3618809208312025 0.26543227756645993 -0.2556171675220742 0.14204587723782347
340.0 0.007581513832565918 0.005741390998410943 -0.02287258643172196 0.052446991567876515 -0.4356957661715845 0.14655439555090516 -0.2981425341598366 0.0006621728628490014
350.0 0.0046364460408345465 0.009821925673764421 -0.03936131682416345 0.04535545130059544 -0.4690143724577974 0.005778981850560345 -0.2644496266689242 -0.14704763987241937
360.0 -0.0003855493077594174 0.011691609578365087 -0.053602083902981525 0.03160114394675007 -0.4528418256199893 -0.14534475096810254 -0.15754559818095293 -0.26150899624710666
370.0 -0.005734492923061728 0.010433541373881592 -0.06226975486451998 0.012909274610105574 -0.3895404525604388 -0.29358686513147175 -0.0033199499304660523 -0.3124368843272894
380.0 -0.0092556236165074 0.006504625369827739 -0.06316967816365751 -0.007809483426306244 -0.2730039331749372 -0.40753930384913667 0.15685454163588186 -0.2713689496420831
390.0 -0.010049524238430913 0.0017437234306049868 -0.05702735001342336 -0.02648815157435172 -0.11998976621299806 -0.4696680505148361 0.2691416383686977 -0.15011833697533017
400.0 -0.008274569708949537 -0.0022226011497537054 -0.04610300800126657 -0.04122414150777663 0.0391521960225743 -0.4737420765299159 0.300813684296746 0.0071702559911094865
410.0 -0.004625221621950283 -0.005224848988556966 -0.03244438311086655 -0.05135863975930281 0.1866502418762711 -0.4281105949247464 0.2526664868489746 0.15445319503164232
420.0 -0.0017788183753844296 -0.004598788552071324 -0.01669775236034386 -0.05822616599265802 0.3106008961158038 -0.34552863711940496 0.13831360818918692 0.2577300687077341
430.0 0.0007871327962121513 -0.0036372604278061874 -0.0004768892291910419 -0.06094981766803392 0.39584127910021016 -0.23062987113022224 -0.007823461015913668 0.28782667798541006
440.0 0.0020948860678580233 -0.0005241174710896304 0.01581896397841208 -0.06005963966067896 0.44581600729097154 -0.09994443045397972 -0.14712460183447354 0.2468493043708337
450.0 0.001686337907409189 0.0022798548171617064 0.03222697005564172 -0.055126171456574724 0.4605875688477463 0.03799007581579097 -0.2519285759501903 0.14633414532247477
460.0 -0.00040128481302759356 0.0044499938062623826 0.04790549848900941 -0.0456550630592698 0.43479129000871475 0.17772807524888123 -0.2971750534767298 0.0046879316799997
470.0 -0.0035477368239171187 0.005010923126992942 0.061325791774039635 -0.03092484650938782 0.36317235332332853 0.30692371391884166 -0.26610252478631385 -0.14473259053276952
480.0 -0.006751216215709075 0.003460848369847666 0.07010642323156951 -0.011212895162178358 0.25046875420561676 0.41075130291169654 -0.16226706587732692 -0.26294847588467307
490.0 -0.00857166518274104 0.00010254945637587249 0.07179428991176087 0.011668532737392524 0.10700676413658047 0.4775711526310601 -0.008415175680480051 -0.31865606798375823
500.0 -0.008129419409974567 -0.0038425458174287715 0.06514795653975643 0.03425678344599395 -0.054781225780156075 0.48916120835908794 0.15620165850433912 -0.28420190159922804
510.0 -0.005481775794360199 -0.006796953076783643 0.05109023205406103 0.05302378525178801 -0.21106806015680563 0.43971121966797866 0.278002274821142 -0.1665347345489456
520.0 -0.0017469928968807608 -0.00776748969383759 0.03211941899548771 0.06551847373428975 -0.33641253949194855 0.33890751254383755 0.3195124706517157 -0.004818130210482681
530.0 0.0018580827609046328 -0.006813635873697971 0.011077209650146953 0.07114774971045146 -0.4193073271347392 0.20829618130285601 0.27656553344586277 0.15183940479593433
540.0 0.0038861669728748765 -0.003769933473523887 -0.009557097452879899 0.07061681327088061 -0.45744355803416087 0.0643210068023497 0.16659705468422548 0.2654974735718855
550.0 0.004242893146676853 -0.0003769843599209418 -0.028498373371167365 0.0649965572889497 -0.44741342677086393 -0.0768570807676916 0.01913835913708071 0.30809081643571656
560.0 0.002824047149062278 0.002598533405077877 -0.04597633136123826 0.05564033625975649 -0.4012690653340307 -0.20684137285949716 -0.12796289437849 0.27930193377363444
570.0 -5.379651459657883e-05 0.004512484238252947 -0.06116614314639459 0.04208194952248276 -0.3242707426941317 -0.31920920736841235 -0.24572196892938322 0.18810215786516463
580.0 -0.003800521912198974 0.004772480728200576 -0.07332398890150177 0.024419109697846372 -0.21850235442103175 -0.4060240327339722 -0.3080512406122941 0.05148117360436274
590.0 -0.007391564523969684 0.002886334270442488 -0.08087737132502444 0.002615258391999281 -0.08807698223816299 -0.4600260226685571 -0.29904213313253125 -0.10109855229609632
600.0 -0.009867116176146976 -0.0008424808435358847 -0.08207153071909964 -0.02250547679466065 0.058284421198803976 -0.47225180755451035 -0.21642842100235968 -0.23393921115897995
610.0 -0.010092215515103945 -0.005601599261504681 -0.07471519089084536 -0.04885195822998599 0.20862665575778191 -0.4403349207562204 -0.07655033908758203 -0.31581701690974384
620.0 -0.007729591301077381 -0.01004487376950863 -0.05759779721054245 -0.07296680185711664 0.34443814369718667 -0.3545117774930644 0.09093640622464623 -0.3149132219568014
630.0 -0.0034077603419734306 -0.012535543020138202 -0.031962124916187405 -0.09015806531301108 0.44346691999467186 -0.2231544922282828 0.23532630691699044 -0.22485960202711994
640.0 0.0013762547910300656 -0.01242831539657832 -0.0008400026040522744 -0.09696369727058514 0.48731438905301555 -0.06201032150411012 0.31086086173398114 -0.0721061182917366
650.0 0.005027937994714316 -0.01007897705278109 0.030391183058926307 -0.09231780781989843 0.47647531339083454 0.10333593758926866 0.29810777049533826 0.09566032901445845
660.0 0.006654517873426104 -0.0066168980529474185 0.057847279666104194 -0.07733110300069741 0.41253594329993515 0.2519573717364681 0.20373168027350982 0.2307189543283902
670.0 0.006053829145086702 -0.003546267144017666 0.0785424880671373 -0.05509419833279226 0.30538118413366744 0.36620109140549906 0.05742618489797802 0.295308957231035
680.0 0.004542999330062634 -0.0017994192373134781 0.09066540191291304 -0.02846796905227674 0.1729674076402004 0.43975418392032406 -0.0967520475786028 0.2793086306068609
690.0 0.0026107145595081257 -0.0016576608649270974 0.09479868551816993 0.00011386404123031415 0.026725338766712552 0.47225448737666686 -0.22253475197610204 0.19269785800060923
700.0 0.0013968147666069193 -0.0029122049580961665 0.09063877923310308 0.028506938647556285 -0.12013491769883669 0.45904582005631234 -0.28901930628561384 0.056565411664322204
710.0 0.0015185982654581664 -0.00489364712273522 0.07861803280871972 0.05456225342536344 -0.2549931307053224 0.40265334561226324 -0.2808285994435814 -0.09376174695614432
720.0 0.0032318211896251474 -0.006598706530674397 0.05887653633773912 0.07679971878916685 -0.3685159208747106 0.3051457953605348 -0.19858850688678972 -0.22177934265472055
730.0 0.006136741019210277 -0.0070635832702171586 0.03249016148610565 0.09245600527492441 -0.4508068670777398 0.17532756869247404 -0.06218907551509345 -0.2956907799284876
740.0 0.009326202157390617 -0.005747829044159967 0.0014412568811338075 0.09940284424826669 -0.4875035682845904 0.02114182524764907 0.09669305377745858 -0.2903759686594999
750.0 0.011603624836204867 -0.0026064800235316983 -0.031045202506834162 0.09548365249459757 -0.46577723678943095 -0.13706936489327112 0.23047749192876335 -0.20110078285720687
760.0 0.012089620946492033 0.0015051081994931377 -0.06086670479983427 0.08062529477390534 -0.3916246519480062 -0.2788777863294076 0.2987968927033307 -0.05565982095588345
770.0 0.01038055607288941 0.005326462269834755 -0.0838112786717165 0.05656679086806985 -0.2780810366447207 -0.38858502023837094 0.28514025898486 0.10341071441868732
780.0 0.00740518166356537 0.007773222079360839 -0.09669895890311896 0.02657628012717587 -0.1376565996662398 -0.4556676390912938 0.19424122559162427 0.23321452022352884
790.0 0.003819957273640895 0.008432040724299596 -0.09926958434108073 -0.005013858085829773 0.014055011946550941 -0.47007915541388345 0.050795517520230656 0.2961552981863401
800.0 0.0007030403840965586 0.007356879563278948 -0.09187054576032348 -0.03471470339408208 0.15844207259639573 -0.43823106349281044 -0.10173514882720361 0.2810966917388289
810.0 -0.0011475314379046893 0.005223133194361924 -0.07641789743247708 -0.060051405901600345 0.28433262704384865 -0.3681712002128064 -0.2273607719753913 0.1959506364941586
820.0 -0.0016240330576574938 0.002791584013150579 -0.0547373937387969 -0.0793877281857019 0.38145910261874677 -0.2644072297528212 -0.295623047538622 0.0612132091229813
830.0 -0.0008823432618233278 0.0008510453169387224 -0.028837783670469495 -0.0914957036195382 0.44248481432573084 -0.13662082157781122 -0.2904424260367709 -0.08929593275212147
840.0 0.000552203637808808 -0.00016491192927744434 -0.0006332661933952018 -0.09577978174310421 0.4617571701692101 0.004960026931185326 -0.21286758351885882 -0.21928391439337896
850.0 0.002052871629017111 -0.0001726199766121916 0.027844355320236245 -0.0918097683413886 0.439043740699371 0.14909657650727262 -0.08172754968061488 -0.29953509358965513
860.0 0.003149199977017335 0.0005748329020590454 0.05424752820076478 -0.07952658986734895 0.36933433580921465 0.27833109291535163 0.07391716273191086 -0.3050470418524444
870.0 0.0035632579640826377 0.0016481903020306571 0.07606072871603135 -0.05947644550208125 0.25990497421702763 0.3771279104639192 0.21253248365039717 -0.23164301048207467
880.0 0.003394808479740937 0.0024967404275315127 0.09056107614205064 -0.03341060358594373 0.12584398145799355 0.4346542282474832 0.2964388706074304 -0.10009087964211102
890.0 0.0028926202469314877 0.00302616574820799 0.09614705092904921 -0.0040311385054131715 -0.01769915800054549 0.44926048204518554 0.30724737743587255 0.05410628997540647
900.0 0.002656046320114072 0.003180361043319506 0.09237070829760141 0.025504763313599767 -0.15924486002255586 0.4187893279553181 0.24240134086249868 0.19435208432558485
910.0 0.002876648605030025 0.003231809040410813 0.07963480923811234 0.05217175235865937 -0.2798739182168489 0.345457569038798 0.11877586188880819 0.2825517946663677
920.0 0.003375599077449399 0.0037466164043497997 0.05998384124233809 0.07314823780924767 -0.37188559057144766 0.241501376647972 -0.029456656198205314 0.3013308114249165
930.0 0.003879706795808803 0.004915729264298773 0.035261528058653874 0.08769541337837936 -0.431763079045696 0.1156682510748246 -0.16901632893021393 0.249076606786491
940.0 0.003913849768548141 0.006799970849097813 0.007369705637963534 0.09444735912179424 -0.451938784538911 -0.02505215922304815 -0.2672927591418665 0.13578122086787747
950.0 0.0028459506470638967 0.00903475824683374 -0.021542025045576656 0.0929558222245979 -0.42448072716120205 -0.167868105930665 -0.2964892579704229 -0.012382093352772194
960.0 0.0005022773475346294 0.011040479762814396 -0.04935329303781592 0.08286835293119198 -0.3512344588763042 -0.2982149176941058 -0.2482605454155512 -0.15761892927435273
970.0 -0.002962113140564762 0.011935732242907464 -0.07352701533162104 0.06433112897182006 -0.23675558490555532 -0.4018886128881711 -0.13187166256921937 -0.2616680958100908
980.0 -0.006897674693022089 0.011136861493151165 -0.09091394347165256 0.03826289361022317 -0.08876415955825352 -0.4616871027919492 0.02412491200927479 -0.2905685421666788
990.0 -0.010287140780297577 0.008423920254958545 -0.09879467257605726 0.007129183611733218 0.07312042992315707 -0.4616661936968931 0.1718586667330477 -0.23008628287286678
1000.0 -0.01205560193984578 0.004394258488945424 -0.09557086434410328 -0.025080908085292113 0.2230661857421688 -0.40375975891990434 0.26304595865035546 -0.10137814763100282
1010.0 -0.011790602019377405 0.0001303016820208295 -0.08181397433883762 -0.053890412574164874 0.3411492685770332 -0.3013007404145432 0.27349431904596877 0.05240047337024074
1020.0 -0.009425218008813012 -0.0030763575326563123 -0.05938749008084955 -0.07564718444586012 0.4146232594297475 -0.16992432576801544 0.20358398624866994 0.18513178729250848
1030.0 -0.006311014181716533 -0.004450131691433324 -0.032683981205726756 -0.08844446614064785 0.43811564089173144 -0.02809460024818688 0.07995355796983705 0.25894551879781375
1040.0 -0.003403312018934591 -0.0039943181960631685 -0.004783071580343478 -0.09233332282484566 0.4187856632881719 0.10720549209094976 -0.05848184072989711 0.26201526646813145
1050.0 -0.0016454880692974118 -0.0021483669255913706 0.021981169534813574 -0.0883398420410691 0.364754404844803 0.22825181698205055 -0.1795719395651877 0.200896003544694
1060.0 -0.001583546296075463 0.00014092591077502964 0.045853197452759814 -0.07768620384874723 0.28006463965771905 0.3269678222895284 -0.25594693313139294 0.09031873451360313
1070.0 -0.0031457989803042145 0.0018693614837688765 0.06601832481537584 -0.061556728007442184 0.17003402262290346 0.39806893705675506 -0.2704385151116357 -0.04459377873059928
1080.0 -0.005880409589940198 0.0022075368280330284 0.08169433053150993 -0.040277771082843875 0.03876112609412703 0.43595037035606754 -0.21737487717466702 -0.17359853683451942
1090.0 -0.008722631471047912 0.0005433667237962056 0.09109579479870535 -0.0147989364726039 -0.10336870702359055 0.4338285159368742 -0.10483491941285379 -0.26448401304916613
1100.0 -0.010444028128899361 -0.002897222031501066 0.09272272802287908 0.013495705266163489 -0.2431792876800047 0.38126727271940775 0.04492102644621748 -0.28552862769331794
1110.0 -0.009916258583890721 -0.007374245707564347 0.08496848542659054 0.04217477825812069 -0.3585077630660472 0.276940232633929 0.1877525659867387 -0.22084636787603742
1120.0 -0.006700072958106194 -0.011244054317728387 0.0674381574126463 0.06722528332909464 -0.42770491124138094 0.1361444864304836 0.2744005792324091 -0.0875373076563263
1130.0 -0.0016026320324508442 -0.012811917215725806 0.04215581590287725 0.0842612743280919 -0.44069024619960456 -0.017205816160912234 0.27617620162316353 0.0694116740046254
1140.0 0.0036534724994148116 -0.011517789660716583 0.01360272106829882 0.09125964257576823 -0.39826479970058376 -0.15707493290800928 0.19594946181519976 0.19759920474696824
1150.0 0.0074673078348126195 -0.007547637769852319 -0.01402610869371002 0.08836697391823754 -0.315586479488561 -0.2637987169374235 0.06885706815505525 0.2607851007200507
1160.0 0.00863115112156241 -0.0024302622950535917 -0.037411052879670934 0.07804162846858048 -0.21445809485763773 -0.3329919850002574 -0.06342613284932198 0.25478040094652377
1170.0 0.007090820313644537 0.0025395483578339742 -0.05545532316059011 0.06288687600273232 -0.10823514846973108 -0.37011288144377524 -0.17140257263820835 0.1937191526866607
1180.0 0.003384749951212383 0.006108949632992861 -0.06844826471891315 0.04515594818897198 -0.0028458210532340458 -0.3776366982835278 -0.2380254776599521 0.09583970821718178
1190.0 -0.0016361003389927255 0.007509299378220547 -0.07692754000358704 0.025844696902913262 0.09763240123392938 -0.3603608636319672 -0.2556038225102903 -0.0179108173365547
1200.0 -0.00697115218801425 0.00633634055529669 -0.08123124325429752 0.0052594664192894295 0.19189881263234038 -0.321605713135312 -0.22448641960748372 -0.12869912307851733
1210.0 -0.011487018174653097 0.002595781653662392 -0.08117851302527945 -0.016461426843167554 0.27933833360784127 -0.2607851327975436 -0.14840489537953713 -0.21933956711107888
1220.0 -0.014019600244472371 -0.0033502545483485007 -0.07598509610339285 -0.039106183521743325 0.3541191299714344 -0.17306910816581572 -0.03461992624894886 -0.2699440236106185
1230.0 -0.013353185373640762 -0.010510943433259852 -0.06405832477932337 -0.06160362750377305 0.4027443410515867 -0.056066385509988693 0.09871581718857611 -0.2602122530547824
1240.0 -0.008738886269554548 -0.017053277785393964 -0.04388557992572707 -0.08149147234982966 0.4108477039046452 0.08248308380122363 0.2180405150252459 -0.1808113284255892
1250.0 -0.0009020261073651483 -0.020571131769872873 -0.0157794476123431 -0.09448284152983513 0.36536398826131117 0.22572973546849806 0.28184758452882147 -0.04346388342187003
1260.0 0.008190376038589502 -0.019293964018130664 0.017390456335542228 -0.0960967937485803 0.2623974100157541 0.3439534217616607 0.2578683943844062 0.11071697419402368
1270.0 0.014957788304418195 -0.013233920857899975 0.04892245449940551 -0.08429868623251523 0.12105158015979453 0.40881399530145257 0.15195487444290226 0.221367749008141
1280.0 0.01709051825777784 -0.0049584086655305405 0.07252162897750494 -0.06222722329476677 -0.025060624687676704 0.41361277903814003 0.01150921081904937 0.2529055761307098
