! 140 4400 1
# MHz S MA R 50.0
!freq ReS11 ImS11
140.0000   0.0049702944   61.2364077951 
141.0000   0.0050661397   62.5975411183 
142.0000   0.0044414622   57.3523172720 
143.0000   0.0052231069   64.9144335460 
144.0000   0.0052963167   63.1161081418 
145.0000   0.0053457517   67.9479817590 
146.0000   0.0059645391   60.1666356252 
147.0000   0.0054666850   70.7392810268 
148.0000   0.0055035802   72.5055188291 
149.0000   0.0055410966   73.8544894797 
150.0000   0.0056017899   75.4564540426 
151.0000   0.0056277811   77.0881074727 
152.0000   0.0056502829   78.4270397737 
153.0000   0.0056891448   80.4338142157 
154.0000   0.0056978201   82.0863549861 
155.0000   0.0057695119   83.6481773409 
156.0000   0.0057916413   86.4169297116 
157.0000   0.0058484588   87.3892310203 
158.0000   0.0058759339   88.0341863546 
159.0000   0.0058862990   91.1897676061 
160.0000   0.0057952258   93.4009845141 
161.0000   0.0059754285   95.7299963971 
162.0000   0.0060008934   97.9307152306 
163.0000   0.0060451362   100.5086520880 
164.0000   0.0060653594   103.2528837971 
165.0000   0.0061242938   105.8867617501 
166.0000   0.0057801522   105.2881357945 
167.0000   0.0062392621   110.2283462606 
168.0000   0.0062262826   113.1123832037 
169.0000   0.0062549268   115.0684095990 
170.0000   0.0060654610   117.6506462175 
171.0000   0.0063668229   117.9186258296 
172.0000   0.0064225533   118.6710647514 
173.0000   0.0064722038   121.1494568070 
174.0000   0.0064861100   122.4478734338 
175.0000   0.0065492770   123.8928397613 
176.0000   0.0065987919   124.9034782741 
177.0000   0.0066639648   126.6756252058 
178.0000   0.0067080336   128.0039083946 
179.0000   0.0068374082   130.1692154955 
180.0000   0.0067880731   131.8310297796 
181.0000   0.0069552110   132.3187646732 
182.0000   0.0069081385   132.7846433899 
183.0000   0.0069579945   135.2955850857 
184.0000   0.0070034970   136.6377868679 
185.0000   0.0070767085   138.2123482930 
186.0000   0.0071416707   139.6775544775 
187.0000   0.0071604804   141.2122949257 
188.0000   0.0072248694   142.7021213904 
189.0000   0.0073155510   144.4307623267 
190.0000   0.0068955956   147.9802001635 
191.0000   0.0074169646   147.7608297003 
192.0000   0.0074681511   148.1356201155 
193.0000   0.0074624729   150.7714253432 
194.0000   0.0080534162   148.8354183955 
195.0000   0.0076341703   153.1488876932 
196.0000   0.0076815398   154.1689271554 
197.0000   0.0077303925   156.3324891867 
198.0000   0.0078041779   157.5718053643 
199.0000   0.0078305204   159.0568690931 
200.0000   0.0078572283   160.4751092590 
201.0000   0.0079357999   162.1323284111 
202.0000   0.0079648645   163.6495891909 
203.0000   0.0079141347   165.1548003002 
204.0000   0.0081192118   167.1694667202 
205.0000   0.0082046123   166.9308595367 
206.0000   0.0083177681   168.4243777823 
207.0000   0.0084205749   170.2227043551 
208.0000   0.0085228906   171.6390580574 
209.0000   0.0086536022   172.9543935754 
210.0000   0.0087917080   173.7477841130 
211.0000   0.0088880208   175.0869926914 
212.0000   0.0090583733   176.5408421385 
213.0000   0.0091619095   177.6357083664 
214.0000   0.0089297985   179.9897157210 
215.0000   0.0094175271   -179.8192459985 
216.0000   0.0096269278   -178.3732800073 
217.0000   0.0098321270   -177.7184470748 
218.0000   0.0096495599   -174.3600029791 
219.0000   0.0100736577   -174.6847423057 
220.0000   0.0102356220   -173.0645155323 
221.0000   0.0103888328   -172.1682213896 
222.0000   0.0105676916   -170.6846388357 
223.0000   0.0107197711   -169.2827779846 
224.0000   0.0108875972   -168.0276278142 
225.0000   0.0110746655   -166.6246318460 
226.0000   0.0112554264   -165.4436636344 
227.0000   0.0113112952   -163.6823597452 
228.0000   0.0116186901   -162.4039397242 
229.0000   0.0117927273   -161.7160548034 
230.0000   0.0119438026   -160.0561353690 
231.0000   0.0121285791   -158.5944385281 
232.0000   0.0123449920   -157.0311172978 
233.0000   0.0125220102   -155.8125691134 
234.0000   0.0127242076   -154.6820934283 
235.0000   0.0129029921   -153.2684994700 
236.0000   0.0131077944   -152.0933213453 
237.0000   0.0133221313   -150.6623935480 
238.0000   0.0138202208   -148.5844891045 
239.0000   0.0137985739   -147.7338253951 
240.0000   0.0140207598   -146.4760103445 
241.0000   0.0142784996   -145.4504304278 
242.0000   0.0142719442   -143.4707796135 
243.0000   0.0147985503   -142.9347333523 
244.0000   0.0150710268   -141.5560364568 
245.0000   0.0153457475   -140.4442136036 
246.0000   0.0156562815   -138.7669396527 
247.0000   0.0159638878   -137.3805738266 
248.0000   0.0163084273   -135.9601364095 
249.0000   0.0166731603   -134.3369226912 
250.0000   0.0170007968   -132.8988718629 
251.0000   0.0174158309   -131.2779916426 
252.0000   0.0177823595   -129.4743057526 
253.0000   0.0181918775   -128.1961362048 
254.0000   0.0186026747   -126.4843030665 
255.0000   0.0190036719   -124.6340264880 
256.0000   0.0194569314   -122.9359703483 
257.0000   0.0199101091   -121.4532172370 
258.0000   0.0203876243   -119.7883203340 
259.0000   0.0208470490   -118.0380296780 
260.0000   0.0213211528   -116.2811036255 
261.0000   0.0218456809   -114.6018807030 
262.0000   0.0226360928   -111.2103880374 
263.0000   0.0228721892   -110.8241967229 
264.0000   0.0234896234   -108.9195362683 
265.0000   0.0240597914   -107.6056453152 
266.0000   0.0244440720   -103.9322311109 
267.0000   0.0253610209   -103.8996050762 
268.0000   0.0259981414   -101.8407340516 
269.0000   0.0267372052   -100.1054068219 
270.0000   0.0274584225   -98.3296205471 
271.0000   0.0281977171   -96.4646784595 
272.0000   0.0289768873   -94.5917454881 
273.0000   0.0297809903   -92.6255090964 
274.0000   0.0305999471   -90.6407672967 
275.0000   0.0314760221   -88.8131396079 
276.0000   0.0324062977   -86.4887912153 
277.0000   0.0333257820   -84.5657767041 
278.0000   0.0343016711   -82.6081203646 
279.0000   0.0353138955   -80.3436804547 
280.0000   0.0363952800   -78.1478540057 
281.0000   0.0374949908   -75.8955638177 
282.0000   0.0385923472   -73.5442419588 
283.0000   0.0398249475   -71.1333560509 
284.0000   0.0410669542   -68.6674697633 
285.0000   0.0423834815   -66.1275664348 
286.0000   0.0437374007   -64.0883577551 
287.0000   0.0451286823   -60.7602363794 
288.0000   0.0466005038   -58.2832795231 
289.0000   0.0480966464   -55.1199644370 
290.0000   0.0494970991   -51.1416241182 
291.0000   0.0512302933   -49.1345762948 
292.0000   0.0529081047   -45.9013697432 
293.0000   0.0545538249   -42.6472958884 
294.0000   0.0562633282   -39.1747348897 
295.0000   0.0579542749   -35.5322371196 
296.0000   0.0596333982   -31.8399186270 
297.0000   0.0612694939   -28.0655010965 
298.0000   0.0628931810   -24.1948087838 
299.0000   0.0644187624   -19.9503455107 
300.0000   0.0657816775   -15.7719292945 
301.0000   0.0671470496   -11.5858517707 
302.0000   0.0681887816   -7.2455551358 
303.0000   0.0691621620   -2.6690264149 
304.0000   0.0699152771   1.7301255130 
305.0000   0.0703765788   6.3293731692 
306.0000   0.0707318065   10.9893762761 
307.0000   0.0708884676   15.6530590220 
308.0000   0.0708019032   20.2034823615 
309.0000   0.0705488185   24.7517295130 
310.0000   0.0694831125   29.1811777505 
311.0000   0.0693695188   33.4969112252 
312.0000   0.0684528486   37.7436552808 
313.0000   0.0674617594   42.1078374802 
314.0000   0.0665772755   45.2563496320 
315.0000   0.0649569187   49.8760100054 
316.0000   0.0635983343   53.6346042791 
317.0000   0.0621189154   57.2546754593 
318.0000   0.0606794954   60.7429861373 
319.0000   0.0592388674   64.1332543543 
320.0000   0.0577297600   67.5010522636 
321.0000   0.0563104844   70.5744119093 
322.0000   0.0549048229   73.6498983842 
323.0000   0.0534614266   76.5045423250 
324.0000   0.0521624754   79.2248342658 
325.0000   0.0507683840   81.8959323593 
326.0000   0.0494535264   84.5042674730 
327.0000   0.0483043447   87.0196840343 
328.0000   0.0470610788   89.6051793349 
329.0000   0.0459308167   91.9821063919 
330.0000   0.0448160596   94.3213285288 
331.0000   0.0438045886   96.5791209460 
332.0000   0.0428227410   98.6133035158 
333.0000   0.0418350279   100.8173410019 
334.0000   0.0413965687   103.5240486543 
335.0000   0.0400179726   105.0119108353 
336.0000   0.0391618272   107.0010592391 
337.0000   0.0384184342   108.8911436698 
338.0000   0.0383004311   111.3537523095 
339.0000   0.0368508540   112.8134895509 
340.0000   0.0361823417   114.4950193259 
341.0000   0.0354211147   116.3378628227 
342.0000   0.0348268386   118.3200241606 
343.0000   0.0341854700   120.0350931651 
344.0000   0.0335208011   121.6621978703 
345.0000   0.0329706006   123.3952337576 
346.0000   0.0324323957   125.1023729571 
347.0000   0.0318413867   126.6715546640 
348.0000   0.0313160363   128.3815149053 
349.0000   0.0308343632   130.1426920921 
350.0000   0.0304528579   131.5745964856 
351.0000   0.0299200558   133.1693985982 
352.0000   0.0295475578   134.9275767358 
353.0000   0.0290656796   136.3629933239 
354.0000   0.0286368403   137.9323340190 
355.0000   0.0282932817   139.6373489823 
356.0000   0.0278769578   141.0985518453 
357.0000   0.0275051844   142.5397916928 
358.0000   0.0276203116   142.1624831653 
359.0000   0.0268207559   145.5990932562 
360.0000   0.0264587463   147.1683838892 
361.0000   0.0262122228   148.4771215870 
362.0000   0.0249454299   149.6348145388 
363.0000   0.0255742736   151.5138360845 
364.0000   0.0253291038   152.9181678050 
365.0000   0.0250358241   154.4539904126 
366.0000   0.0247810413   155.9313460627 
367.0000   0.0245082192   157.3778505595 
368.0000   0.0242500013   158.6133335811 
369.0000   0.0240461270   160.1232805742 
370.0000   0.0238527596   161.5230641335 
371.0000   0.0235892376   163.1140619840 
372.0000   0.0233598050   164.4839606349 
373.0000   0.0232115395   165.8964947077 
374.0000   0.0230319094   167.1944960332 
375.0000   0.0227630282   168.6453785491 
376.0000   0.0225739629   170.1289405581 
377.0000   0.0224099152   171.5453765893 
378.0000   0.0222271097   172.8976455620 
379.0000   0.0220857157   174.3011494527 
380.0000   0.0219199395   175.7468341805 
381.0000   0.0217126956   177.1644469622 
382.0000   0.0222949688   179.2787969087 
383.0000   0.0214326361   179.8590555757 
384.0000   0.0212538877   -178.6400780542 
385.0000   0.0211554809   -177.2708267659 
386.0000   0.0204571137   -177.5259198639 
387.0000   0.0208506007   -174.6056227522 
388.0000   0.0206967718   -173.1927800324 
389.0000   0.0206009643   -171.7892055590 
390.0000   0.0204574144   -170.5315955205 
391.0000   0.0203509013   -169.0721299901 
392.0000   0.0201944544   -167.5722210455 
393.0000   0.0201244170   -166.3528751720 
394.0000   0.0200102357   -165.1449572495 
395.0000   0.0199191280   -163.7326325809 
396.0000   0.0197562565   -162.2783781445 
397.0000   0.0197242690   -160.9649874133 
398.0000   0.0195799391   -159.5935473286 
399.0000   0.0195052514   -158.1745604293 
400.0000   0.0194011473   -156.8203553500 
401.0000   0.0193155112   -155.5269664197 
402.0000   0.0191941956   -154.0227093056 
403.0000   0.0191109502   -152.8284623246 
404.0000   0.0190152875   -151.4784919041 
405.0000   0.0189305153   -150.1261516487 
406.0000   0.0196443580   -149.9612720341 
407.0000   0.0187692878   -147.3479018649 
408.0000   0.0186848580   -145.9285467164 
409.0000   0.0186345169   -144.5897650766 
410.0000   0.0176730075   -143.2933365844 
411.0000   0.0185765524   -141.8792393059 
412.0000   0.0184720654   -140.5107024767 
413.0000   0.0184712149   -139.0265682382 
414.0000   0.0184487901   -137.7816757987 
415.0000   0.0183723053   -136.3119369352 
416.0000   0.0183173594   -135.0803079987 
417.0000   0.0182596007   -133.5667043076 
418.0000   0.0182811748   -132.2865530821 
419.0000   0.0182130806   -130.7922193255 
420.0000   0.0181589429   -129.4324019305 
421.0000   0.0181205582   -127.9997179511 
422.0000   0.0180468759   -126.6264356889 
423.0000   0.0180656548   -125.2977933973 
424.0000   0.0180742408   -123.9587473446 
425.0000   0.0180162943   -122.5763663319 
426.0000   0.0179529855   -121.0849149946 
427.0000   0.0180109107   -119.6795610542 
428.0000   0.0179834540   -118.3781485984 
429.0000   0.0180029770   -116.9923805931 
430.0000   0.0179229042   -117.2399916868 
431.0000   0.0179923552   -114.2487343231 
432.0000   0.0179445682   -112.7326557116 
433.0000   0.0179984468   -111.4546505970 
434.0000   0.0184541440   -109.2593881006 
435.0000   0.0179834100   -108.7449190481 
436.0000   0.0179534156   -107.3987329360 
437.0000   0.0179482771   -106.0231004685 
438.0000   0.0179683622   -104.6600331004 
439.0000   0.0180181248   -103.3420050118 
440.0000   0.0179797382   -101.9398464760 
441.0000   0.0180414101   -100.5484822963 
442.0000   0.0180588123   -99.2918836536 
443.0000   0.0180682772   -97.8752525341 
444.0000   0.0180863449   -96.3710749003 
445.0000   0.0181606204   -95.0250818710 
446.0000   0.0181528427   -93.8496473820 
447.0000   0.0181788596   -92.3247102382 
448.0000   0.0182616634   -90.9725879258 
449.0000   0.0182435491   -89.5993356636 
450.0000   0.0182613096   -88.2950440607 
451.0000   0.0183398758   -86.9660893796 
452.0000   0.0183757964   -85.5410838508 
453.0000   0.0184266879   -84.1205398676 
454.0000   0.0183721588   -84.5726546122 
455.0000   0.0185151615   -81.3225086616 
456.0000   0.0185302938   -79.9637229568 
457.0000   0.0185984723   -78.6267205755 
458.0000   0.0183803305   -75.7709033768 
459.0000   0.0187580653   -75.8584058346 
460.0000   0.0188230589   -74.5288571432 
461.0000   0.0188447710   -73.0480088336 
462.0000   0.0189061954   -71.7358289809 
463.0000   0.0189757212   -70.3394525041 
464.0000   0.0190465462   -69.0234371280 
465.0000   0.0191455131   -67.4903111647 
466.0000   0.0191964435   -65.9083216423 
467.0000   0.0192943635   -64.6653246965 
468.0000   0.0193271494   -63.2495801816 
469.0000   0.0194317451   -61.9063390272 
470.0000   0.0195586760   -60.4134434010 
471.0000   0.0196052324   -59.1092047895 
472.0000   0.0197282206   -57.5904166895 
473.0000   0.0197673927   -56.1688588965 
474.0000   0.0199150773   -54.8044175957 
475.0000   0.0199915814   -53.3493025214 
476.0000   0.0200909758   -51.8631401088 
477.0000   0.0201890875   -50.4825282732 
478.0000   0.0206128245   -49.8037046435 
479.0000   0.0204097718   -47.6662830577 
480.0000   0.0205022573   -46.2357402026 
481.0000   0.0206421880   -44.8033113064 
482.0000   0.0209494612   -44.1704565404 
483.0000   0.0208619971   -41.9314266817 
484.0000   0.0209535427   -40.4407114633 
485.0000   0.0211044976   -39.1237025566 
486.0000   0.0212389529   -37.5977070410 
487.0000   0.0213609217   -36.2080703872 
488.0000   0.0215045180   -34.8685585814 
489.0000   0.0216403228   -33.3732921873 
490.0000   0.0217532711   -31.9898181851 
491.0000   0.0219185902   -30.5431625856 
492.0000   0.0220712215   -28.9917714365 
493.0000   0.0222376284   -27.5819743255 
494.0000   0.0223810675   -26.1606087232 
495.0000   0.0225711052   -24.8036831047 
496.0000   0.0227828921   -23.3164638403 
497.0000   0.0228950062   -21.9056321258 
498.0000   0.0231091975   -20.5046886394 
499.0000   0.0232734502   -19.0379987733 
500.0000   0.0234181562   -17.6660137358 
501.0000   0.0236359336   -16.1162645777 
502.0000   0.0240431159   -14.5339333463 
503.0000   0.0239918968   -13.2607342916 
504.0000   0.0242175809   -11.9069235264 
505.0000   0.0243985171   -10.4100359682 
506.0000   0.0245098645   -9.3596424607 
507.0000   0.0248456988   -7.4987941571 
508.0000   0.0250847934   -6.1986491119 
509.0000   0.0252991312   -4.6788747231 
510.0000   0.0255437579   -3.2296971321 
511.0000   0.0257982865   -1.8410953543 
512.0000   0.0260705597   -0.3852304033 
513.0000   0.0263195476   1.0126138751 
514.0000   0.0265615772   2.3558637059 
515.0000   0.0268903047   3.8684700122 
516.0000   0.0271829918   5.2774485904 
517.0000   0.0274619777   6.7012828572 
518.0000   0.0277073229   8.2058181729 
519.0000   0.0280195500   9.6158713685 
520.0000   0.0283435961   11.0028392405 
521.0000   0.0286511232   12.4651548209 
522.0000   0.0289344917   13.9012116869 
523.0000   0.0292642358   15.3411316144 
524.0000   0.0296133479   16.7174794324 
525.0000   0.0299517191   18.2184361435 
526.0000   0.0299945649   19.6312244525 
527.0000   0.0306439207   21.0753315800 
528.0000   0.0309993625   22.5246236165 
529.0000   0.0313867046   23.9378478647 
530.0000   0.0317688681   24.8438117654 
531.0000   0.0321548534   26.8361757149 
532.0000   0.0325915946   28.2842864136 
533.0000   0.0330056998   29.7230107883 
534.0000   0.0334220451   31.1610876159 
535.0000   0.0338728440   32.6002125179 
536.0000   0.0343477036   34.1027680320 
537.0000   0.0348037836   35.5092718258 
538.0000   0.0352607333   37.0111972343 
539.0000   0.0357893762   38.4673424198 
540.0000   0.0363068304   39.8467177492 
541.0000   0.0368393328   41.5129971885 
542.0000   0.0374065585   42.8548305318 
543.0000   0.0379694971   44.4319183463 
544.0000   0.0385509070   45.8760692240 
545.0000   0.0391251296   47.2817364749 
546.0000   0.0397888183   48.7757198463 
547.0000   0.0404275126   50.3573013906 
548.0000   0.0411315149   51.8848436534 
549.0000   0.0417797768   53.3771844387 
550.0000   0.0424310842   54.7185753783 
551.0000   0.0432478610   56.3701855007 
552.0000   0.0440152708   57.8832521036 
553.0000   0.0448473424   59.3578484109 
554.0000   0.0455911921   60.9944444879 
555.0000   0.0465208577   62.6393059019 
556.0000   0.0474109357   64.0115669759 
557.0000   0.0483236518   65.7390148196 
558.0000   0.0492388789   67.2279971462 
559.0000   0.0502664346   68.7833301216 
560.0000   0.0513053017   70.3884179336 
561.0000   0.0523321604   72.1183159987 
562.0000   0.0535204205   73.6387515435 
563.0000   0.0546594494   75.2598669489 
564.0000   0.0558536249   76.8446078698 
565.0000   0.0570905328   78.7094287700 
566.0000   0.0583961672   80.2014407057 
567.0000   0.0597688387   82.0618870342 
568.0000   0.0611144789   83.6155392112 
569.0000   0.0626188586   85.4803229799 
570.0000   0.0641350133   87.0861449027 
571.0000   0.0656598214   88.9698710054 
572.0000   0.0673410967   90.6802114676 
573.0000   0.0690216079   92.5695286752 
574.0000   0.0707692463   94.1847331178 
575.0000   0.0726931912   96.2267242714 
576.0000   0.0745610090   98.0407249079 
577.0000   0.0766303624   100.0770252536 
578.0000   0.0786548274   102.0455068970 
579.0000   0.0808580119   103.9934491982 
580.0000   0.0831175089   105.9114061137 
581.0000   0.0854986816   107.9605464320 
582.0000   0.0878960737   110.0468245154 
583.0000   0.0904714865   112.2771872394 
584.0000   0.0931656720   114.4342033338 
585.0000   0.0959660008   116.7143788530 
586.0000   0.0988974947   118.9819486455 
587.0000   0.1019093658   121.2665732565 
588.0000   0.1050030326   123.6784014745 
589.0000   0.1082977522   126.2558976286 
590.0000   0.1116547120   128.7186487857 
591.0000   0.1151535535   131.4501154486 
592.0000   0.1187663531   134.0131848889 
593.0000   0.1225197935   136.8053690568 
594.0000   0.1263393805   139.6843461035 
595.0000   0.1303670900   142.6850557080 
596.0000   0.1343042630   145.7759193806 
597.0000   0.1383983941   148.8911100168 
598.0000   0.1425326615   152.1536910629 
599.0000   0.1466618214   155.5738336328 
600.0000   0.1508005274   158.9498663207 
601.0000   0.1548470704   162.6191036530 
602.0000   0.1588074220   166.3402845698 
603.0000   0.1627005587   170.1703554683 
604.0000   0.1663134409   174.1087971921 
605.0000   0.1696369113   178.1399297653 
606.0000   0.1726352598   -177.7406389412 
607.0000   0.1752460390   -173.4847669719 
608.0000   0.1774868679   -169.1987146893 
609.0000   0.1791278407   -164.8946618218 
610.0000   0.1804362920   -160.4922917831 
611.0000   0.1811953723   -156.0596012982 
612.0000   0.1814962193   -151.7549384718 
613.0000   0.1814400318   -147.2952351063 
614.0000   0.1808036399   -142.9478237458 
