# MHz S MA R 50.0
140.0000   0.01962840   -132.5250 
150.0000   0.02133924   -122.3301 
160.0000   0.02158290   -107.3763 
170.0000   0.02792665   -87.7539 
180.0000   0.02137690   -83.7929 
190.0000   0.02258199   -62.5503 
200.0000   0.02054059   -61.2632 
210.0000   0.02034994   -55.4045 
220.0000   0.02053765   -48.6117 
230.0000   0.02101365   -38.8345 
240.0000   0.02098888   -31.4150 
250.0000   0.02128383   -22.3117 
260.0000   0.02145085   -14.2245 
270.0000   0.02156443   -4.6373 
280.0000   0.02201051   5.5662 
290.0000   0.02392083   15.7899 
300.0000   0.02239060   23.4586 
310.0000   0.02303811   35.2767 
320.0000   0.02254609   40.4709 
330.0000   0.02262513   49.3265 
340.0000   0.02259472   57.4115 
350.0000   0.02295581   65.7102 
360.0000   0.02294248   74.3790 
370.0000   0.02268491   82.2433 
380.0000   0.02296100   90.8249 
390.0000   0.02307187   99.3198 
400.0000   0.02316454   107.4422 
410.0000   0.02388261   113.9987 
420.0000   0.02364045   124.1376 
430.0000   0.02435765   134.4690 
440.0000   0.02405495   141.2140 
450.0000   0.02418977   149.3657 
460.0000   0.02423932   157.6867 
470.0000   0.02424886   165.8080 
480.0000   0.02457179   174.6221 
490.0000   0.02492989   -176.5202 
500.0000   0.02530481   -167.4296 
510.0000   0.02540647   -158.5040 
520.0000   0.02548992   -149.8006 
530.0000   0.02576895   -140.1978 
540.0000   0.02583322   -132.9505 
550.0000   0.02629564   -124.1968 
560.0000   0.02630584   -116.0893 
570.0000   0.02652886   -107.4890 
580.0000   0.02669357   -99.1415 
590.0000   0.02693111   -90.7023 
600.0000   0.02725312   -82.0784 
610.0000   0.02745940   -73.4814 
620.0000   0.02771451   -64.9694 
630.0000   0.02797183   -56.4959 
640.0000   0.02811659   -47.8696 
650.0000   0.02844523   -38.9607 
660.0000   0.02849421   -30.8255 
670.0000   0.02816824   -22.0663 
680.0000   0.02875497   -13.4857 
690.0000   0.02889567   -5.0707 
700.0000   0.02901298   3.5491 
710.0000   0.02912423   11.7604 
720.0000   0.02932889   20.2086 
730.0000   0.02916409   28.7118 
740.0000   0.02936987   37.1372 
750.0000   0.02945644   45.5504 
760.0000   0.02955021   53.9371 
770.0000   0.02948326   62.2239 
780.0000   0.02975358   70.8039 
790.0000   0.02998197   79.2693 
800.0000   0.03000644   87.2960 
810.0000   0.03011251   95.5167 
820.0000   0.03019251   103.6594 
830.0000   0.03036584   111.7654 
840.0000   0.03043584   120.0547 
850.0000   0.03055775   128.4097 
860.0000   0.03081269   136.9108 
870.0000   0.03102796   145.4283 
880.0000   0.03129862   154.2261 
890.0000   0.03185837   162.7995 
900.0000   0.03175941   172.0475 
910.0000   0.03181100   -178.5217 
920.0000   0.03170220   -170.0190 
930.0000   0.03133052   -161.1044 
940.0000   0.03120190   -152.1108 
950.0000   0.03136933   -143.2290 
960.0000   0.03131489   -134.1266 
970.0000   0.03127867   -125.0033 
980.0000   0.03125126   -115.8667 
990.0000   0.03118000   -106.6973 
1000.0000   0.03107653   -97.4676 
1010.0000   0.03094948   -88.4661 
1020.0000   0.03104897   -79.1354 
1030.0000   0.03072517   -69.9183 
1040.0000   0.03083276   -61.3064 
1050.0000   0.03080503   -52.4198 
1060.0000   0.03063781   -43.7543 
1070.0000   0.03067546   -35.2539 
1080.0000   0.03059590   -26.7187 
1090.0000   0.03052523   -18.3443 
1100.0000   0.03060807   -9.9768 
1110.0000   0.03059533   -1.7679 
1120.0000   0.03045056   6.3855 
1130.0000   0.03070219   15.0260 
1140.0000   0.03036094   22.7837 
1150.0000   0.03028654   31.4339 
1160.0000   0.03019906   39.0312 
1170.0000   0.03012765   47.1450 
1180.0000   0.03005317   55.3790 
1190.0000   0.03007884   63.5920 
1200.0000   0.02999179   72.0252 
1210.0000   0.02993565   80.5830 
1220.0000   0.02988841   89.2005 
1230.0000   0.02979106   97.8870 
1240.0000   0.02975318   106.4832 
1250.0000   0.02948720   115.0304 
1260.0000   0.02966534   123.6548 
1270.0000   0.02955915   131.9293 
1280.0000   0.02940724   140.7596 
1290.0000   0.02928401   149.2522 
1300.0000   0.02925686   157.7244 
1310.0000   0.02920115   166.1514 
1320.0000   0.02909230   174.6913 
1330.0000   0.02895881   -177.0817 
1340.0000   0.02875460   -168.6260 
1350.0000   0.02870964   -160.2184 
1360.0000   0.02859050   -151.8099 
1370.0000   0.02842156   -143.4122 
1380.0000   0.02847768   -134.5263 
1390.0000   0.02824560   -125.5993 
1400.0000   0.02828709   -117.1517 
1410.0000   0.02816774   -108.4664 
1420.0000   0.02804886   -99.5822 
1430.0000   0.02806156   -91.0964 
1440.0000   0.02809434   -82.5632 
1450.0000   0.02792448   -74.0356 
1460.0000   0.02801798   -65.4764 
1470.0000   0.02810864   -56.9975 
1480.0000   0.02819674   -48.6046 
1490.0000   0.02850847   -40.1965 
1500.0000   0.02862411   -31.7201 
1510.0000   0.02877675   -23.5786 
1520.0000   0.02907190   -15.1953 
1530.0000   0.02933960   -6.9117 
1540.0000   0.02964460   1.4052 
1550.0000   0.02995150   9.7341 
1560.0000   0.03026189   18.3188 
1570.0000   0.03052132   26.8697 
1580.0000   0.03079527   35.5789 
1590.0000   0.03103048   44.4366 
1600.0000   0.03127829   53.3207 
1610.0000   0.03144648   62.2985 
1620.0000   0.03158520   71.2887 
1630.0000   0.03168736   80.2043 
1640.0000   0.03168332   89.1797 
1650.0000   0.03166366   98.2446 
1660.0000   0.03154964   107.1834 
1670.0000   0.03141559   116.2126 
1680.0000   0.03107379   125.3012 
1690.0000   0.03077691   134.4739 
1700.0000   0.03044439   143.4875 
1710.0000   0.03013896   152.5236 
1720.0000   0.02975301   161.5500 
1730.0000   0.02947996   170.3565 
1740.0000   0.02917050   179.3871 
1750.0000   0.02885232   -171.7262 
1760.0000   0.02862686   -163.1784 
1770.0000   0.02832939   -154.6041 
1780.0000   0.02804308   -146.0122 
1790.0000   0.02780167   -137.5614 
1800.0000   0.02755894   -129.0029 
1810.0000   0.02735168   -120.5934 
1820.0000   0.02695253   -112.7603 
1830.0000   0.02675111   -104.4039 
1840.0000   0.02668620   -96.0700 
1850.0000   0.02636849   -87.9785 
1860.0000   0.02619218   -79.7196 
1870.0000   0.02619395   -71.6268 
1880.0000   0.02599013   -63.5542 
1890.0000   0.02592638   -55.4672 
1900.0000   0.02587836   -47.6118 
1910.0000   0.02598352   -39.6986 
1920.0000   0.02601163   -31.3272 
1930.0000   0.02604237   -23.3490 
1940.0000   0.02606171   -15.3437 
1950.0000   0.02607479   -7.5834 
1960.0000   0.02619199   0.2552 
1970.0000   0.02631128   8.2629 
1980.0000   0.02644521   16.4439 
1990.0000   0.02649358   24.5980 
2000.0000   0.02649122   33.0078 
2010.0000   0.02650927   41.4540 
2020.0000   0.02633917   50.2197 
2030.0000   0.02608539   58.8546 
2040.0000   0.02577869   67.3855 
2050.0000   0.02536816   75.6539 
2060.0000   0.02496838   83.7813 
2070.0000   0.02470217   91.8372 
2080.0000   0.02442011   99.8489 
2090.0000   0.02424364   107.8030 
2100.0000   0.02403512   115.8228 
2110.0000   0.02389741   123.7473 
2120.0000   0.02387443   131.7734 
2130.0000   0.02388666   139.9790 
2140.0000   0.02388755   148.1971 
2150.0000   0.02395710   156.6246 
2160.0000   0.02395891   165.2099 
2170.0000   0.02402386   173.7256 
2180.0000   0.02407343   -177.7809 
2190.0000   0.02420519   -169.2157 
2200.0000   0.02419144   -159.2912 
2210.0000   0.02516191   -151.5736 
2220.0000   0.02526969   -143.2551 
2230.0000   0.02543508   -135.1989 
2240.0000   0.02561922   -126.8023 
2250.0000   0.02579292   -118.5370 
2260.0000   0.02597297   -110.0394 
2270.0000   0.02612425   -101.4851 
2280.0000   0.02639417   -93.2190 
2290.0000   0.02655987   -85.0026 
2300.0000   0.02677303   -76.7420 
2310.0000   0.02692617   -68.2821 
2320.0000   0.02713342   -59.8489 
2330.0000   0.02735658   -51.6620 
2340.0000   0.02749122   -43.3043 
2350.0000   0.02755407   -34.8645 
2360.0000   0.02766640   -26.4531 
2370.0000   0.02781215   -18.2554 
2380.0000   0.02782059   -9.9412 
2390.0000   0.02782422   -1.5182 
2400.0000   0.02782381   6.7310 
2410.0000   0.02775864   15.0176 
2420.0000   0.02768839   23.2236 
2430.0000   0.02762693   31.3214 
2440.0000   0.02749924   39.6460 
2450.0000   0.02738283   47.9331 
2460.0000   0.02716994   56.2538 
2470.0000   0.02711258   64.5643 
2480.0000   0.02680496   72.5137 
2490.0000   0.02641893   81.0196 
2500.0000   0.02651917   89.1242 
2510.0000   0.02605600   97.0057 
2520.0000   0.02620617   105.7987 
2530.0000   0.02587954   113.9124 
2540.0000   0.02581878   122.6287 
2550.0000   0.02569739   131.0097 
2560.0000   0.02555067   139.3352 
2570.0000   0.02565777   147.6211 
2580.0000   0.02549403   155.9478 
2590.0000   0.02534480   164.0429 
2600.0000   0.02544927   172.4566 
2610.0000   0.02550943   -179.4113 
2620.0000   0.02554051   -171.1248 
2630.0000   0.02558854   -162.9140 
2640.0000   0.02557013   -154.7601 
2650.0000   0.02556315   -146.7046 
2660.0000   0.02554733   -138.5837 
2670.0000   0.02567161   -130.6180 
2680.0000   0.02563910   -122.3831 
2690.0000   0.02577923   -114.2116 
2700.0000   0.02564055   -105.9711 
2710.0000   0.02572187   -98.0945 
2720.0000   0.02556454   -89.9229 
2730.0000   0.02550325   -81.6926 
2740.0000   0.02539885   -73.5876 
2750.0000   0.02526241   -65.5363 
2760.0000   0.02515237   -57.3718 
2770.0000   0.02502953   -49.2612 
2780.0000   0.02486949   -41.1591 
2790.0000   0.02459260   -32.7982 
2800.0000   0.02441595   -24.4700 
2810.0000   0.02427353   -16.4288 
2820.0000   0.02398244   -8.3097 
2830.0000   0.02386247   0.0181 
2840.0000   0.02347396   12.8727 
2850.0000   0.02324849   21.1417 
2860.0000   0.02299605   29.4188 
2870.0000   0.02281337   37.6469 
2880.0000   0.02261819   45.9628 
2890.0000   0.02160862   53.4047 
2900.0000   0.02150458   61.8690 
2910.0000   0.02143464   70.3650 
2920.0000   0.02138529   78.9792 
2930.0000   0.02143739   87.6793 
2940.0000   0.02135840   96.4273 
2950.0000   0.02134472   105.3952 
2960.0000   0.02134436   113.6984 
2970.0000   0.02138917   122.4230 
2980.0000   0.02149544   130.9612 
2990.0000   0.02160838   139.6821 
3000.0000   0.02173611   148.6100 
3010.0000   0.02178988   157.5417 
3020.0000   0.02190418   166.4575 
3030.0000   0.02188006   175.1135 
3040.0000   0.02188215   -176.1547 
3050.0000   0.02198529   -167.5225 
3060.0000   0.02202414   -158.6339 
3070.0000   0.02206900   -150.0271 
3080.0000   0.02204042   -141.0368 
3090.0000   0.02192833   -132.0821 
3100.0000   0.02180430   -123.4223 
3110.0000   0.02168028   -114.7745 
3120.0000   0.02151568   -106.0581 
3130.0000   0.02122501   -97.5021 
3140.0000   0.02097090   -89.0039 
3150.0000   0.02069881   -80.4436 
3160.0000   0.02051694   -72.0202 
3170.0000   0.02031942   -63.7998 
3180.0000   0.02002359   -55.2077 
3190.0000   0.01966422   -46.8167 
3200.0000   0.01944386   -38.3828 
3210.0000   0.01925711   -30.0531 
3220.0000   0.01910597   -21.7430 
3230.0000   0.01883837   -13.3243 
3240.0000   0.01868630   -4.6772 
3250.0000   0.01850678   3.7308 
3260.0000   0.01834273   12.2667 
3270.0000   0.01825004   20.4277 
3280.0000   0.01818708   29.0230 
3290.0000   0.01823154   37.8013 
3300.0000   0.01818072   46.7259 
3310.0000   0.01814425   55.6880 
3320.0000   0.01822288   64.2614 
3330.0000   0.01821894   73.1183 
3340.0000   0.01833071   81.9800 
3350.0000   0.01846311   90.8073 
3360.0000   0.01859000   99.9069 
3370.0000   0.01866338   108.8126 
3380.0000   0.01873875   117.7184 
3390.0000   0.01877069   126.5918 
3400.0000   0.01881401   135.6380 
3410.0000   0.01880797   144.5121 
3420.0000   0.01867043   153.4971 
3430.0000   0.01855928   162.3020 
3440.0000   0.01846164   171.1466 
3450.0000   0.01834704   179.9846 
3460.0000   0.01818682   -171.1810 
3470.0000   0.01795686   -162.4212 
3480.0000   0.01762845   -153.5401 
3490.0000   0.01730037   -145.1433 
3500.0000   0.01696334   -136.7699 
3510.0000   0.01665189   -128.4011 
3520.0000   0.01629744   -120.4102 
3530.0000   0.01604258   -112.0856 
3540.0000   0.01568051   -103.9023 
3550.0000   0.01542131   -95.7179 
3560.0000   0.01509152   -87.6725 
3570.0000   0.01483817   -79.9050 
3580.0000   0.01450905   -72.0395 
3590.0000   0.01425446   -64.2261 
3600.0000   0.01405012   -56.1349 
3610.0000   0.01383917   -48.3386 
3620.0000   0.01371646   -40.4813 
3630.0000   0.01358815   -32.5956 
3640.0000   0.01348106   -27.8141 
3650.0000   0.01341143   -19.3561 
3660.0000   0.01328963   -10.8310 
3670.0000   0.01330652   -2.1461 
3680.0000   0.01329428   6.3262 
3690.0000   0.01335053   14.9794 
3700.0000   0.01357334   23.8373 
3710.0000   0.01365559   32.3778 
3720.0000   0.01369231   41.2387 
3730.0000   0.01368579   49.7589 
3740.0000   0.01369722   58.2660 
3750.0000   0.01373407   67.0922 
3760.0000   0.01370456   76.1878 
3770.0000   0.01362641   85.1111 
3780.0000   0.01354228   94.0689 
3790.0000   0.01339326   102.9196 
3800.0000   0.01317845   111.5605 
3810.0000   0.01298150   120.1765 
3820.0000   0.01276861   128.5490 
3830.0000   0.01257384   136.7255 
3840.0000   0.01234780   145.3113 
3850.0000   0.01207787   153.5925 
3860.0000   0.01182466   161.8492 
3870.0000   0.01152370   169.8271 
3880.0000   0.01123004   177.8822 
3890.0000   0.01098687   -174.5435 
3900.0000   0.01071321   -166.7389 
3910.0000   0.01046431   -158.8051 
3920.0000   0.01023078   -151.1635 
3930.0000   0.01001774   -143.6901 
3940.0000   0.00982558   -135.9777 
3950.0000   0.00963161   -128.3905 
3960.0000   0.00950439   -120.7190 
3970.0000   0.00930414   -112.7723 
3980.0000   0.00914438   -105.0652 
3990.0000   0.00899303   -97.0372 
