# MHz S MA R 50.0
140.0000   0.46251087   114.2775 
150.0000   0.49581505   125.6267 
160.0000   0.49974024   139.1259 
170.0000   0.48297245   155.6708 
180.0000   0.48673679   166.7389 
190.0000   0.47543516   175.0137 
200.0000   0.45642999   -175.3076 
210.0000   0.45208914   -166.6757 
220.0000   0.45441740   -158.4808 
230.0000   0.45611351   -148.7961 
240.0000   0.44624189   -140.9012 
250.0000   0.45139682   -131.6115 
260.0000   0.45096029   -121.3957 
270.0000   0.45062369   -111.1283 
280.0000   0.44527656   -101.7547 
290.0000   0.44375069   -92.2705 
300.0000   0.44846936   -82.0169 
310.0000   0.44648610   -72.6780 
320.0000   0.44381830   -63.5447 
330.0000   0.44349420   -54.6029 
340.0000   0.43989406   -45.9524 
350.0000   0.44133565   -37.0715 
360.0000   0.43821154   -28.2864 
370.0000   0.43319086   -19.5549 
380.0000   0.43502075   -10.8264 
390.0000   0.43579964   -1.9756 
400.0000   0.43465251   6.6549 
410.0000   0.43909365   15.4032 
420.0000   0.43929069   24.2196 
430.0000   0.43986520   32.9352 
440.0000   0.44320973   41.8541 
450.0000   0.44536252   50.5744 
460.0000   0.44177762   59.4422 
470.0000   0.43911988   68.3798 
480.0000   0.44078315   77.4165 
490.0000   0.44184342   86.5507 
500.0000   0.44398612   95.5205 
510.0000   0.44614563   104.6191 
520.0000   0.44683048   113.7722 
530.0000   0.44899558   122.7675 
540.0000   0.44988009   131.9779 
550.0000   0.45135854   140.8450 
560.0000   0.45443725   149.8767 
570.0000   0.45648372   158.9646 
580.0000   0.45796361   168.0729 
590.0000   0.45894565   177.2118 
600.0000   0.46192230   -173.4823 
610.0000   0.46422817   -164.0678 
620.0000   0.46545672   -154.6001 
630.0000   0.46923586   -145.1023 
640.0000   0.47236406   -135.5214 
650.0000   0.47293972   -125.9282 
660.0000   0.47603425   -116.0995 
670.0000   0.48292041   -106.2730 
680.0000   0.48084444   -96.4070 
690.0000   0.48480332   -86.4381 
700.0000   0.49189430   -76.6257 
710.0000   0.48780326   -66.8468 
720.0000   0.49117478   -56.6717 
730.0000   0.49619858   -46.5955 
740.0000   0.49293453   -36.5346 
750.0000   0.49616454   -26.2603 
760.0000   0.50227952   -16.3012 
770.0000   0.49975240   -6.2764 
780.0000   0.50111775   4.0983 
790.0000   0.50453558   14.0612 
800.0000   0.50333986   24.1042 
810.0000   0.50348279   34.3943 
820.0000   0.50477434   44.1612 
830.0000   0.50209543   54.1110 
840.0000   0.50173861   64.4791 
850.0000   0.50252550   74.2611 
860.0000   0.49778722   84.4314 
870.0000   0.49772493   94.7069 
880.0000   0.49785363   104.5091 
890.0000   0.49073695   114.6722 
900.0000   0.48861474   124.7862 
910.0000   0.48160813   134.7703 
920.0000   0.47609540   144.7908 
930.0000   0.46473837   154.8917 
940.0000   0.45731473   164.9203 
950.0000   0.45087687   174.9057 
960.0000   0.44279265   -175.1506 
970.0000   0.43502427   -165.1972 
980.0000   0.42875146   -155.3036 
990.0000   0.42160678   -145.3666 
1000.0000   0.41326481   -135.5160 
1010.0000   0.40715262   -125.7157 
1020.0000   0.40068752   -115.9617 
1030.0000   0.39243661   -106.3089 
1040.0000   0.38637237   -96.7534 
1050.0000   0.37604662   -87.2852 
1060.0000   0.37344680   -78.0743 
1070.0000   0.36850882   -68.8717 
1080.0000   0.36290431   -59.7100 
1090.0000   0.35751958   -50.7028 
1100.0000   0.35372566   -41.8162 
1110.0000   0.34924925   -32.9636 
1120.0000   0.34564786   -24.2455 
1130.0000   0.34210077   -15.6380 
1140.0000   0.33844015   -6.9513 
1150.0000   0.33459480   1.6538 
1160.0000   0.33113356   10.0771 
1170.0000   0.32814035   18.5208 
1180.0000   0.32568526   26.9959 
1190.0000   0.32481769   35.5192 
1200.0000   0.32290460   44.1977 
1210.0000   0.32178343   52.8772 
1220.0000   0.32033143   61.6947 
1230.0000   0.31977490   70.5007 
1240.0000   0.31945855   79.3218 
1250.0000   0.31932273   88.0824 
1260.0000   0.31951476   96.9869 
1270.0000   0.31880539   105.8030 
1280.0000   0.31873783   114.5383 
1290.0000   0.31960135   123.3599 
1300.0000   0.32003716   132.1749 
1310.0000   0.32137299   140.9628 
1320.0000   0.32221789   149.8332 
1330.0000   0.32211418   158.5860 
1340.0000   0.32276353   167.3466 
1350.0000   0.32294483   176.1489 
1360.0000   0.32351512   -175.0187 
1370.0000   0.32427759   -166.0455 
1380.0000   0.32386712   -156.9418 
1390.0000   0.32333220   -147.7795 
1400.0000   0.32272653   -138.5723 
1410.0000   0.32249408   -129.3164 
1420.0000   0.32168622   -119.7864 
1430.0000   0.32200083   -110.5784 
1440.0000   0.32212738   -101.2188 
1450.0000   0.32037162   -92.0495 
1460.0000   0.32057893   -82.7478 
1470.0000   0.32110509   -73.4560 
1480.0000   0.32185143   -64.1437 
1490.0000   0.32358882   -54.8765 
1500.0000   0.32527037   -45.5121 
1510.0000   0.32736008   -36.3378 
1520.0000   0.33025038   -27.0248 
1530.0000   0.33342632   -17.7541 
1540.0000   0.33663340   -8.2826 
1550.0000   0.34096213   1.2349 
1560.0000   0.34425540   11.0236 
1570.0000   0.34681626   20.8581 
1580.0000   0.34994044   30.8532 
1590.0000   0.35236679   40.9767 
1600.0000   0.35458493   51.2285 
1610.0000   0.35696948   61.4546 
1620.0000   0.35796717   71.8616 
1630.0000   0.35815287   82.1619 
1640.0000   0.35756331   92.4793 
1650.0000   0.35637838   102.8488 
1660.0000   0.35436057   113.2205 
1670.0000   0.35164030   123.5096 
1680.0000   0.34766849   133.9075 
1690.0000   0.34264863   144.1536 
1700.0000   0.33732729   154.2907 
1710.0000   0.33218781   164.3664 
1720.0000   0.32624880   174.3749 
1730.0000   0.32155909   -175.8138 
1740.0000   0.31561576   -165.9678 
1750.0000   0.30963072   -156.3771 
1760.0000   0.30421210   -146.8826 
1770.0000   0.29864165   -137.5157 
1780.0000   0.29319450   -128.2103 
1790.0000   0.28837108   -119.0556 
1800.0000   0.28291021   -109.8325 
1810.0000   0.27800216   -100.7637 
1820.0000   0.27180769   -92.2308 
1830.0000   0.26758007   -83.3134 
1840.0000   0.26351206   -74.4751 
1850.0000   0.25793303   -65.8049 
1860.0000   0.25387946   -57.0104 
1870.0000   0.25045272   -48.5083 
1880.0000   0.24711528   -39.9666 
1890.0000   0.24391947   -31.4417 
1900.0000   0.24105180   -22.9620 
1910.0000   0.23845983   -14.5496 
1920.0000   0.23528954   -5.9267 
1930.0000   0.23251777   2.4488 
1940.0000   0.22955247   10.8857 
1950.0000   0.22684845   19.2967 
1960.0000   0.22399939   27.6700 
1970.0000   0.22171230   36.0243 
1980.0000   0.21873264   44.5100 
1990.0000   0.21587171   52.8885 
2000.0000   0.21263676   61.4129 
2010.0000   0.20977559   69.9021 
2020.0000   0.20657158   78.5264 
2030.0000   0.20374584   87.1048 
2040.0000   0.20029436   95.8288 
2050.0000   0.19705486   104.4046 
2060.0000   0.19399078   113.0193 
2070.0000   0.19160000   121.6124 
2080.0000   0.18921572   130.2537 
2090.0000   0.18773848   138.7983 
2100.0000   0.18592305   147.3444 
2110.0000   0.18466412   155.7714 
2120.0000   0.18366109   164.1783 
2130.0000   0.18329223   172.6051 
2140.0000   0.18307112   -178.9760 
2150.0000   0.18343776   -170.4776 
2160.0000   0.18353599   -161.7239 
2170.0000   0.18417900   -153.1646 
2180.0000   0.18503699   -144.5361 
2190.0000   0.18612507   -135.9259 
2200.0000   0.18660122   -125.7288 
2210.0000   0.19456686   -117.7610 
2220.0000   0.19614672   -109.1305 
2230.0000   0.19828231   -100.6720 
2240.0000   0.20106652   -92.1369 
2250.0000   0.20386872   -83.5575 
2260.0000   0.20668622   -74.7855 
2270.0000   0.20977560   -65.9534 
2280.0000   0.21379949   -57.2402 
2290.0000   0.21728059   -48.4488 
2300.0000   0.22090675   -39.5216 
2310.0000   0.22493714   -30.5834 
2320.0000   0.22864881   -21.5821 
2330.0000   0.23342587   -12.7178 
2340.0000   0.23696791   -3.4685 
2350.0000   0.24069704   5.8377 
2360.0000   0.24430373   15.1163 
2370.0000   0.24813087   24.4698 
2380.0000   0.25132257   33.8268 
2390.0000   0.25415671   43.2915 
2400.0000   0.25681333   52.8795 
2410.0000   0.25837849   62.5515 
2420.0000   0.26038454   72.1609 
2430.0000   0.26137741   81.8713 
2440.0000   0.26155061   91.7062 
2450.0000   0.26165434   101.3203 
2460.0000   0.26029297   111.4195 
2470.0000   0.25946170   121.4903 
2480.0000   0.25717351   131.3780 
2490.0000   0.25418446   141.5819 
2500.0000   0.25107970   151.7034 
2510.0000   0.24709624   161.9676 
2520.0000   0.24378449   172.3048 
2530.0000   0.23897799   -177.3129 
2540.0000   0.23424557   -166.9918 
2550.0000   0.22941282   -156.6857 
2560.0000   0.22474382   -146.4771 
2570.0000   0.22037350   -136.5934 
2580.0000   0.21508874   -126.2619 
2590.0000   0.21021952   -116.3896 
2600.0000   0.20571755   -106.5840 
2610.0000   0.20168234   -96.9145 
2620.0000   0.19729010   -87.4075 
2630.0000   0.19311424   -77.8767 
2640.0000   0.18923607   -68.5950 
2650.0000   0.18501435   -59.3297 
2660.0000   0.18114221   -50.2237 
2670.0000   0.17756273   -41.2600 
2680.0000   0.17380646   -32.1198 
2690.0000   0.17062544   -23.4676 
2700.0000   0.16678347   -14.3695 
2710.0000   0.16320473   -5.6533 
2720.0000   0.16022406   3.0276 
2730.0000   0.15685269   11.8078 
2740.0000   0.15378624   20.4637 
2750.0000   0.15041597   29.1093 
2760.0000   0.14751625   37.6670 
2770.0000   0.14450290   46.1750 
2780.0000   0.14157342   54.6924 
2790.0000   0.13876089   63.3672 
2800.0000   0.13607364   71.8966 
2810.0000   0.13378983   80.1859 
2820.0000   0.13097068   88.8438 
2830.0000   0.12914913   97.1099 
2840.0000   0.12658840   110.1332 
2850.0000   0.12462628   118.4750 
2860.0000   0.12276243   126.8953 
2870.0000   0.12098283   135.3313 
2880.0000   0.11966942   143.7879 
2890.0000   0.11557829   152.4360 
2900.0000   0.11448575   160.8475 
2910.0000   0.11350287   169.2317 
2920.0000   0.11271839   177.7611 
2930.0000   0.11245113   -174.1007 
2940.0000   0.11181781   -165.4483 
2950.0000   0.11145469   -157.0498 
2960.0000   0.11128017   -148.4223 
2970.0000   0.11110891   -140.0509 
2980.0000   0.11100439   -131.6205 
2990.0000   0.11089520   -122.9714 
3000.0000   0.11113143   -114.3996 
3010.0000   0.11095792   -105.8335 
3020.0000   0.11107576   -97.1350 
3030.0000   0.11102349   -88.3864 
3040.0000   0.11084209   -79.5526 
3050.0000   0.11089577   -70.8391 
3060.0000   0.11054628   -61.8220 
3070.0000   0.11033817   -52.8989 
3080.0000   0.10998027   -43.9074 
3090.0000   0.10976054   -34.7882 
3100.0000   0.10935635   -25.6990 
3110.0000   0.10899871   -16.6233 
3120.0000   0.10865538   -7.4780 
3130.0000   0.10809772   1.7526 
3140.0000   0.10777788   10.9812 
3150.0000   0.10736337   20.2714 
3160.0000   0.10704376   29.4896 
3170.0000   0.10728323   38.5948 
3180.0000   0.10687031   48.1363 
3190.0000   0.10713613   57.6674 
3200.0000   0.10744115   67.0468 
3210.0000   0.10778189   76.4925 
3220.0000   0.10827227   85.9520 
3230.0000   0.10919027   95.5170 
3240.0000   0.11021127   105.1831 
3250.0000   0.11125624   114.8504 
3260.0000   0.11258165   124.5328 
3270.0000   0.11383520   134.2491 
3280.0000   0.11520936   144.0890 
3290.0000   0.11710265   153.9633 
3300.0000   0.11848634   164.1641 
3310.0000   0.12019933   174.3465 
3320.0000   0.12148827   -175.3999 
3330.0000   0.12274111   -165.1170 
3340.0000   0.12393457   -154.5277 
3350.0000   0.12456675   -143.8940 
3360.0000   0.12502742   -133.0568 
3370.0000   0.12490601   -122.2327 
3380.0000   0.12438359   -111.3991 
3390.0000   0.12315270   -100.3550 
3400.0000   0.12151101   -89.2354 
3410.0000   0.11973947   -78.2042 
3420.0000   0.11682131   -66.7253 
3430.0000   0.11398626   -55.5914 
3440.0000   0.11020788   -44.4950 
3450.0000   0.10630223   -33.3377 
3460.0000   0.10237747   -22.2579 
3470.0000   0.09811337   -11.2904 
3480.0000   0.09388886   -0.3679 
3490.0000   0.08964551   10.1656 
3500.0000   0.08548432   20.7337 
3510.0000   0.08123573   30.9565 
3520.0000   0.07750714   41.0971 
3530.0000   0.07397763   50.9426 
3540.0000   0.07042814   60.8330 
3550.0000   0.06731083   70.2566 
3560.0000   0.06436733   79.5509 
3570.0000   0.06159231   88.7443 
3580.0000   0.05924683   97.8333 
3590.0000   0.05709653   106.5567 
3600.0000   0.05519417   115.2901 
3610.0000   0.05337640   123.7221 
3620.0000   0.05189580   132.1263 
3630.0000   0.05051890   140.2368 
3640.0000   0.04900221   145.8716 
3650.0000   0.04814543   154.0779 
3660.0000   0.04708286   162.6175 
3670.0000   0.04621797   170.9388 
3680.0000   0.04547313   179.2821 
3690.0000   0.04478800   -172.3710 
3700.0000   0.04274138   -163.6483 
3710.0000   0.04211759   -154.8204 
3720.0000   0.04162576   -146.0065 
3730.0000   0.04109428   -137.2080 
3740.0000   0.04051719   -128.1682 
3750.0000   0.03986270   -119.0370 
3760.0000   0.03920921   -109.9552 
3770.0000   0.03871993   -100.8906 
3780.0000   0.03797139   -91.4407 
3790.0000   0.03732230   -82.2173 
3800.0000   0.03658977   -72.8235 
3810.0000   0.03587407   -63.3901 
3820.0000   0.03516897   -54.0632 
3830.0000   0.03446696   -44.7674 
3840.0000   0.03375966   -35.5503 
3850.0000   0.03307372   -26.4787 
3860.0000   0.03249962   -17.3933 
3870.0000   0.03197701   -8.4992 
3880.0000   0.03156956   0.4027 
3890.0000   0.03128844   9.1429 
3900.0000   0.03084188   17.6995 
3910.0000   0.03062815   26.3901 
3920.0000   0.03049377   34.7904 
3930.0000   0.03039470   43.1691 
3940.0000   0.03042071   51.4909 
3950.0000   0.03058513   59.6810 
3960.0000   0.03067322   67.9200 
3970.0000   0.03091120   76.1797 
3980.0000   0.03121009   84.4316 
3990.0000   0.03162696   92.6191 
