# MHz S MA R 50.0
140.0000   0.39224071   -90.2730 
150.0000   0.43768165   -79.7557 
160.0000   0.45771056   -64.9441 
170.0000   0.47000007   -49.4357 
180.0000   0.48319026   -40.0449 
190.0000   0.48929283   -29.3522 
200.0000   0.49067921   -19.0962 
210.0000   0.49743758   -10.8508 
220.0000   0.51657456   -2.4897 
230.0000   0.52171359   6.7945 
240.0000   0.52777492   15.7506 
250.0000   0.53706134   25.3823 
260.0000   0.53134998   36.0596 
270.0000   0.54107198   47.2578 
280.0000   0.54793474   57.9665 
290.0000   0.54327640   68.5324 
300.0000   0.53664743   79.4996 
310.0000   0.53545342   90.4024 
320.0000   0.53381298   100.1486 
330.0000   0.53915811   110.7854 
340.0000   0.53336556   120.6330 
350.0000   0.53018077   130.6732 
360.0000   0.52794761   140.7794 
370.0000   0.52736269   151.1111 
380.0000   0.52172103   161.3946 
390.0000   0.52050962   171.4871 
400.0000   0.52276775   -178.3879 
410.0000   0.52242497   -167.8083 
420.0000   0.51460612   -157.9494 
430.0000   0.51833888   -147.9644 
440.0000   0.51397432   -137.9810 
450.0000   0.51410662   -127.9073 
460.0000   0.50949648   -118.2246 
470.0000   0.50601685   -108.3057 
480.0000   0.50045494   -98.1461 
490.0000   0.50002753   -88.4465 
500.0000   0.49749269   -78.2641 
510.0000   0.50009394   -68.4319 
520.0000   0.49444395   -58.7419 
530.0000   0.49032098   -49.1702 
540.0000   0.48695022   -39.8030 
550.0000   0.48499418   -30.2941 
560.0000   0.48404160   -20.9616 
570.0000   0.48478125   -11.5971 
580.0000   0.48023032   -2.4862 
590.0000   0.47443317   6.9386 
600.0000   0.47481162   16.2540 
610.0000   0.47006586   25.5589 
620.0000   0.46463104   34.9093 
630.0000   0.46132154   44.1052 
640.0000   0.45388642   53.3568 
650.0000   0.44843699   62.5782 
660.0000   0.44344606   71.7410 
670.0000   0.43692141   80.8752 
680.0000   0.43232846   89.9466 
690.0000   0.42590648   98.9825 
700.0000   0.42000632   107.9885 
710.0000   0.41334393   116.7393 
720.0000   0.40800123   125.6448 
730.0000   0.39896117   134.5583 
740.0000   0.39493200   143.3829 
750.0000   0.39048887   152.1574 
760.0000   0.38639690   160.8323 
770.0000   0.38316707   169.5515 
780.0000   0.37900976   178.2811 
790.0000   0.37563347   -172.9973 
800.0000   0.37365721   -164.3785 
810.0000   0.37061483   -155.7128 
820.0000   0.36753237   -147.0936 
830.0000   0.36643061   -138.4259 
840.0000   0.36362344   -129.6363 
850.0000   0.36156171   -120.8076 
860.0000   0.36057647   -111.9633 
870.0000   0.35888165   -102.9995 
880.0000   0.35722281   -94.0385 
890.0000   0.35703107   -85.1110 
900.0000   0.35590091   -75.9961 
910.0000   0.35242710   -66.8937 
920.0000   0.35245804   -57.7906 
930.0000   0.34724384   -48.5332 
940.0000   0.34639701   -39.2600 
950.0000   0.34636163   -29.9782 
960.0000   0.34599750   -20.6761 
970.0000   0.34552421   -11.3340 
980.0000   0.34719056   -1.9480 
990.0000   0.34768210   7.4509 
1000.0000   0.34782917   16.8659 
1010.0000   0.34986620   26.2724 
1020.0000   0.35096760   35.7910 
1030.0000   0.35153358   45.1670 
1040.0000   0.35420605   54.5985 
1050.0000   0.35605690   64.0108 
1060.0000   0.35811756   73.3232 
1070.0000   0.36155726   82.6831 
1080.0000   0.36393982   92.1303 
1090.0000   0.36616236   101.5087 
1100.0000   0.36994703   110.8736 
1110.0000   0.37270617   120.3019 
1120.0000   0.37528319   129.7335 
1130.0000   0.37765979   139.1935 
1140.0000   0.37981770   148.6224 
1150.0000   0.38046691   158.0898 
1160.0000   0.38151911   167.6537 
1170.0000   0.38242507   177.2179 
1180.0000   0.38294810   -173.1525 
1190.0000   0.38388746   -163.4120 
1200.0000   0.38335332   -153.5062 
1210.0000   0.38171742   -143.6072 
1220.0000   0.38001305   -133.5763 
1230.0000   0.37802009   -123.5371 
1240.0000   0.37559927   -113.5308 
1250.0000   0.37321285   -103.5914 
1260.0000   0.36990371   -93.5389 
1270.0000   0.36565078   -83.6057 
1280.0000   0.36189162   -73.7422 
1290.0000   0.35860508   -63.9599 
1300.0000   0.35447381   -54.2074 
1310.0000   0.35114765   -44.5570 
1320.0000   0.34701606   -34.9230 
1330.0000   0.34230416   -25.4388 
1340.0000   0.33782811   -16.0080 
1350.0000   0.33347593   -6.6118 
1360.0000   0.32905197   2.8282 
1370.0000   0.32524136   12.3034 
1380.0000   0.32043921   21.8868 
1390.0000   0.31530450   31.3475 
1400.0000   0.31090170   40.9469 
1410.0000   0.30653694   50.4767 
1420.0000   0.30142619   60.2883 
1430.0000   0.29790970   69.7597 
1440.0000   0.29399351   79.3319 
1450.0000   0.28863832   88.7232 
1460.0000   0.28455356   98.1590 
1470.0000   0.28144644   107.5306 
1480.0000   0.27847586   116.8167 
1490.0000   0.27649415   126.0298 
1500.0000   0.27436393   135.2386 
1510.0000   0.27261669   144.2049 
1520.0000   0.27171215   153.1675 
1530.0000   0.27136244   162.0616 
1540.0000   0.27115742   171.0252 
1550.0000   0.27214441   -179.9991 
1560.0000   0.27216931   -170.8250 
1570.0000   0.27222522   -161.6914 
1580.0000   0.27302419   -152.4807 
1590.0000   0.27340359   -143.1735 
1600.0000   0.27418090   -133.8842 
1610.0000   0.27566288   -124.6058 
1620.0000   0.27637375   -115.2373 
1630.0000   0.27659810   -106.0089 
1640.0000   0.27727762   -96.7729 
1650.0000   0.27779659   -87.4559 
1660.0000   0.27776157   -78.2056 
1670.0000   0.27819690   -68.9913 
1680.0000   0.27761036   -59.5685 
1690.0000   0.27645660   -50.3185 
1700.0000   0.27591466   -41.0667 
1710.0000   0.27550199   -31.7117 
1720.0000   0.27470853   -22.4352 
1730.0000   0.27489945   -13.2341 
1740.0000   0.27486840   -3.8599 
1750.0000   0.27421204   5.2782 
1760.0000   0.27448137   14.4508 
1770.0000   0.27443945   23.6259 
1780.0000   0.27413803   32.7772 
1790.0000   0.27487786   41.8926 
1800.0000   0.27466787   51.1792 
1810.0000   0.27450539   60.3873 
1820.0000   0.27360829   69.2033 
1830.0000   0.27405325   78.4798 
1840.0000   0.27449678   87.7977 
1850.0000   0.27321488   96.9697 
1860.0000   0.27364470   106.3018 
1870.0000   0.27414867   115.5496 
1880.0000   0.27515857   124.8474 
1890.0000   0.27614532   134.1724 
1900.0000   0.27692971   143.6655 
1910.0000   0.27779215   153.0953 
1920.0000   0.27848825   162.7579 
1930.0000   0.27893855   172.3030 
1940.0000   0.27956728   -178.0595 
1950.0000   0.28038104   -168.3451 
1960.0000   0.28115075   -158.5846 
1970.0000   0.28206695   -148.8223 
1980.0000   0.28210272   -138.8432 
1990.0000   0.28210752   -128.9276 
2000.0000   0.28153896   -118.8956 
2010.0000   0.28121820   -108.7516 
2020.0000   0.28026481   -98.4751 
2030.0000   0.27988688   -88.2777 
2040.0000   0.27868183   -77.8179 
2050.0000   0.27744617   -67.4938 
2060.0000   0.27595535   -56.9825 
2070.0000   0.27466097   -46.4701 
2080.0000   0.27306714   -35.8941 
2090.0000   0.27180470   -25.3541 
2100.0000   0.26977638   -14.7865 
2110.0000   0.26701545   -4.4033 
2120.0000   0.26509076   5.9869 
2130.0000   0.26255420   16.2697 
2140.0000   0.25936299   26.4698 
2150.0000   0.25635920   36.6588 
2160.0000   0.25228148   47.0466 
2170.0000   0.24834154   57.1409 
2180.0000   0.24414770   67.1926 
2190.0000   0.24012136   77.1794 
2200.0000   0.23493106   88.5075 
2210.0000   0.23855263   97.5774 
2220.0000   0.23398069   107.1814 
2230.0000   0.22985150   116.4563 
2240.0000   0.22605444   125.6858 
2250.0000   0.22216399   134.8410 
2260.0000   0.21813073   144.0971 
2270.0000   0.21443722   153.2432 
2280.0000   0.21148273   162.2197 
2290.0000   0.20796601   171.1955 
2300.0000   0.20487066   -179.9389 
2310.0000   0.20171347   -170.9306 
2320.0000   0.19852030   -162.0288 
2330.0000   0.19632721   -153.3821 
2340.0000   0.19336865   -144.4631 
2350.0000   0.19074312   -135.5668 
2360.0000   0.18817063   -126.7164 
2370.0000   0.18624441   -117.9726 
2380.0000   0.18379812   -109.3226 
2390.0000   0.18147455   -100.5531 
2400.0000   0.17943679   -91.9970 
2410.0000   0.17700503   -83.4230 
2420.0000   0.17517014   -74.9268 
2430.0000   0.17310074   -66.4554 
2440.0000   0.17104789   -57.9318 
2450.0000   0.16922020   -49.6936 
2460.0000   0.16732518   -41.1336 
2470.0000   0.16584000   -32.7875 
2480.0000   0.16424624   -24.5095 
2490.0000   0.16284560   -16.0142 
2500.0000   0.16151244   -7.5836 
2510.0000   0.16033702   0.8744 
2520.0000   0.15985528   9.3376 
2530.0000   0.15898627   17.9377 
2540.0000   0.15843298   26.5122 
2550.0000   0.15827707   35.0245 
2560.0000   0.15838772   43.6240 
2570.0000   0.15876154   52.0035 
2580.0000   0.15905711   60.7771 
2590.0000   0.15978294   69.2409 
2600.0000   0.16060961   77.8157 
2610.0000   0.16194649   86.3412 
2620.0000   0.16308483   94.8894 
2630.0000   0.16451679   103.5775 
2640.0000   0.16619817   112.1752 
2650.0000   0.16770021   120.8686 
2660.0000   0.16963639   129.5836 
2670.0000   0.17138072   138.2923 
2680.0000   0.17301598   147.3183 
2690.0000   0.17474492   156.0886 
2700.0000   0.17625955   165.2576 
2710.0000   0.17784316   174.3114 
2720.0000   0.17941140   -176.5998 
2730.0000   0.18069187   -167.3145 
2740.0000   0.18186007   -157.9887 
2750.0000   0.18274635   -148.6348 
2760.0000   0.18276188   -139.1801 
2770.0000   0.18425645   -129.7634 
2780.0000   0.18455831   -120.1867 
2790.0000   0.18482551   -110.4669 
2800.0000   0.18384772   -100.7335 
2810.0000   0.18455103   -91.2189 
2820.0000   0.18423515   -81.2592 
2830.0000   0.18417858   -71.5744 
2840.0000   0.18353639   -57.2220 
2850.0000   0.18304847   -47.4324 
2860.0000   0.18237731   -37.5598 
2870.0000   0.18140662   -27.6368 
2880.0000   0.18096040   -17.6279 
2890.0000   0.17650322   -7.9306 
2900.0000   0.17570160   2.0702 
2910.0000   0.17486837   12.0930 
2920.0000   0.17400267   22.1295 
2930.0000   0.17332529   31.9637 
2940.0000   0.17210167   42.1696 
2950.0000   0.17104434   52.2288 
2960.0000   0.16999465   62.2694 
2970.0000   0.16883515   72.2141 
2980.0000   0.16751184   82.1828 
2990.0000   0.16575752   92.2422 
3000.0000   0.16431466   102.2810 
3010.0000   0.16207452   112.2486 
3020.0000   0.15985519   122.2061 
3030.0000   0.15732891   132.1623 
3040.0000   0.15472386   142.0926 
3050.0000   0.15222037   151.8290 
3060.0000   0.14889705   161.8170 
3070.0000   0.14584922   171.5646 
3080.0000   0.14243320   -178.6252 
3090.0000   0.13911798   -168.9340 
3100.0000   0.13554446   -159.3630 
3110.0000   0.13189286   -149.8671 
3120.0000   0.12836969   -140.4711 
3130.0000   0.12461883   -131.1927 
3140.0000   0.12107764   -121.9634 
3150.0000   0.11760629   -112.8758 
3160.0000   0.11418009   -103.8645 
3170.0000   0.11118568   -95.1151 
3180.0000   0.10796405   -86.1285 
3190.0000   0.10491109   -77.3939 
3200.0000   0.10230647   -68.6084 
3210.0000   0.09989435   -59.8843 
3220.0000   0.09757526   -51.3815 
3230.0000   0.09540173   -42.8473 
3240.0000   0.09360500   -34.2605 
3250.0000   0.09170683   -25.8072 
3260.0000   0.09019005   -17.4105 
3270.0000   0.08876759   -9.1192 
3280.0000   0.08748815   -0.7038 
3290.0000   0.08667642   7.6748 
3300.0000   0.08561099   16.2970 
3310.0000   0.08475901   24.7547 
3320.0000   0.08414681   33.3683 
3330.0000   0.08347646   41.8730 
3340.0000   0.08302977   50.5130 
3350.0000   0.08252969   59.2516 
3360.0000   0.08225162   68.1066 
3370.0000   0.08179349   76.8487 
3380.0000   0.08127445   85.6221 
3390.0000   0.08083139   94.3804 
3400.0000   0.08025732   103.2943 
3410.0000   0.07985290   112.0583 
3420.0000   0.07903057   121.1000 
3430.0000   0.07837304   129.9654 
3440.0000   0.07740207   138.7418 
3450.0000   0.07666220   147.6341 
3460.0000   0.07581549   156.4488 
3470.0000   0.07480334   165.1722 
3480.0000   0.07388716   174.0117 
3490.0000   0.07295087   -177.4850 
3500.0000   0.07197732   -169.0226 
3510.0000   0.07101123   -160.6525 
3520.0000   0.07027395   -152.2518 
3530.0000   0.06969447   -143.9533 
3540.0000   0.06892692   -135.5319 
3550.0000   0.06858594   -127.3768 
3560.0000   0.06808996   -119.2122 
3570.0000   0.06785738   -111.0143 
3580.0000   0.06765093   -102.8619 
3590.0000   0.06757887   -94.7798 
3600.0000   0.06758374   -86.5051 
3610.0000   0.06783160   -78.3560 
3620.0000   0.06821565   -70.1460 
3630.0000   0.06862488   -61.7778 
3640.0000   0.06898887   -56.1906 
3650.0000   0.06959445   -47.5181 
3660.0000   0.07022208   -38.5323 
3670.0000   0.07098019   -29.4795 
3680.0000   0.07163902   -20.2088 
3690.0000   0.07247913   -10.7609 
3700.0000   0.07212090   -0.8116 
3710.0000   0.07269900   9.0533 
3720.0000   0.07329242   19.0989 
3730.0000   0.07352992   29.0842 
3740.0000   0.07359616   39.1837 
3750.0000   0.07361187   49.5769 
3760.0000   0.07322924   60.1588 
3770.0000   0.07285028   70.4871 
3780.0000   0.07195883   81.0600 
3790.0000   0.07088619   91.4851 
3800.0000   0.06968980   101.8526 
3810.0000   0.06834131   112.2041 
3820.0000   0.06700277   122.4114 
3830.0000   0.06548528   132.5312 
3840.0000   0.06387893   142.4509 
3850.0000   0.06224516   152.3241 
3860.0000   0.06054830   162.0299 
3870.0000   0.05886332   171.5970 
3880.0000   0.05728039   -178.9102 
3890.0000   0.05583683   -169.9139 
3900.0000   0.05414207   -160.5986 
3910.0000   0.05273694   -151.4690 
3920.0000   0.05127477   -142.6062 
3930.0000   0.04997123   -133.7270 
3940.0000   0.04871526   -124.9818 
3950.0000   0.04761493   -116.3155 
3960.0000   0.04652049   -107.7924 
3970.0000   0.04542794   -99.2449 
3980.0000   0.04445815   -90.6424 
3990.0000   0.04356584   -81.9670 
