! 140 4400 1
# MHz S MA R 50.0
!freq ReS11 ImS11
140.0000   0.0093791008   66.8981201199 
141.0000   0.0093926752   67.3967624740 
142.0000   0.0088989790   68.0664527526 
143.0000   0.0095115323   69.0650395824 
144.0000   0.0095650695   73.1471487011 
145.0000   0.0095739761   71.0794844633 
146.0000   0.0091070377   65.9468957396 
147.0000   0.0096777566   72.9830166113 
148.0000   0.0096332822   71.8507774803 
149.0000   0.0096466632   75.3466440963 
150.0000   0.0096458998   76.6077935268 
151.0000   0.0096262854   77.5825031673 
152.0000   0.0095791152   78.2456805345 
153.0000   0.0095650421   79.8301898916 
154.0000   0.0095565267   81.4452243185 
155.0000   0.0095330512   82.5023683240 
156.0000   0.0094923124   83.1040449492 
157.0000   0.0094543313   84.9798076532 
158.0000   0.0093988944   85.8670796539 
159.0000   0.0093970128   88.5805703948 
160.0000   0.0093474424   90.5337751636 
161.0000   0.0092883732   92.6197201196 
162.0000   0.0092377921   94.7974698516 
163.0000   0.0092021686   97.1282631211 
164.0000   0.0091283089   99.4749195683 
165.0000   0.0090950273   101.9035610245 
166.0000   0.0089838056   106.3854130890 
167.0000   0.0090433911   105.6079408127 
168.0000   0.0089744150   106.9557353286 
169.0000   0.0089411607   109.4875433909 
170.0000   0.0089022768   111.1367474982 
171.0000   0.0088540935   111.9574997658 
172.0000   0.0088153471   113.2604877198 
173.0000   0.0087477791   114.7339736128 
174.0000   0.0086904258   115.5175316986 
175.0000   0.0086402746   117.0261506777 
176.0000   0.0086116332   117.3959780427 
177.0000   0.0085797022   118.8304879967 
178.0000   0.0085128563   120.2898641524 
179.0000   0.0084926723   120.3971194737 
180.0000   0.0084684553   123.1157879934 
181.0000   0.0083944949   123.9819353152 
182.0000   0.0084245543   123.9961255279 
183.0000   0.0083883696   126.0816631150 
184.0000   0.0083262868   127.5168360232 
185.0000   0.0082686781   128.4434306684 
186.0000   0.0082569260   129.6921578558 
187.0000   0.0081980748   131.3017888217 
188.0000   0.0081532284   132.4456664249 
189.0000   0.0081087730   133.6128006348 
190.0000   0.0081110865   132.1307311157 
191.0000   0.0080232990   137.3751553656 
192.0000   0.0079186088   137.1472620270 
193.0000   0.0078386078   139.2542894022 
194.0000   0.0077824618   144.3127528325 
195.0000   0.0077350188   142.0375322046 
196.0000   0.0076709631   143.4467482966 
197.0000   0.0076236360   145.0234227645 
198.0000   0.0075349888   146.5007403013 
199.0000   0.0074776115   147.7855394006 
200.0000   0.0074330694   149.2352030295 
201.0000   0.0073535112   150.5463634298 
202.0000   0.0073193434   151.9902998627 
203.0000   0.0072704214   153.5264923010 
204.0000   0.0071638612   155.0357065872 
205.0000   0.0071493912   155.4489926254 
206.0000   0.0070660455   157.7636062086 
207.0000   0.0070199064   158.5340138928 
208.0000   0.0069947011   159.7832733823 
209.0000   0.0069411241   160.8361161404 
210.0000   0.0069072323   162.1200909394 
211.0000   0.0068788854   163.1404593324 
212.0000   0.0068486787   164.7242316774 
213.0000   0.0068106662   165.4184825047 
214.0000   0.0067003092   165.8648638801 
215.0000   0.0067807065   168.0319630458 
216.0000   0.0067429737   169.4824324668 
217.0000   0.0066886775   170.7903470888 
218.0000   0.0065741358   172.0490373445 
219.0000   0.0066715409   173.2865843941 
220.0000   0.0066271087   174.3356751611 
221.0000   0.0065909188   176.0373553388 
222.0000   0.0065848985   177.4127216418 
223.0000   0.0065246677   178.6354860313 
224.0000   0.0064815273   -179.8405449231 
225.0000   0.0064561255   -178.5529390888 
226.0000   0.0064124108   -177.2706851224 
227.0000   0.0064215048   -175.9740519017 
228.0000   0.0063288879   -174.1230343941 
229.0000   0.0062783494   -172.5480967732 
230.0000   0.0062575301   -171.0007915998 
231.0000   0.0061923441   -169.8440503668 
232.0000   0.0061239323   -168.3473932089 
233.0000   0.0060854720   -167.1172587576 
234.0000   0.0060513357   -165.5300129670 
235.0000   0.0060061864   -164.2995916866 
236.0000   0.0059674662   -162.7177735094 
237.0000   0.0058887578   -161.2905052610 
238.0000   0.0057853021   -164.3384656828 
239.0000   0.0057872936   -158.2463950385 
240.0000   0.0057671244   -157.1100539033 
241.0000   0.0057034674   -155.6080476720 
242.0000   0.0051768681   -153.4454682432 
243.0000   0.0056176026   -152.7680153246 
244.0000   0.0055770316   -151.6149163586 
245.0000   0.0055454940   -149.8632533784 
246.0000   0.0055170907   -148.2750083043 
247.0000   0.0054859675   -146.7183136612 
248.0000   0.0054420899   -144.8195781414 
249.0000   0.0054250136   -143.2721989976 
250.0000   0.0053592570   -141.5760150221 
251.0000   0.0053561577   -139.6927789144 
252.0000   0.0052883368   -137.8260263377 
253.0000   0.0052409739   -136.3417428820 
254.0000   0.0052622492   -133.8559042240 
255.0000   0.0052163980   -132.4825042743 
256.0000   0.0051685560   -130.5469172677 
257.0000   0.0051446573   -128.8548965399 
258.0000   0.0051160856   -127.3435042238 
259.0000   0.0050575903   -125.5859449358 
260.0000   0.0050316771   -123.3291410670 
261.0000   0.0050042176   -121.6620470575 
262.0000   0.0048709281   -119.9159903056 
263.0000   0.0049086476   -117.6808656815 
264.0000   0.0048513725   -115.9468493485 
265.0000   0.0048230408   -114.2245739059 
266.0000   0.0047061434   -111.8067916039 
267.0000   0.0047426273   -110.1487775798 
268.0000   0.0047213331   -108.6469208487 
269.0000   0.0046633317   -106.4097340795 
270.0000   0.0046197599   -105.0312397036 
271.0000   0.0045894487   -102.9012104076 
272.0000   0.0045719818   -101.1401862757 
273.0000   0.0045164763   -98.8478724724 
274.0000   0.0044669829   -96.9893552358 
275.0000   0.0044401187   -94.9645441676 
276.0000   0.0044013921   -93.1654225536 
277.0000   0.0043350418   -91.3106676719 
278.0000   0.0043359725   -89.1095575297 
279.0000   0.0042843398   -87.2382543915 
280.0000   0.0042713917   -85.2404754430 
281.0000   0.0042111138   -83.6100213548 
282.0000   0.0041997610   -81.3820418775 
283.0000   0.0041366369   -79.4943595934 
284.0000   0.0041126037   -77.1264017750 
285.0000   0.0040822746   -75.3848457243 
286.0000   0.0045237632   -71.0307090028 
287.0000   0.0039883175   -71.0733352049 
288.0000   0.0039638614   -69.0887393845 
289.0000   0.0039194419   -66.8851963883 
290.0000   0.0043930758   -66.1185410607 
291.0000   0.0038468849   -62.4816388267 
292.0000   0.0038197921   -60.3019682097 
293.0000   0.0037814784   -58.1461082026 
294.0000   0.0037488886   -55.6374094402 
295.0000   0.0037123866   -53.5186604020 
296.0000   0.0036920049   -51.3112673086 
297.0000   0.0036747525   -48.8392357843 
298.0000   0.0036321326   -46.8076194611 
299.0000   0.0035827587   -44.6514300955 
300.0000   0.0035935037   -42.4136196165 
301.0000   0.0035283453   -39.7380923439 
302.0000   0.0034941873   -37.7898812129 
303.0000   0.0035033258   -35.3493936212 
304.0000   0.0034412205   -32.9750023223 
305.0000   0.0034360409   -30.3515446632 
306.0000   0.0034330781   -28.0410657452 
307.0000   0.0033839663   -25.9655926147 
308.0000   0.0033451672   -23.4884409116 
309.0000   0.0033309538   -21.3440475037 
310.0000   0.0031984006   -14.3143591982 
311.0000   0.0032589467   -16.5396422447 
312.0000   0.0032600134   -14.3428180466 
313.0000   0.0032874648   -12.0243846193 
314.0000   0.0033614021   -3.7895147152 
315.0000   0.0032270282   -6.9821496219 
316.0000   0.0032317024   -5.0827869294 
317.0000   0.0032120729   -2.4460193987 
318.0000   0.0032007043   -0.1601430949 
319.0000   0.0031724542   2.4976411038 
320.0000   0.0031666072   4.4191749003 
321.0000   0.0031513361   7.2843043689 
322.0000   0.0031135095   9.8354923520 
323.0000   0.0031285308   11.7478419971 
324.0000   0.0031045523   14.3704890109 
325.0000   0.0031173319   17.0622276993 
326.0000   0.0031085219   19.1013292534 
327.0000   0.0031131945   22.2033305237 
328.0000   0.0030830941   24.0262992057 
329.0000   0.0030551840   26.6294817855 
330.0000   0.0030637136   28.7510391036 
331.0000   0.0030620901   31.2619641421 
332.0000   0.0030590214   33.5220914211 
333.0000   0.0030705865   36.6634020613 
334.0000   0.0036381637   45.5629673640 
335.0000   0.0031027027   41.4265509217 
336.0000   0.0030851645   44.2022867611 
337.0000   0.0030501552   46.4518933470 
338.0000   0.0023913249   48.2456832375 
339.0000   0.0030936971   51.6057615335 
340.0000   0.0031053165   53.7784343287 
341.0000   0.0030898807   55.9646397143 
342.0000   0.0031034533   58.1789072436 
343.0000   0.0031233222   61.2827554118 
344.0000   0.0031191830   63.3517789902 
345.0000   0.0031486933   66.1604828171 
346.0000   0.0031539297   69.1110908999 
347.0000   0.0031911269   71.0174280907 
348.0000   0.0031772729   72.4424827230 
349.0000   0.0032052712   75.5647387934 
350.0000   0.0032338351   77.5611645271 
351.0000   0.0032324993   80.4531607108 
352.0000   0.0032853218   81.9972437745 
353.0000   0.0032835319   84.4049939222 
354.0000   0.0033023047   86.8644186852 
355.0000   0.0033196740   89.3176041265 
356.0000   0.0033584920   91.0375143019 
357.0000   0.0033814516   93.7461734142 
358.0000   0.0030123811   102.0792261174 
359.0000   0.0033791382   98.3496230939 
360.0000   0.0034455094   100.4321927784 
361.0000   0.0034716310   102.9889170280 
362.0000   0.0030214114   100.8444470465 
363.0000   0.0035030547   107.3383035465 
364.0000   0.0035386332   108.9439025430 
365.0000   0.0035449920   111.9287891247 
366.0000   0.0036307606   113.6440367540 
367.0000   0.0035872970   116.1993348069 
368.0000   0.0036425290   118.4006357313 
369.0000   0.0036560260   120.3568360782 
370.0000   0.0037054948   122.5582346436 
371.0000   0.0037251120   124.9958498237 
372.0000   0.0037068040   127.3524221139 
373.0000   0.0037636045   129.1115198211 
374.0000   0.0038289910   131.6515892761 
375.0000   0.0038538520   133.4520247302 
376.0000   0.0038526078   135.2272017143 
377.0000   0.0038837397   137.4719451295 
378.0000   0.0039448637   139.9712423735 
379.0000   0.0039808542   142.1211269851 
380.0000   0.0040088995   144.2874493568 
381.0000   0.0040343484   145.8661368607 
382.0000   0.0044807112   150.4387294453 
383.0000   0.0041038893   150.2520405299 
384.0000   0.0041123695   152.2474071779 
385.0000   0.0041350537   154.4360420252 
386.0000   0.0039221618   151.6713654012 
387.0000   0.0042382124   158.1437195894 
388.0000   0.0042797679   160.6047012566 
389.0000   0.0043119806   162.2158900883 
390.0000   0.0043486360   163.9464538353 
391.0000   0.0043798921   165.8545887979 
392.0000   0.0043830336   167.9053796672 
393.0000   0.0044401682   170.0809144620 
394.0000   0.0044905892   171.8410057038 
395.0000   0.0045283167   173.3080821763 
396.0000   0.0045164375   175.8816373166 
397.0000   0.0046033350   177.3957213279 
398.0000   0.0046383663   179.0607189556 
399.0000   0.0046807382   -178.5890307127 
400.0000   0.0047343705   -177.1753027290 
401.0000   0.0047436336   -175.3123058865 
402.0000   0.0047848795   -173.1512842015 
403.0000   0.0047990808   -171.7351139612 
404.0000   0.0048226575   -169.1149161944 
405.0000   0.0048594048   -167.9939071881 
406.0000   0.0045729607   -160.6048736529 
407.0000   0.0049553813   -163.7181217511 
408.0000   0.0049804950   -162.1301394799 
409.0000   0.0050156876   -160.2305239813 
410.0000   0.0045084271   -156.8510223937 
411.0000   0.0050728252   -156.5528966762 
412.0000   0.0051095999   -154.5417491291 
413.0000   0.0051495301   -152.9663020540 
414.0000   0.0052372533   -151.5996088481 
415.0000   0.0052352088   -149.4953151931 
416.0000   0.0052790924   -147.8186997808 
417.0000   0.0052839707   -145.7605856567 
418.0000   0.0053000476   -144.0632118470 
419.0000   0.0053669879   -141.9516426320 
420.0000   0.0054299627   -140.6005299090 
421.0000   0.0054599931   -138.6494379295 
422.0000   0.0054912469   -136.6208228124 
423.0000   0.0055153909   -134.7516476397 
424.0000   0.0055439759   -132.8623223395 
425.0000   0.0055931043   -131.4726960729 
426.0000   0.0056163882   -129.7531840291 
427.0000   0.0056694404   -127.7431707545 
428.0000   0.0056868697   -126.2238810624 
429.0000   0.0057248736   -124.5153147820 
430.0000   0.0056848438   -123.7410905851 
431.0000   0.0057996559   -120.7170132961 
432.0000   0.0058425340   -119.2525424378 
433.0000   0.0058700774   -117.3509998786 
434.0000   0.0059827468   -117.3332097112 
435.0000   0.0059575899   -114.0322137516 
436.0000   0.0059891479   -112.8155468053 
437.0000   0.0060247232   -110.7840403803 
438.0000   0.0060631899   -109.1543740191 
439.0000   0.0061055735   -107.4712535664 
440.0000   0.0061226728   -105.8686718390 
441.0000   0.0061784924   -104.2702565593 
442.0000   0.0062126372   -102.7583815433 
443.0000   0.0062426249   -100.8226701170 
444.0000   0.0062871593   -99.3804899523 
445.0000   0.0063298955   -97.5340510770 
446.0000   0.0063683909   -95.7432694873 
447.0000   0.0063857252   -94.3427352190 
448.0000   0.0064525622   -92.3629421468 
449.0000   0.0064675379   -90.8239042462 
450.0000   0.0065256697   -88.9659104271 
451.0000   0.0065426697   -87.3357842441 
452.0000   0.0065628542   -86.0473954739 
453.0000   0.0066088451   -84.3213655216 
454.0000   0.0068569690   -85.6855606465 
455.0000   0.0066979454   -80.7519679918 
456.0000   0.0067216016   -79.0867877330 
457.0000   0.0067877385   -77.3349803767 
458.0000   0.0067194134   -72.4799409892 
459.0000   0.0068409403   -74.1194505647 
460.0000   0.0068851115   -72.2055152719 
461.0000   0.0068945456   -70.7381568804 
462.0000   0.0069439636   -69.2434688580 
463.0000   0.0069925457   -67.5771279545 
464.0000   0.0070103476   -66.0241057703 
465.0000   0.0070514420   -64.3763507628 
466.0000   0.0071071431   -62.4669301079 
467.0000   0.0071400116   -60.9044911102 
468.0000   0.0071578751   -59.0579886000 
469.0000   0.0071943796   -57.5131511837 
470.0000   0.0072171229   -55.8706068678 
471.0000   0.0072622918   -54.1326044060 
472.0000   0.0073225999   -52.5776239994 
473.0000   0.0073507820   -50.7396788138 
474.0000   0.0073814142   -49.3576096381 
475.0000   0.0074033872   -47.4924185867 
476.0000   0.0074025004   -45.9026035361 
477.0000   0.0074619079   -44.2370721421 
478.0000   0.0075841706   -43.2393455349 
479.0000   0.0075455116   -40.9748790766 
480.0000   0.0075744084   -39.3595687103 
481.0000   0.0075906746   -37.6250787337 
482.0000   0.0076334188   -35.1459708357 
483.0000   0.0076588762   -34.2943682614 
484.0000   0.0076725742   -32.5312780742 
485.0000   0.0077331052   -31.0154962243 
486.0000   0.0077564926   -29.3375105499 
487.0000   0.0077921198   -27.6480768168 
488.0000   0.0078078291   -25.9653661178 
489.0000   0.0078443358   -24.2495084360 
490.0000   0.0078441973   -22.7767515427 
491.0000   0.0079041662   -20.9706815298 
492.0000   0.0079245454   -19.2532483287 
493.0000   0.0079394355   -17.6028893196 
494.0000   0.0080122776   -15.9376116268 
495.0000   0.0079986826   -13.8274000407 
496.0000   0.0080591711   -12.7292308611 
497.0000   0.0080564351   -10.8680466384 
498.0000   0.0080761954   -9.0665735507 
499.0000   0.0080971024   -7.5628590903 
500.0000   0.0081212086   -5.8059966097 
501.0000   0.0081640187   -4.1424720914 
502.0000   0.0083705028   -0.9663903646 
503.0000   0.0082176693   -0.7264337302 
504.0000   0.0082435413   0.9572138434 
505.0000   0.0082703181   2.5438813944 
506.0000   0.0084876220   3.0420130327 
507.0000   0.0083083385   6.0478703975 
508.0000   0.0083359974   7.7913365680 
509.0000   0.0083707282   9.3670489595 
510.0000   0.0083665736   11.0799810807 
511.0000   0.0083938351   12.5041070154 
512.0000   0.0084266439   14.2310256576 
513.0000   0.0084608758   15.8600735476 
514.0000   0.0084853938   17.5094025423 
515.0000   0.0085302109   19.3515374649 
516.0000   0.0085403200   21.0318878430 
517.0000   0.0085678716   22.5227877597 
518.0000   0.0085749115   24.2712271343 
519.0000   0.0086022046   25.9411235684 
520.0000   0.0086484326   27.6083378596 
521.0000   0.0086515867   29.2211871815 
522.0000   0.0086865109   30.9170970725 
523.0000   0.0086992041   32.5873592434 
524.0000   0.0087376371   34.1136017168 
525.0000   0.0087401426   35.7818623388 
526.0000   0.0087414396   36.4674344596 
527.0000   0.0087839582   39.0773919765 
528.0000   0.0088106363   40.7952158395 
529.0000   0.0088416495   42.1031436793 
530.0000   0.0090202025   44.1070857962 
531.0000   0.0089035085   45.7480696751 
532.0000   0.0088671887   47.2224314521 
533.0000   0.0089171834   48.9591839968 
534.0000   0.0089717505   50.5416985974 
535.0000   0.0089797393   52.3080817171 
536.0000   0.0089684749   54.1170865086 
537.0000   0.0089978964   55.6833967040 
538.0000   0.0090198923   57.3485832979 
539.0000   0.0090327819   58.8945850439 
540.0000   0.0090432557   60.4040778507 
541.0000   0.0090738182   62.0497065230 
542.0000   0.0090960319   63.6783877475 
543.0000   0.0091020802   65.4220077227 
544.0000   0.0091536988   67.0850402851 
545.0000   0.0091472149   68.6426877506 
546.0000   0.0091886191   70.4915355703 
547.0000   0.0092004174   71.9241608781 
548.0000   0.0092245924   73.4324330570 
549.0000   0.0092204519   75.3960450998 
550.0000   0.0092246283   77.8055702195 
551.0000   0.0092847642   78.6176292267 
552.0000   0.0092993047   80.1325704502 
553.0000   0.0093212294   81.7276172321 
554.0000   0.0094626984   82.5799367911 
555.0000   0.0093561921   85.1588704563 
556.0000   0.0093628124   86.6828143767 
557.0000   0.0094057357   88.3283728962 
558.0000   0.0094130981   90.1357446710 
559.0000   0.0094281375   91.6835730231 
560.0000   0.0094657127   93.2813756747 
561.0000   0.0094903120   95.0356548495 
562.0000   0.0095193488   96.4565810858 
563.0000   0.0095352593   98.1080372841 
564.0000   0.0095711881   99.7987916751 
565.0000   0.0095686566   101.5910012014 
566.0000   0.0095883992   103.0766651948 
567.0000   0.0096195805   104.9783472558 
568.0000   0.0096242375   106.4251902171 
569.0000   0.0096574458   108.3339805809 
570.0000   0.0096503278   109.6370783388 
571.0000   0.0096972109   111.4881138736 
572.0000   0.0097249533   113.1024866639 
573.0000   0.0097288584   114.6696309453 
574.0000   0.0098297505   116.9648187222 
575.0000   0.0097480794   117.9421650870 
576.0000   0.0098028985   119.4088291366 
577.0000   0.0098048381   121.3416584075 
578.0000   0.0099624586   122.9831369858 
579.0000   0.0098262114   124.4822226261 
580.0000   0.0098741905   125.9361906188 
581.0000   0.0098729330   127.6129573700 
582.0000   0.0098884723   129.3035951101 
583.0000   0.0099280465   131.2085506015 
584.0000   0.0099379194   132.6494287649 
585.0000   0.0099583741   134.3875525996 
586.0000   0.0099471767   136.0739468227 
587.0000   0.0099709704   137.6396460411 
588.0000   0.0099923647   139.3227118913 
589.0000   0.0100155803   140.9842049720 
590.0000   0.0100196939   142.5989378728 
591.0000   0.0100520083   144.3960909730 
592.0000   0.0100649429   146.0481016824 
593.0000   0.0101121829   147.5079760576 
594.0000   0.0101386953   149.0381063453 
595.0000   0.0101377207   150.7731659085 
596.0000   0.0101325117   152.4280484508 
597.0000   0.0101432328   154.0103848804 
598.0000   0.0100516249   155.9076352639 
599.0000   0.0102159151   157.5176724660 
600.0000   0.0102257671   159.2710725551 
601.0000   0.0102299265   160.7127299764 
602.0000   0.0101764990   161.6254256339 
603.0000   0.0102889075   164.0045156398 
604.0000   0.0103160425   165.6397230260 
605.0000   0.0103183656   167.2814112956 
606.0000   0.0103376194   168.9357525857 
607.0000   0.0103411747   170.6195279146 
608.0000   0.0104007285   172.3109799727 
609.0000   0.0103914058   173.8630245474 
610.0000   0.0104214863   175.5140127935 
611.0000   0.0104203774   177.0456170349 
612.0000   0.0104238779   178.7677816556 
613.0000   0.0104534348   -179.5488305994 
614.0000   0.0104436000   -177.8724915725 
615.0000   0.0104716575   -176.3649339031 
