! 140 4400 1
# MHz S MA R 50.0
!freq ReS11 ImS11
140.0000   0.0227210950   -149.0891141188 
141.0000   0.0236666272   -147.2928132649 
142.0000   0.0250633091   -144.0427574720 
143.0000   0.0257367882   -140.9293918586 
144.0000   0.0267803278   -136.3440493504 
145.0000   0.0277871703   -134.1743134172 
146.0000   0.0280949645   -133.9701497385 
147.0000   0.0296275971   -126.4037278889 
148.0000   0.0304820931   -122.5958332173 
149.0000   0.0311784052   -118.0284194129 
150.0000   0.0318440933   -113.1847894522 
151.0000   0.0323745544   -109.1068269588 
152.0000   0.0327849981   -105.3044378832 
153.0000   0.0330527604   -100.0777461434 
154.0000   0.0332705450   -95.4826387162 
155.0000   0.0333757462   -90.8661551274 
156.0000   0.0334271454   -85.4347714749 
157.0000   0.0333697856   -81.3399695626 
158.0000   0.0331983025   -77.0050624005 
159.0000   0.0329066240   -71.9127303073 
160.0000   0.0325446648   -67.6052368844 
161.0000   0.0320750181   -62.2500756602 
162.0000   0.0316080042   -57.2206855307 
163.0000   0.0310424190   -52.6472419798 
164.0000   0.0304791545   -47.9792951661 
165.0000   0.0298985926   -43.1197756036 
166.0000   0.0291567090   -33.9090414078 
167.0000   0.0286354114   -35.0807429998 
168.0000   0.0280348168   -30.0766799715 
169.0000   0.0274572511   -27.7536228023 
170.0000   0.0269951869   -22.4564784971 
171.0000   0.0261928637   -20.8784027353 
172.0000   0.0256057633   -17.8562191240 
173.0000   0.0250308434   -15.1905220575 
174.0000   0.0244442219   -12.6299159675 
175.0000   0.0238907745   -10.0473550624 
176.0000   0.0233636242   -7.7964686878 
177.0000   0.0228299799   -5.2476005403 
178.0000   0.0223537582   -2.8037602677 
179.0000   0.0218326846   -0.3382423623 
180.0000   0.0214210038   1.7149023883 
181.0000   0.0210134000   3.4454546608 
182.0000   0.0205174747   5.3689218090 
183.0000   0.0200851767   7.9120414620 
184.0000   0.0196704822   9.8110016691 
185.0000   0.0192843913   11.9416220847 
186.0000   0.0188927174   13.9513374368 
187.0000   0.0185243885   15.8263097588 
188.0000   0.0181672058   18.2584430107 
189.0000   0.0178101008   19.7988972861 
190.0000   0.0172266710   22.1261762063 
191.0000   0.0172451576   23.3966655384 
192.0000   0.0168004627   24.5891186846 
193.0000   0.0164683194   27.9509359071 
194.0000   0.0157325148   28.3656644565 
195.0000   0.0158930626   31.1793806812 
196.0000   0.0155965767   32.8012725269 
197.0000   0.0153129132   34.6735407231 
198.0000   0.0150397396   36.5472012372 
199.0000   0.0148002458   38.0115951461 
200.0000   0.0145389442   40.1268430831 
201.0000   0.0142747072   41.5573001471 
202.0000   0.0140726524   43.4610822317 
203.0000   0.0139085480   44.2637620069 
204.0000   0.0136627050   45.6731565456 
205.0000   0.0135380409   47.8985787618 
206.0000   0.0132769076   49.6871937530 
207.0000   0.0131616620   50.5968769197 
208.0000   0.0129647680   52.2271006264 
209.0000   0.0128579735   53.5694908026 
210.0000   0.0127495399   54.7790854101 
211.0000   0.0126305938   55.9839426993 
212.0000   0.0125168619   57.1758415203 
213.0000   0.0123909457   58.8038264212 
214.0000   0.0126639873   59.8860001587 
215.0000   0.0122475593   61.6060450254 
216.0000   0.0121277942   63.4339542799 
217.0000   0.0120382786   64.0976580668 
218.0000   0.0120603033   66.1630198605 
219.0000   0.0118653626   66.8647300176 
220.0000   0.0117813851   68.1113400595 
221.0000   0.0117151004   69.7334045182 
222.0000   0.0116058774   71.0020561740 
223.0000   0.0115420911   72.3282836146 
224.0000   0.0114590471   73.8884644312 
225.0000   0.0113874406   75.2577354576 
226.0000   0.0113043324   76.6232561942 
227.0000   0.0112075644   78.1665626577 
228.0000   0.0111890888   79.9463045911 
229.0000   0.0110452419   81.1150929609 
230.0000   0.0109940325   81.8655536203 
231.0000   0.0109163169   83.7532366977 
232.0000   0.0108777308   84.8840685370 
233.0000   0.0107691576   86.3698646186 
234.0000   0.0106719991   87.6638051138 
235.0000   0.0106062837   88.9035793948 
236.0000   0.0105425729   89.7335966211 
237.0000   0.0105002370   91.1916579423 
238.0000   0.0100910280   93.2867160846 
239.0000   0.0103000707   94.2456645776 
240.0000   0.0102830747   94.9725630419 
241.0000   0.0102674446   96.3623741740 
242.0000   0.0099816529   96.1403082136 
243.0000   0.0101168872   98.7380890115 
244.0000   0.0100880069   100.0377936091 
245.0000   0.0100624543   101.2576175674 
246.0000   0.0100021873   102.5032360227 
247.0000   0.0099843064   104.0373345859 
248.0000   0.0099762053   105.4905437807 
249.0000   0.0099485830   106.7101901274 
250.0000   0.0099088590   108.4058651230 
251.0000   0.0099060471   109.7925837248 
252.0000   0.0098665318   111.1692795579 
253.0000   0.0097998197   112.8464256310 
254.0000   0.0098385783   114.4934140399 
255.0000   0.0098098618   115.8657275273 
256.0000   0.0098189845   117.6359582672 
257.0000   0.0098434064   119.1744162786 
258.0000   0.0098209735   120.7229131875 
259.0000   0.0098076363   122.1896367861 
260.0000   0.0097998164   123.5489852303 
261.0000   0.0097713822   125.3405624730 
262.0000   0.0096458848   128.7551812125 
263.0000   0.0097805099   128.2147791014 
264.0000   0.0097969875   129.7662455315 
265.0000   0.0097674161   131.5746599750 
266.0000   0.0100782682   134.0427948671 
267.0000   0.0097838400   134.2702264651 
268.0000   0.0097748692   135.8100560147 
269.0000   0.0097542524   137.2278529476 
270.0000   0.0097629319   138.5429175668 
271.0000   0.0097436614   140.3616469449 
272.0000   0.0097390785   141.6358938726 
273.0000   0.0097324722   143.0354557266 
274.0000   0.0097347452   144.7116251383 
275.0000   0.0097260285   146.1405355142 
276.0000   0.0097173041   147.4082045909 
277.0000   0.0097398088   149.2027026908 
278.0000   0.0096760986   150.7196320958 
279.0000   0.0097090126   152.0909347959 
280.0000   0.0097128013   153.5693424697 
281.0000   0.0097017028   155.0150960113 
282.0000   0.0097141575   156.3807559989 
283.0000   0.0097051365   157.7666453164 
284.0000   0.0097033256   159.3210829977 
285.0000   0.0097094757   160.8012052415 
286.0000   0.0097946995   164.3301226096 
287.0000   0.0097440802   163.7959506732 
288.0000   0.0097202928   165.3636144576 
289.0000   0.0097042144   166.7833733154 
290.0000   0.0099125846   167.5244251777 
291.0000   0.0097717302   169.6680872971 
292.0000   0.0098025671   171.4296218204 
293.0000   0.0097791986   172.8584781907 
294.0000   0.0098031794   174.1750670042 
295.0000   0.0098056399   175.8277114829 
296.0000   0.0097993705   177.3671815026 
297.0000   0.0098271520   178.8542819736 
298.0000   0.0098668913   -179.3542999102 
299.0000   0.0098846875   -177.7743624245 
300.0000   0.0099240722   -176.6068994106 
301.0000   0.0098981231   -174.8941013738 
302.0000   0.0099438932   -173.4834525483 
303.0000   0.0099503327   -171.8441635696 
304.0000   0.0099423272   -170.1927087952 
305.0000   0.0100170237   -168.7994280265 
306.0000   0.0100805959   -167.5170652881 
307.0000   0.0100544841   -165.8701265867 
308.0000   0.0100899059   -164.2104425035 
309.0000   0.0101277922   -162.8738306205 
310.0000   0.0103186958   -166.4274230051 
311.0000   0.0102217050   -160.0232017195 
312.0000   0.0102238525   -158.3778802261 
313.0000   0.0103030979   -157.1072760137 
314.0000   0.0095556066   -154.3615740441 
315.0000   0.0103842749   -154.2821989330 
316.0000   0.0104622260   -152.7615000566 
317.0000   0.0104560086   -151.3527745321 
318.0000   0.0105256654   -150.0106734406 
319.0000   0.0105678631   -148.5873512843 
320.0000   0.0105939685   -147.3147303398 
321.0000   0.0106492196   -145.8663701422 
322.0000   0.0107096450   -144.3811104520 
323.0000   0.0107875004   -143.2112715988 
324.0000   0.0107958180   -141.7824496938 
325.0000   0.0108932005   -140.2766999328 
326.0000   0.0109787778   -139.0312492176 
327.0000   0.0110645840   -137.5416644518 
328.0000   0.0110931616   -136.3185304146 
329.0000   0.0111947066   -134.8675531147 
330.0000   0.0112474739   -133.3089509814 
331.0000   0.0113386287   -131.9588936729 
332.0000   0.0114548830   -130.4862415458 
333.0000   0.0115159427   -129.3161340224 
334.0000   0.0120166488   -124.5542969364 
335.0000   0.0116802045   -126.5578752927 
336.0000   0.0117603234   -125.1323228433 
337.0000   0.0118901903   -123.8011914383 
338.0000   0.0126923706   -121.7376192144 
339.0000   0.0120554129   -121.1576113043 
340.0000   0.0121434966   -119.4975979424 
341.0000   0.0122826670   -118.3905006889 
342.0000   0.0123918846   -116.9881807948 
343.0000   0.0124977815   -115.5219885323 
344.0000   0.0126473848   -114.2026747483 
345.0000   0.0127319147   -112.8800578402 
346.0000   0.0128499663   -111.6263779906 
347.0000   0.0129799465   -110.1057845781 
348.0000   0.0130897687   -108.6615078064 
349.0000   0.0132193492   -107.4288792794 
350.0000   0.0133569174   -106.1394073848 
351.0000   0.0134672123   -104.7858035758 
352.0000   0.0135875014   -103.5476254817 
353.0000   0.0137464276   -101.9636733215 
354.0000   0.0138960538   -100.6857556794 
355.0000   0.0140604051   -99.2701262757 
356.0000   0.0142195781   -97.9903312592 
357.0000   0.0143739886   -96.4909785017 
358.0000   0.0134436689   -96.1741567195 
359.0000   0.0147006088   -93.8348135302 
360.0000   0.0149015415   -92.5475469577 
361.0000   0.0150416194   -91.1640899481 
362.0000   0.0149074044   -85.9208836308 
363.0000   0.0154563460   -88.4490437573 
364.0000   0.0156435886   -86.8879598542 
365.0000   0.0158578029   -85.5564242383 
366.0000   0.0160738087   -84.2324767233 
367.0000   0.0162619026   -82.8893699142 
368.0000   0.0164426119   -81.2739215094 
369.0000   0.0166641556   -80.1274715271 
370.0000   0.0168623478   -78.6632707274 
371.0000   0.0171046143   -77.1926625668 
372.0000   0.0173927526   -76.0613883824 
373.0000   0.0176066104   -74.5481452902 
374.0000   0.0178585543   -73.0885265373 
375.0000   0.0181091639   -71.7546427437 
376.0000   0.0183949800   -70.2411157752 
377.0000   0.0185918233   -68.9749362886 
378.0000   0.0188688652   -67.5002710022 
379.0000   0.0191850067   -66.2189644824 
380.0000   0.0194674521   -64.6907382448 
381.0000   0.0197292873   -63.2482772784 
382.0000   0.0201270240   -63.9841689425 
383.0000   0.0203052311   -60.3800323860 
384.0000   0.0206034881   -59.0669118593 
385.0000   0.0209376920   -57.6070426577 
386.0000   0.0205547939   -55.0029944203 
387.0000   0.0215969718   -54.8748271907 
388.0000   0.0219207301   -53.4385050347 
389.0000   0.0222801234   -52.0730996115 
390.0000   0.0226530682   -50.4937848017 
391.0000   0.0230166799   -49.0939232181 
392.0000   0.0234041158   -47.6542023699 
393.0000   0.0237702183   -46.2731822217 
394.0000   0.0242101183   -44.8465402166 
395.0000   0.0245931049   -43.3047106978 
396.0000   0.0250673591   -41.9288575436 
397.0000   0.0254887397   -40.4592089689 
398.0000   0.0259416460   -38.9171208513 
399.0000   0.0264303729   -37.5353183742 
400.0000   0.0269542866   -36.0684297294 
401.0000   0.0274445115   -34.5123679640 
402.0000   0.0279867448   -33.0413354833 
403.0000   0.0285326365   -31.4350341578 
404.0000   0.0291156231   -29.8779796205 
405.0000   0.0296990635   -28.3715969039 
406.0000   0.0312560708   -26.2280846324 
407.0000   0.0309341449   -25.1282282124 
408.0000   0.0315444327   -23.6885625685 
409.0000   0.0322426225   -21.9411422036 
410.0000   0.0338376354   -21.3491315646 
411.0000   0.0336369959   -18.7712600003 
412.0000   0.0343646982   -17.0787294770 
413.0000   0.0351556574   -15.4628213923 
414.0000   0.0359780840   -13.8327764410 
415.0000   0.0368006444   -12.1682462117 
416.0000   0.0375877238   -10.4214115073 
417.0000   0.0384866417   -8.6317500888 
418.0000   0.0393649592   -6.8498605754 
419.0000   0.0403325353   -5.1293511456 
420.0000   0.0413282084   -3.2208263815 
421.0000   0.0424029238   -1.4839872478 
422.0000   0.0434819996   0.4157063032 
423.0000   0.0445912550   2.3114168890 
424.0000   0.0458142843   4.1916203309 
425.0000   0.0469503937   6.2251703648 
426.0000   0.0482627303   8.2111269000 
427.0000   0.0496010670   10.2295824153 
428.0000   0.0510206800   12.3064071011 
429.0000   0.0524590799   14.3982326960 
430.0000   0.0534514503   16.9369089510 
431.0000   0.0555635449   18.8199439694 
432.0000   0.0571554363   21.0938252985 
433.0000   0.0588827240   23.4173061889 
434.0000   0.0603613619   25.2729768563 
435.0000   0.0624205201   28.1969785213 
436.0000   0.0643380983   30.7828542436 
437.0000   0.0662716907   33.2047301455 
438.0000   0.0683728000   35.9343488289 
439.0000   0.0704463010   38.6329127785 
440.0000   0.0725785037   41.4911835276 
441.0000   0.0747916531   44.3171747249 
442.0000   0.0771330008   47.3402279869 
443.0000   0.0793433404   50.4334629305 
444.0000   0.0816315267   53.5913901204 
445.0000   0.0839876734   56.9122285211 
446.0000   0.0862136646   60.2660127646 
447.0000   0.0885582230   63.7556445689 
448.0000   0.0907398207   67.3863332215 
449.0000   0.0928515098   71.0676599981 
450.0000   0.0948523692   74.8321473711 
451.0000   0.0967167730   78.7214031789 
452.0000   0.0983908559   82.7278207275 
453.0000   0.0998736887   86.7988411912 
454.0000   0.1008691915   90.6896487133 
455.0000   0.1021296966   95.0364582552 
456.0000   0.1028038484   99.2108532599 
457.0000   0.1032296999   103.5380419559 
458.0000   0.1030320423   107.6028278839 
459.0000   0.1031779067   111.9642545788 
460.0000   0.1027526538   116.1497376625 
461.0000   0.1020873296   120.2356408930 
462.0000   0.1012083098   124.3170671092 
463.0000   0.1001271992   128.3348065062 
464.0000   0.0988090418   132.1996181221 
465.0000   0.0973783991   136.0081438516 
466.0000   0.0957801290   139.7244966511 
467.0000   0.0940467150   143.3453234105 
468.0000   0.0922479469   146.7863303118 
469.0000   0.0903632293   150.2118532439 
470.0000   0.0885075193   153.4968328359 
471.0000   0.0866292556   156.6792715070 
472.0000   0.0846680121   159.8082758029 
473.0000   0.0827528543   162.7662132209 
474.0000   0.0808764083   165.6521158117 
475.0000   0.0790342785   168.4698106006 
476.0000   0.0772000302   171.2563213394 
477.0000   0.0754392448   173.8875741615 
478.0000   0.0733887522   176.3428945092 
479.0000   0.0720103799   178.9878303123 
480.0000   0.0703579326   -178.5923458789 
481.0000   0.0688284050   -176.2217018371 
482.0000   0.0670062683   -173.5937058123 
483.0000   0.0657906841   -171.6166160284 
484.0000   0.0644428779   -169.3726806920 
485.0000   0.0629916924   -167.2376301019 
486.0000   0.0617143304   -165.1242982190 
487.0000   0.0604262679   -163.0577858778 
488.0000   0.0591854491   -160.9588438043 
489.0000   0.0580500773   -159.0366068570 
490.0000   0.0569605002   -157.0605985632 
491.0000   0.0558967853   -155.1113533697 
492.0000   0.0548059746   -153.1468713982 
493.0000   0.0538206490   -151.3242477079 
494.0000   0.0527602297   -149.4691114981 
495.0000   0.0518387193   -147.6838946974 
496.0000   0.0509328773   -145.8855860371 
497.0000   0.0501050425   -144.1012416125 
498.0000   0.0492749122   -142.3276540064 
499.0000   0.0484234765   -140.6359738967 
500.0000   0.0476044738   -138.9724206258 
501.0000   0.0469094974   -137.2145795645 
502.0000   0.0460944649   -135.6472129563 
503.0000   0.0454662659   -133.9894456523 
504.0000   0.0447828390   -132.2670209872 
505.0000   0.0441514499   -130.5951299529 
506.0000   0.0434483863   -129.2785234268 
507.0000   0.0428757888   -127.4911107956 
508.0000   0.0423317416   -125.9366831501 
509.0000   0.0417328022   -124.3190751619 
510.0000   0.0412166550   -122.7602850145 
511.0000   0.0406503037   -121.2182476153 
512.0000   0.0401125435   -119.7104301608 
513.0000   0.0396647360   -118.1731472940 
514.0000   0.0391673398   -116.6478397604 
515.0000   0.0386555402   -115.1220839495 
516.0000   0.0382613454   -113.6518956500 
517.0000   0.0377336281   -112.1391719156 
518.0000   0.0373125095   -110.6602456241 
519.0000   0.0368653547   -109.2022175705 
520.0000   0.0364588560   -107.7687678914 
521.0000   0.0360675898   -106.1689875741 
522.0000   0.0357063154   -104.8161107541 
523.0000   0.0353164890   -103.2495217320 
524.0000   0.0349219067   -101.8197990741 
525.0000   0.0345849443   -100.4149107181 
526.0000   0.0344788810   -99.1105673116 
527.0000   0.0338929428   -97.4928394685 
528.0000   0.0335478052   -96.0340403766 
529.0000   0.0332084277   -94.6466595872 
530.0000   0.0329785190   -92.6737980638 
531.0000   0.0326085652   -91.7773296120 
532.0000   0.0322867072   -90.2659290423 
533.0000   0.0320025580   -88.8678919970 
534.0000   0.0317119988   -87.5006274249 
535.0000   0.0314902819   -85.9962236291 
536.0000   0.0311869953   -84.6342692997 
537.0000   0.0309869885   -83.2337717554 
538.0000   0.0307149649   -81.7818951008 
539.0000   0.0304660341   -80.4040322232 
540.0000   0.0302593145   -78.9729280611 
541.0000   0.0300365885   -77.5369196250 
542.0000   0.0298510358   -76.2442886250 
543.0000   0.0296430725   -74.8376039885 
544.0000   0.0294403778   -73.4428456225 
545.0000   0.0292598559   -72.0515969146 
546.0000   0.0290408153   -70.5015988929 
547.0000   0.0288685426   -69.2234390538 
548.0000   0.0287459079   -67.7170586468 
549.0000   0.0285410419   -66.4504939193 
550.0000   0.0283465807   -65.0806432755 
551.0000   0.0281979792   -63.7123945083 
552.0000   0.0280704056   -62.3322470895 
553.0000   0.0279976101   -60.8455728151 
554.0000   0.0279182591   -59.4027081759 
555.0000   0.0276804195   -57.9594082408 
556.0000   0.0275825416   -56.6190481231 
557.0000   0.0275116319   -55.2945647364 
558.0000   0.0273558059   -53.9267626593 
559.0000   0.0272740204   -52.3563511250 
560.0000   0.0271458087   -51.1560084001 
561.0000   0.0270802544   -49.5634204156 
562.0000   0.0269872128   -48.2762672498 
563.0000   0.0269103386   -46.8914687917 
564.0000   0.0268315393   -45.5942162691 
565.0000   0.0267210314   -44.0951328455 
566.0000   0.0266268464   -42.6983767441 
567.0000   0.0265581450   -41.2070765258 
568.0000   0.0265068361   -39.8768903259 
569.0000   0.0264738094   -38.4717803846 
570.0000   0.0264576378   -37.0892236370 
571.0000   0.0263727465   -35.5034628059 
572.0000   0.0262819066   -34.2159626879 
573.0000   0.0262873486   -32.7427626595 
574.0000   0.0261605643   -31.7497242361 
575.0000   0.0262445710   -29.8642825496 
576.0000   0.0262499611   -28.5490766481 
577.0000   0.0261984954   -27.0487395827 
578.0000   0.0260570474   -25.3557228640 
579.0000   0.0261563826   -24.2361690306 
580.0000   0.0261502481   -22.8072030170 
581.0000   0.0261510388   -21.4601154584 
582.0000   0.0261454855   -20.0199835265 
583.0000   0.0261145010   -18.5939961696 
584.0000   0.0260595248   -17.1855338678 
585.0000   0.0260825563   -15.7908488801 
586.0000   0.0260963884   -14.3191257676 
587.0000   0.0260860069   -12.9093070111 
588.0000   0.0260661123   -11.5080541703 
589.0000   0.0261332896   -9.9486098657 
590.0000   0.0261274585   -8.5171895336 
591.0000   0.0261582981   -7.0643319708 
592.0000   0.0261962506   -5.7337214477 
593.0000   0.0262197125   -4.2705295096 
594.0000   0.0262428123   -2.7817861900 
595.0000   0.0262469708   -1.2603203382 
596.0000   0.0263208757   0.1966399001 
597.0000   0.0263433762   1.6820894462 
598.0000   0.0263523388   3.1171732306 
599.0000   0.0264404352   4.5666429456 
600.0000   0.0264802146   5.9954264836 
601.0000   0.0265356326   7.4377313153 
602.0000   0.0265489994   8.8091692713 
603.0000   0.0266408416   10.3966961032 
604.0000   0.0266994994   11.8733903907 
605.0000   0.0267477954   13.4631552603 
606.0000   0.0267963200   14.8597100975 
607.0000   0.0268891368   16.3599228982 
608.0000   0.0269705556   17.8902981401 
609.0000   0.0270180905   19.2823177625 
610.0000   0.0271256632   20.8008051345 
611.0000   0.0271816370   22.2935436149 
612.0000   0.0272740763   23.7657475470 
613.0000   0.0273513050   25.2882148586 
614.0000   0.0274637720   26.8572587852 
