# MHz S MA R 50.0
140.0000   0.02063560   109.5967 
141.0000   0.02063770   110.4496 
142.0000   0.00636036   88.3781 
143.0000   0.01593593   110.4193 
144.0000   0.02170620   111.2004 
145.0000   0.02267093   100.5143 
146.0000   0.02002497   144.1648 
147.0000   0.02176839   114.9912 
148.0000   0.02222536   113.6915 
149.0000   0.02191677   116.9767 
150.0000   0.02182686   118.0735 
151.0000   0.02207467   118.9422 
152.0000   0.02213060   119.7649 
153.0000   0.02208545   121.1676 
154.0000   0.02201039   121.6529 
155.0000   0.02152163   115.5780 
156.0000   0.02235593   125.6325 
157.0000   0.02434002   129.6797 
158.0000   0.02215911   126.7022 
159.0000   0.02189962   128.6402 
160.0000   0.02184361   129.9976 
161.0000   0.02182113   131.7743 
162.0000   0.02188109   133.6170 
163.0000   0.02180501   135.2784 
164.0000   0.02176804   137.1609 
165.0000   0.02171362   138.8781 
166.0000   0.01705792   119.9645 
167.0000   0.02023997   138.2066 
168.0000   0.02136876   141.9770 
169.0000   0.02065426   138.0062 
170.0000   0.01685321   133.7737 
171.0000   0.02155272   145.9344 
172.0000   0.02130126   146.0905 
173.0000   0.02148301   147.2166 
174.0000   0.02143553   148.3880 
175.0000   0.02147749   148.6397 
176.0000   0.02142762   149.3441 
177.0000   0.02150084   150.2515 
178.0000   0.02142460   150.7442 
179.0000   0.01997306   150.0444 
180.0000   0.02111851   152.3411 
181.0000   0.02042023   155.8608 
182.0000   0.02147307   153.4051 
183.0000   0.02132301   154.4851 
184.0000   0.02104175   155.7122 
185.0000   0.02136493   156.0560 
186.0000   0.02111637   156.8189 
187.0000   0.02118862   157.7605 
188.0000   0.02122278   158.1991 
189.0000   0.02112464   159.4132 
190.0000   0.02321554   151.3829 
191.0000   0.01999885   163.4340 
192.0000   0.02082862   163.7211 
193.0000   0.02097861   159.5918 
194.0000   0.02332532   154.7339 
195.0000   0.02077383   164.1190 
196.0000   0.02073480   164.9283 
197.0000   0.02059352   165.9690 
198.0000   0.02048723   166.7718 
199.0000   0.02047126   167.6681 
200.0000   0.02034619   168.4254 
201.0000   0.02027579   169.2120 
202.0000   0.02008912   170.3261 
203.0000   0.01942823   170.4686 
204.0000   0.02005832   172.2286 
205.0000   0.02054263   172.3341 
206.0000   0.02011129   171.9131 
207.0000   0.02002733   173.0665 
208.0000   0.01997473   173.9933 
209.0000   0.01995016   174.2678 
210.0000   0.02016909   174.8840 
211.0000   0.02009550   175.6015 
212.0000   0.02005634   175.9934 
213.0000   0.02022623   176.8914 
214.0000   0.01745884   165.8072 
215.0000   0.02065166   177.5909 
216.0000   0.02050614   179.1011 
217.0000   0.02038619   -179.6231 
218.0000   0.02368017   170.8757 
219.0000   0.02054397   -179.1129 
220.0000   0.02066905   -178.1507 
221.0000   0.02054253   -177.7334 
222.0000   0.02050573   -177.0893 
223.0000   0.02063593   -176.2861 
224.0000   0.02069270   -175.5075 
225.0000   0.02068869   -174.6302 
226.0000   0.02073063   -173.9276 
227.0000   0.02079368   -173.2880 
228.0000   0.02067841   -172.2095 
229.0000   0.02077039   -171.7781 
230.0000   0.02083158   -171.1665 
231.0000   0.02073327   -170.1564 
232.0000   0.02081818   -169.4488 
233.0000   0.02072449   -168.5731 
234.0000   0.02072468   -167.9218 
235.0000   0.02080501   -167.3711 
236.0000   0.02077161   -166.7120 
237.0000   0.02067180   -165.8694 
238.0000   0.02412103   -170.3651 
239.0000   0.02079015   -164.3684 
240.0000   0.02069342   -164.0349 
241.0000   0.02086379   -163.0223 
242.0000   0.02080519   -173.3116 
243.0000   0.02082309   -161.5823 
244.0000   0.02082931   -161.0410 
245.0000   0.02088517   -160.1707 
246.0000   0.02098164   -159.1897 
247.0000   0.02095248   -158.3827 
248.0000   0.02097942   -157.6382 
249.0000   0.02108054   -156.5379 
250.0000   0.02119523   -155.5842 
251.0000   0.02116012   -154.7395 
252.0000   0.02114907   -153.6473 
253.0000   0.02113912   -152.9356 
254.0000   0.02125406   -152.0706 
255.0000   0.02124934   -150.9318 
256.0000   0.02125592   -150.0260 
257.0000   0.02141467   -149.0531 
258.0000   0.02135646   -147.9977 
259.0000   0.02135725   -146.8868 
260.0000   0.02142618   -145.9836 
261.0000   0.02150618   -145.0447 
262.0000   0.02004890   -150.6721 
263.0000   0.02160047   -143.4787 
264.0000   0.02152309   -141.8364 
265.0000   0.02157166   -141.3298 
266.0000   0.02272992   -146.8316 
267.0000   0.02160819   -139.5157 
268.0000   0.02169677   -138.4831 
269.0000   0.02167206   -137.6738 
270.0000   0.02166791   -136.6334 
271.0000   0.02166775   -135.8775 
272.0000   0.02167059   -134.5887 
273.0000   0.02171132   -133.9210 
274.0000   0.02168246   -132.9328 
275.0000   0.02167429   -131.8677 
276.0000   0.02178610   -131.3235 
277.0000   0.02173652   -130.2642 
278.0000   0.02172201   -129.3401 
279.0000   0.02159238   -127.9340 
280.0000   0.02176287   -127.6157 
281.0000   0.02178255   -126.7685 
282.0000   0.02170671   -125.5073 
283.0000   0.02173656   -124.9049 
284.0000   0.02177468   -123.7854 
285.0000   0.02178911   -122.8581 
286.0000   0.02088965   -125.7910 
287.0000   0.02184815   -120.7507 
288.0000   0.02186094   -120.5923 
289.0000   0.02190978   -119.4980 
290.0000   0.02275459   -114.4676 
291.0000   0.02188238   -117.3034 
292.0000   0.02186742   -116.4197 
293.0000   0.02193394   -115.5904 
294.0000   0.02190029   -114.5639 
295.0000   0.02188967   -113.6755 
296.0000   0.02187700   -112.6488 
297.0000   0.02189513   -111.7646 
298.0000   0.02192801   -110.8699 
299.0000   0.02176239   -109.5306 
300.0000   0.02192088   -108.7030 
301.0000   0.02202342   -107.9113 
302.0000   0.02193857   -106.8410 
303.0000   0.02192711   -105.7990 
304.0000   0.02187184   -104.9108 
305.0000   0.02192534   -104.1735 
306.0000   0.02192130   -103.0647 
307.0000   0.02198185   -102.1558 
308.0000   0.02194112   -101.0907 
309.0000   0.02197246   -100.3282 
310.0000   0.02075861   -99.6712 
311.0000   0.02193998   -98.3414 
312.0000   0.02201318   -97.4454 
313.0000   0.02200472   -96.5051 
314.0000   0.02249695   -92.9815 
315.0000   0.02196513   -94.9373 
316.0000   0.02196145   -94.0502 
317.0000   0.02194277   -93.1856 
318.0000   0.02202467   -92.2152 
319.0000   0.02194957   -91.4156 
320.0000   0.02199420   -90.6445 
321.0000   0.02195193   -89.7291 
322.0000   0.02199973   -88.8254 
323.0000   0.02194015   -88.0974 
324.0000   0.02197180   -87.1145 
325.0000   0.02198902   -86.2108 
326.0000   0.02205045   -85.4143 
327.0000   0.02199019   -84.5720 
328.0000   0.02201825   -83.7757 
329.0000   0.02205132   -82.8010 
330.0000   0.02202071   -82.0120 
331.0000   0.02192531   -81.3403 
332.0000   0.02203395   -80.1366 
333.0000   0.02205496   -79.4199 
334.0000   0.02226026   -80.6720 
335.0000   0.02207521   -77.8005 
336.0000   0.02206341   -76.8561 
337.0000   0.02201332   -76.1695 
338.0000   0.02247296   -77.3229 
339.0000   0.02210495   -74.2317 
340.0000   0.02151058   -73.7806 
341.0000   0.02213251   -72.7105 
342.0000   0.02206634   -71.8145 
343.0000   0.02205262   -71.1504 
344.0000   0.02204304   -70.0194 
345.0000   0.02209812   -69.2729 
346.0000   0.02211928   -68.5140 
347.0000   0.02197694   -67.7027 
348.0000   0.02206198   -66.8114 
349.0000   0.02213394   -66.0750 
350.0000   0.02220755   -65.7350 
351.0000   0.02205855   -64.2571 
352.0000   0.02207459   -63.6816 
353.0000   0.02206711   -62.6881 
354.0000   0.02203279   -61.8695 
355.0000   0.02207273   -60.9255 
356.0000   0.02204344   -60.0754 
357.0000   0.02208359   -59.4159 
358.0000   0.02240522   -60.3073 
359.0000   0.02195218   -57.6418 
360.0000   0.02205800   -56.7625 
361.0000   0.02202755   -55.6849 
362.0000   0.02125177   -54.4782 
363.0000   0.02199207   -54.1889 
364.0000   0.02205371   -53.6504 
365.0000   0.02209328   -52.4883 
366.0000   0.02209837   -51.7090 
367.0000   0.02209070   -50.7680 
368.0000   0.02201446   -50.0215 
369.0000   0.02204289   -48.9464 
370.0000   0.02207411   -48.3273 
371.0000   0.02206137   -47.5979 
372.0000   0.02208312   -46.6720 
373.0000   0.02203994   -45.9564 
374.0000   0.02206890   -45.1202 
375.0000   0.02204396   -44.1245 
376.0000   0.02207934   -43.3197 
377.0000   0.02203565   -42.6881 
378.0000   0.02207475   -41.7906 
379.0000   0.02211473   -41.0377 
380.0000   0.02204336   -40.1628 
381.0000   0.02203387   -39.2991 
382.0000   0.02241718   -40.4513 
383.0000   0.02212484   -37.8143 
384.0000   0.02206659   -36.6083 
385.0000   0.02206846   -36.0482 
386.0000   0.02189655   -37.6426 
387.0000   0.02211736   -34.4712 
388.0000   0.02208837   -33.4367 
389.0000   0.02205299   -32.6035 
390.0000   0.02205604   -31.7226 
391.0000   0.02207694   -30.8871 
392.0000   0.02211256   -30.2249 
393.0000   0.02207523   -29.3289 
394.0000   0.02212456   -28.6010 
395.0000   0.02206022   -27.7767 
396.0000   0.02213380   -26.7800 
397.0000   0.02210058   -26.0395 
398.0000   0.02214222   -25.1190 
399.0000   0.02211902   -24.4617 
400.0000   0.02208669   -23.6055 
401.0000   0.02214026   -22.6661 
402.0000   0.02212736   -21.8862 
403.0000   0.02215024   -20.8938 
404.0000   0.02213335   -20.1457 
405.0000   0.02211893   -19.3793 
406.0000   0.02295374   -18.3437 
407.0000   0.02211170   -17.7163 
408.0000   0.02212030   -16.8360 
409.0000   0.02207423   -15.9687 
410.0000   0.02247887   -12.7556 
411.0000   0.02207941   -14.2872 
412.0000   0.02209430   -13.4129 
413.0000   0.02206981   -12.5743 
414.0000   0.02211196   -11.6204 
415.0000   0.02210313   -10.7065 
416.0000   0.02215912   -9.9296 
417.0000   0.02211841   -9.0523 
418.0000   0.02213660   -8.0305 
419.0000   0.02209866   -7.2802 
420.0000   0.02212305   -6.5723 
421.0000   0.02212990   -5.6805 
422.0000   0.02213377   -4.6845 
423.0000   0.02211159   -3.8806 
424.0000   0.02206164   -2.9637 
425.0000   0.02211767   -2.1335 
426.0000   0.02214173   -1.1346 
427.0000   0.02206756   -0.4014 
428.0000   0.02208726   0.2557 
429.0000   0.02211186   1.2593 
430.0000   0.02173079   0.1016 
431.0000   0.02207944   3.0325 
432.0000   0.02209783   3.8103 
433.0000   0.02208381   4.5963 
434.0000   0.02250912   7.4204 
435.0000   0.02203054   6.3098 
436.0000   0.02204332   7.1863 
437.0000   0.02204190   7.9720 
438.0000   0.02204845   8.8680 
439.0000   0.02199408   9.6419 
440.0000   0.02202021   10.4729 
441.0000   0.02201866   11.2880 
442.0000   0.02198333   11.9953 
443.0000   0.02199018   12.9674 
444.0000   0.02194894   13.7208 
445.0000   0.02194359   14.5943 
446.0000   0.02195063   15.2882 
447.0000   0.02189692   16.2919 
448.0000   0.02189517   17.0672 
449.0000   0.02191075   17.8962 
450.0000   0.02186748   18.6337 
451.0000   0.02188442   19.4532 
452.0000   0.02189729   20.1538 
453.0000   0.02186684   21.0174 
454.0000   0.02098022   22.0209 
455.0000   0.02193892   22.5979 
456.0000   0.02184720   23.6265 
457.0000   0.02176625   24.3514 
458.0000   0.02141279   23.4205 
459.0000   0.02183329   26.3328 
460.0000   0.02178096   26.6942 
461.0000   0.02181840   27.5216 
462.0000   0.02182367   28.2815 
463.0000   0.02179876   29.1370 
464.0000   0.02182410   30.0516 
465.0000   0.02183522   30.6934 
466.0000   0.02183222   31.4483 
467.0000   0.02184094   32.5663 
468.0000   0.02181333   33.2204 
469.0000   0.02177250   33.9883 
470.0000   0.02179335   34.8663 
471.0000   0.02175190   35.7933 
472.0000   0.02176650   36.4842 
473.0000   0.02177328   37.3265 
474.0000   0.02174460   38.1225 
475.0000   0.02179501   39.0361 
476.0000   0.02175006   39.6715 
477.0000   0.02176782   40.7214 
478.0000   0.02248412   40.4003 
479.0000   0.02182827   42.4181 
480.0000   0.02176467   43.1738 
481.0000   0.02174724   43.9727 
482.0000   0.02238279   46.0008 
483.0000   0.02170375   45.7356 
484.0000   0.02174491   46.4517 
485.0000   0.02180472   47.3395 
486.0000   0.02176824   48.1674 
487.0000   0.02172843   48.9547 
488.0000   0.02166727   49.9863 
489.0000   0.02172800   50.6983 
490.0000   0.02173559   51.6563 
491.0000   0.02173421   52.2564 
492.0000   0.02173255   53.3440 
493.0000   0.02170578   53.9423 
494.0000   0.02172581   54.8787 
495.0000   0.02169646   55.8205 
496.0000   0.02209565   56.1981 
497.0000   0.02166217   57.4911 
498.0000   0.02162624   58.2776 
499.0000   0.02169423   59.1103 
500.0000   0.02167740   60.0909 
501.0000   0.02161307   61.0128 
502.0000   0.02181934   63.4534 
503.0000   0.02160512   62.5265 
504.0000   0.02157780   63.3096 
505.0000   0.02159787   64.3737 
506.0000   0.02213103   64.2298 
507.0000   0.02152421   65.8625 
508.0000   0.02155411   66.7208 
509.0000   0.02155965   67.4900 
510.0000   0.02151882   68.2985 
511.0000   0.02148157   69.1362 
512.0000   0.02148700   70.0508 
513.0000   0.02149405   70.7911 
514.0000   0.02145709   71.6080 
515.0000   0.02149775   72.4830 
516.0000   0.02137751   73.1103 
517.0000   0.02141313   74.2419 
518.0000   0.02138202   74.8568 
519.0000   0.02138264   75.7796 
520.0000   0.02144188   76.5590 
521.0000   0.02144358   77.4836 
522.0000   0.02145968   78.2339 
523.0000   0.02135247   78.9592 
524.0000   0.02140441   79.8189 
525.0000   0.02139405   80.7519 
526.0000   0.02181912   82.3327 
527.0000   0.02139955   82.3760 
528.0000   0.02136380   83.1760 
529.0000   0.02138868   84.0330 
530.0000   0.02142793   83.6553 
531.0000   0.02135716   85.8299 
532.0000   0.02130364   86.5269 
533.0000   0.02137341   87.4307 
534.0000   0.02131857   88.2852 
535.0000   0.02130875   88.9107 
536.0000   0.02131028   89.8341 
537.0000   0.02133371   90.8362 
538.0000   0.02132808   91.4236 
539.0000   0.02130647   92.4074 
540.0000   0.02130419   93.0940 
541.0000   0.02129636   94.0591 
542.0000   0.02129295   95.0564 
543.0000   0.02129893   95.7001 
544.0000   0.02126752   96.4042 
545.0000   0.02127601   97.3964 
546.0000   0.02127712   98.3251 
547.0000   0.02122393   98.9514 
548.0000   0.02124118   99.8459 
549.0000   0.02119876   100.7760 
550.0000   0.02069341   101.5671 
551.0000   0.02121420   102.2187 
552.0000   0.02119523   103.1248 
553.0000   0.02120790   103.9603 
554.0000   0.02162137   104.5890 
555.0000   0.02116231   105.6480 
556.0000   0.02117823   106.6072 
557.0000   0.02117185   107.4269 
558.0000   0.02124463   108.1770 
559.0000   0.02121385   108.8814 
560.0000   0.02118480   109.7509 
561.0000   0.02116227   110.6962 
562.0000   0.02113831   111.4292 
563.0000   0.02110830   112.2571 
564.0000   0.02116410   113.1313 
565.0000   0.02118307   113.9861 
566.0000   0.02118894   114.8957 
567.0000   0.02113936   115.8149 
568.0000   0.02112036   116.5165 
569.0000   0.02114068   117.3751 
570.0000   0.02112258   118.2592 
571.0000   0.02112264   119.0258 
572.0000   0.02115441   119.9521 
573.0000   0.02111788   120.6259 
574.0000   0.02109472   122.6675 
575.0000   0.02113188   122.4901 
576.0000   0.02111858   123.0542 
577.0000   0.02113912   124.0335 
578.0000   0.02146695   124.6485 
579.0000   0.02110931   125.8059 
580.0000   0.02109132   126.5071 
581.0000   0.02107261   127.5318 
582.0000   0.02110662   128.1130 
583.0000   0.02107826   128.9542 
584.0000   0.02105030   129.9230 
585.0000   0.02103181   130.7600 
586.0000   0.02104665   131.7213 
587.0000   0.02101477   132.4797 
588.0000   0.02103896   133.2081 
589.0000   0.02102186   134.0073 
590.0000   0.02100564   134.9512 
591.0000   0.02097722   135.7103 
592.0000   0.02094920   136.5804 
593.0000   0.02097038   137.4815 
594.0000   0.02097753   138.4277 
595.0000   0.02096981   139.2064 
596.0000   0.02093094   140.2510 
597.0000   0.02093815   140.8785 
598.0000   0.02105258   142.4225 
599.0000   0.02084693   142.5818 
600.0000   0.02092059   143.4468 
601.0000   0.02084986   144.2479 
602.0000   0.02083207   144.3069 
603.0000   0.02081841   146.0404 
604.0000   0.02080633   146.9384 
605.0000   0.02082724   147.7477 
606.0000   0.02083334   148.6295 
607.0000   0.02080353   149.6335 
608.0000   0.02079549   150.3714 
609.0000   0.02078813   151.1741 
610.0000   0.02076864   152.1492 
611.0000   0.02082125   152.8812 
612.0000   0.02075465   153.7100 
613.0000   0.02074124   154.6164 
614.0000   0.02071604   155.4792 
615.0000   0.02074873   156.4467 
616.0000   0.02070379   157.3101 
617.0000   0.02071545   158.1067 
618.0000   0.02069529   158.9439 
619.0000   0.02069237   159.7896 
620.0000   0.02069166   160.7707 
621.0000   0.02062498   161.6756 
622.0000   0.02059878   163.2678 
623.0000   0.02060349   163.4059 
624.0000   0.02059732   164.2830 
625.0000   0.02059129   165.1660 
626.0000   0.02031397   165.9020 
627.0000   0.02056867   166.7083 
628.0000   0.02056056   167.5679 
629.0000   0.02058478   168.6651 
630.0000   0.02053715   169.4374 
631.0000   0.02051086   170.1847 
632.0000   0.02048545   171.0887 
633.0000   0.02050361   172.0591 
634.0000   0.02046487   172.9278 
635.0000   0.02048838   173.7623 
636.0000   0.02044107   174.6684 
637.0000   0.02047559   175.5774 
638.0000   0.02045534   176.4415 
639.0000   0.02043985   177.3310 
640.0000   0.02039205   178.0931 
641.0000   0.02039548   178.8373 
642.0000   0.02035724   179.8065 
643.0000   0.02029545   -179.3207 
644.0000   0.02034852   -178.3936 
645.0000   0.02028423   -177.5490 
646.0000   0.02046509   -177.2769 
647.0000   0.02029753   -175.8444 
648.0000   0.02029698   -174.9728 
649.0000   0.02028905   -174.0793 
650.0000   0.02017529   -172.3484 
651.0000   0.02019723   -172.3795 
652.0000   0.02027801   -171.3694 
653.0000   0.02025009   -170.5630 
654.0000   0.02023584   -169.7296 
655.0000   0.02019061   -168.8857 
656.0000   0.02024441   -168.0086 
657.0000   0.02024230   -167.1888 
658.0000   0.02019101   -166.2055 
659.0000   0.02015940   -165.4485 
660.0000   0.02019979   -164.4854 
661.0000   0.02013406   -163.7187 
662.0000   0.02013579   -162.8992 
663.0000   0.02017086   -161.9721 
664.0000   0.02013322   -161.2038 
665.0000   0.02009156   -160.3441 
666.0000   0.02010935   -159.3468 
667.0000   0.02004405   -158.6249 
668.0000   0.02007733   -157.7566 
669.0000   0.02005989   -156.8354 
670.0000   0.02027782   -155.2033 
671.0000   0.02006722   -154.9613 
672.0000   0.02001900   -154.2272 
673.0000   0.01999006   -153.3173 
674.0000   0.02032124   -152.0139 
675.0000   0.01999268   -151.7131 
676.0000   0.02000030   -150.7373 
677.0000   0.01994348   -149.8528 
678.0000   0.01993857   -148.9224 
679.0000   0.01996648   -148.2273 
680.0000   0.01997009   -147.5210 
681.0000   0.01994008   -146.6224 
682.0000   0.01990016   -145.5207 
683.0000   0.01990701   -144.8577 
684.0000   0.01990623   -143.9810 
685.0000   0.01983183   -143.0504 
686.0000   0.01987707   -142.2629 
687.0000   0.01982306   -141.2076 
688.0000   0.01977564   -140.4483 
689.0000   0.01982397   -139.5060 
690.0000   0.01974567   -138.7153 
691.0000   0.01983600   -137.8963 
692.0000   0.01984996   -137.0276 
693.0000   0.01979510   -136.1717 
694.0000   0.02009656   -135.4695 
695.0000   0.01982656   -134.3120 
696.0000   0.01979128   -133.5129 
697.0000   0.01974537   -132.6838 
698.0000   0.01990099   -132.7420 
699.0000   0.01973091   -130.9258 
700.0000   0.01973252   -130.0462 
701.0000   0.01976437   -129.3032 
702.0000   0.01969277   -128.3852 
703.0000   0.01969500   -127.4716 
704.0000   0.01970103   -126.7461 
705.0000   0.01966287   -125.9078 
706.0000   0.01970898   -124.9876 
707.0000   0.01965981   -124.0444 
708.0000   0.01968035   -123.2893 
709.0000   0.01963744   -122.3766 
710.0000   0.01967946   -121.7324 
711.0000   0.01967132   -120.8254 
712.0000   0.01965641   -119.8523 
713.0000   0.01963916   -119.1601 
714.0000   0.01962590   -118.2783 
715.0000   0.01960635   -117.4580 
716.0000   0.01964306   -116.5985 
717.0000   0.01960422   -115.6693 
718.0000   0.01963849   -113.8787 
719.0000   0.01961710   -113.7798 
720.0000   0.01958329   -113.0307 
721.0000   0.01957506   -112.1514 
722.0000   0.01943691   -111.9929 
723.0000   0.01953720   -110.4563 
724.0000   0.01950785   -109.4613 
725.0000   0.01951637   -108.7364 
