! 140 4400 1
# MHz S MA R 50.0
!freq ReS11 ImS11
140.0000   0.4424686928   141.2842906987 
141.0000   0.4478434258   142.3728225759 
142.0000   0.4539354866   144.3168874150 
143.0000   0.4595180349   145.3296235304 
144.0000   0.4651185606   145.8052862222 
145.0000   0.4700861771   148.1149005472 
146.0000   0.4740919293   147.6320156830 
147.0000   0.4783270276   151.8633237176 
148.0000   0.4816766602   153.9247722536 
149.0000   0.4843126941   155.9423816834 
150.0000   0.4869100041   157.9713285402 
151.0000   0.4891525789   160.1409373453 
152.0000   0.4908598037   162.1801683328 
153.0000   0.4914453652   164.1265781594 
154.0000   0.4940832321   167.0864068053 
155.0000   0.4955533917   168.8022410628 
156.0000   0.4949835128   169.2898562189 
157.0000   0.4963334390   173.0100800386 
158.0000   0.4957781863   176.2675063107 
159.0000   0.4978489093   178.1071649921 
160.0000   0.4981273071   -179.0064316008 
161.0000   0.4950833964   -176.1102861019 
162.0000   0.4941385602   -173.0438527708 
163.0000   0.4929626664   -170.0034289007 
164.0000   0.4921244519   -166.7763247202 
165.0000   0.4930224934   -163.8962275634 
166.0000   0.4909259696   -164.2434934078 
167.0000   0.4910119638   -158.3791722856 
168.0000   0.4886060762   -155.5402557228 
169.0000   0.4887798213   -152.4251162260 
170.0000   0.4870292352   -153.8982153922 
171.0000   0.4863447818   -148.4960244829 
172.0000   0.4867803908   -146.3724746633 
173.0000   0.4849450592   -144.5739938619 
174.0000   0.4848416511   -142.9269532881 
175.0000   0.4826956960   -140.7032076896 
176.0000   0.4818634898   -139.4047764242 
177.0000   0.4805653080   -136.8188071680 
178.0000   0.4796782557   -134.8617384333 
179.0000   0.4782631368   -133.4531736028 
180.0000   0.4767549179   -130.9411613455 
181.0000   0.4754817922   -129.4541294723 
182.0000   0.4743521702   -127.1648834687 
183.0000   0.4728880845   -125.2635630588 
184.0000   0.4712433348   -123.0493640761 
185.0000   0.4697485323   -121.2994398820 
186.0000   0.4682966564   -119.2503005664 
187.0000   0.4668198522   -117.4657159942 
188.0000   0.4654415291   -115.0794599535 
189.0000   0.4644907723   -113.1635618433 
190.0000   0.4634938039   -110.2792955995 
191.0000   0.4628568699   -108.9823183988 
192.0000   0.4622270568   -106.1167393481 
193.0000   0.4616677791   -104.5908394532 
194.0000   0.4613958750   -104.3965340458 
195.0000   0.4604552860   -100.7042672519 
196.0000   0.4594663845   -99.1150323213 
197.0000   0.4583826319   -96.5277863355 
198.0000   0.4573530503   -94.4743932917 
199.0000   0.4562557263   -92.4488066719 
200.0000   0.4549948110   -90.3499135924 
201.0000   0.4539765745   -88.0934502305 
202.0000   0.4530902688   -86.0537141858 
203.0000   0.4523274163   -84.0975497482 
204.0000   0.4516102398   -82.6900743999 
205.0000   0.4509558959   -80.4056224226 
206.0000   0.4506723648   -78.5587911630 
207.0000   0.4505730950   -76.3902223638 
208.0000   0.4505676137   -74.5720521282 
209.0000   0.4507441060   -72.7722114699 
210.0000   0.4512206414   -70.9870654236 
211.0000   0.4516339534   -69.3836952961 
212.0000   0.4520871400   -67.5688777766 
213.0000   0.4527728581   -65.8066785193 
214.0000   0.4538719454   -62.9648000528 
215.0000   0.4538372405   -62.1389516843 
216.0000   0.4543672660   -60.2235311017 
217.0000   0.4548454185   -58.6790890209 
218.0000   0.4554591476   -55.8921310133 
219.0000   0.4553868039   -54.8069454234 
220.0000   0.4555202545   -53.0398039780 
221.0000   0.4552948303   -51.1326090285 
222.0000   0.4551874493   -49.3858865361 
223.0000   0.4551414545   -47.5789843234 
224.0000   0.4547023763   -45.7253832050 
225.0000   0.4543337171   -43.8526238596 
226.0000   0.4538302706   -41.8662544053 
227.0000   0.4533695581   -39.9459067808 
228.0000   0.4526845527   -38.4150884662 
229.0000   0.4517027004   -36.4150102135 
230.0000   0.4507640697   -34.6435230397 
231.0000   0.4496914193   -32.7286178265 
232.0000   0.4486589831   -30.8470940399 
233.0000   0.4475060607   -29.0231079697 
234.0000   0.4464497564   -27.1363465964 
235.0000   0.4452892923   -25.4510775778 
236.0000   0.4440467973   -23.6492626759 
237.0000   0.4428669946   -21.8935548820 
238.0000   0.4422843563   -20.5310641467 
239.0000   0.4404459297   -18.4072131554 
240.0000   0.4392948701   -16.6036157146 
241.0000   0.4382702905   -14.6972567891 
242.0000   0.4366938652   -13.2032703172 
243.0000   0.4361421712   -11.1336013557 
244.0000   0.4353322423   -9.4364419582 
245.0000   0.4346479062   -7.4778449839 
246.0000   0.4342294243   -5.7067317797 
247.0000   0.4337034474   -3.7801394223 
248.0000   0.4331867788   -1.8973008986 
249.0000   0.4330726819   0.0765919515 
250.0000   0.4327483552   1.9028735998 
251.0000   0.4324876277   4.0603506553 
252.0000   0.4324068375   5.7767562707 
253.0000   0.4324239135   8.1122122777 
254.0000   0.4323853627   9.7561515641 
255.0000   0.4323946793   12.0324109580 
256.0000   0.4325499898   14.0132609017 
257.0000   0.4326416664   15.9914141299 
258.0000   0.4328920514   18.1974678784 
259.0000   0.4330234677   19.9790116200 
260.0000   0.4332160739   22.0779220557 
261.0000   0.4333921334   23.9755752643 
262.0000   0.4345043473   25.6577671250 
263.0000   0.4336847659   27.9143006775 
264.0000   0.4340431320   30.0810019729 
265.0000   0.4342349384   32.0009660118 
266.0000   0.4335779845   33.5355278763 
267.0000   0.4346118740   35.7877558786 
268.0000   0.4346659840   37.6549489731 
269.0000   0.4346874528   39.4794893793 
270.0000   0.4348706148   41.5572273640 
271.0000   0.4349429956   43.2987847033 
272.0000   0.4350398635   45.1500798338 
273.0000   0.4351788763   47.2180992343 
274.0000   0.4356808710   49.0243851321 
275.0000   0.4358430114   50.7899610944 
276.0000   0.4360966476   52.9192694512 
277.0000   0.4364720039   54.5574494942 
278.0000   0.4366157056   56.5438613163 
279.0000   0.4368425764   58.3654999828 
280.0000   0.4372227974   60.2452520030 
281.0000   0.4372100818   62.0362912719 
282.0000   0.4374012769   64.0018781578 
283.0000   0.4373448261   65.7891605522 
284.0000   0.4371189784   67.7103416189 
285.0000   0.4370297565   69.5928864873 
286.0000   0.4364825025   70.8200287142 
287.0000   0.4362477101   73.2889213194 
288.0000   0.4359059670   75.4251676013 
289.0000   0.4354085380   77.1172896954 
290.0000   0.4349710066   78.7326240187 
291.0000   0.4342510015   80.9371911984 
292.0000   0.4337729179   82.7726764287 
293.0000   0.4332323789   84.7018719436 
294.0000   0.4328259180   86.6829041008 
295.0000   0.4324151195   88.6677569491 
296.0000   0.4319356512   90.6112538660 
297.0000   0.4315394150   92.4812519591 
298.0000   0.4315458449   94.4683247500 
299.0000   0.4313376188   96.3864476195 
300.0000   0.4314275179   98.2533487177 
301.0000   0.4315303493   100.2532052398 
302.0000   0.4314915787   102.2192909413 
303.0000   0.4317185689   104.0047219473 
304.0000   0.4318249193   105.9934812729 
305.0000   0.4319560393   107.8377508981 
306.0000   0.4322603081   109.6800960515 
307.0000   0.4325503776   111.5326890094 
308.0000   0.4327349165   113.3948502887 
309.0000   0.4331609835   115.2659337591 
310.0000   0.4349081934   117.4595842896 
311.0000   0.4339897453   118.9236758306 
312.0000   0.4343242556   120.5911973063 
313.0000   0.4350508438   122.5758106575 
314.0000   0.4348166679   124.0581004241 
315.0000   0.4363115239   126.1437183383 
316.0000   0.4370711495   127.9683085385 
317.0000   0.4376438593   129.6718911203 
318.0000   0.4384662082   131.4757093264 
319.0000   0.4394378163   133.2946679623 
320.0000   0.4401592125   135.0386418513 
321.0000   0.4411806604   136.8041682619 
322.0000   0.4422144937   138.6007800271 
323.0000   0.4430413771   140.2519567080 
324.0000   0.4441509061   142.1220656773 
325.0000   0.4452534308   143.8771317926 
326.0000   0.4462271012   145.6544972343 
327.0000   0.4473662994   147.3659018436 
328.0000   0.4482837628   149.0777205509 
329.0000   0.4492403094   150.8387606955 
330.0000   0.4500317597   152.6255999747 
331.0000   0.4509593526   154.4583839997 
332.0000   0.4518070819   156.1064843431 
333.0000   0.4527188828   157.9215356813 
334.0000   0.4533742839   159.6002216862 
335.0000   0.4542799783   161.4494787869 
336.0000   0.4551854601   163.2547008920 
337.0000   0.4561509875   165.1036998855 
338.0000   0.4568751216   167.0964034981 
339.0000   0.4578854966   168.6487417872 
340.0000   0.4588970069   170.4332323198 
341.0000   0.4595864685   172.0848179582 
342.0000   0.4605163782   173.9527056634 
343.0000   0.4613913456   175.6780586451 
344.0000   0.4620794671   177.5087985476 
345.0000   0.4630648467   179.2596873725 
346.0000   0.4639979179   -178.8794671946 
347.0000   0.4647030004   -177.1932986797 
348.0000   0.4655244152   -175.3644256584 
349.0000   0.4663164775   -173.5380302258 
350.0000   0.4670151277   -171.8024053662 
351.0000   0.4678084748   -169.9394706112 
352.0000   0.4685886383   -168.1177710171 
353.0000   0.4691470970   -166.3271941193 
354.0000   0.4698052293   -164.5907692720 
355.0000   0.4707944489   -162.6903744876 
356.0000   0.4713057829   -160.8950413761 
357.0000   0.4720349722   -159.0691666460 
358.0000   0.4729221457   -157.6979884518 
359.0000   0.4731089486   -155.4143768021 
360.0000   0.4735789503   -153.5881014859 
361.0000   0.4742771204   -151.6767053531 
362.0000   0.4762399598   -150.1985449797 
363.0000   0.4761034512   -148.1043483975 
364.0000   0.4767316752   -146.1312498282 
365.0000   0.4769282617   -144.3392950591 
366.0000   0.4772403496   -142.4970418213 
367.0000   0.4779407973   -140.7031544948 
368.0000   0.4782351936   -138.8362017215 
369.0000   0.4787805320   -136.9179478287 
370.0000   0.4791168537   -135.1071878211 
371.0000   0.4795892147   -133.2356625839 
372.0000   0.4800474065   -131.3807562242 
373.0000   0.4805566895   -129.4685353384 
374.0000   0.4809800504   -127.5422476528 
375.0000   0.4815722202   -125.7433298096 
376.0000   0.4820332835   -123.7739112233 
377.0000   0.4827504417   -121.8796352666 
378.0000   0.4839664010   -120.1035360284 
379.0000   0.4846710103   -118.1035714942 
380.0000   0.4857638754   -116.1960321728 
381.0000   0.4870770022   -114.3226556484 
382.0000   0.4880808208   -112.2167565034 
383.0000   0.4898791702   -110.5321850026 
384.0000   0.4900006255   -108.7880545427 
385.0000   0.4924695560   -106.7611651948 
386.0000   0.4930141929   -105.1063767311 
387.0000   0.4945093557   -103.0125192961 
388.0000   0.4946651482   -101.0055485285 
389.0000   0.4981326792   -99.2297996680 
390.0000   0.4991479133   -97.3229675689 
391.0000   0.4974140618   -95.3007274140 
392.0000   0.4987878933   -93.3434699777 
393.0000   0.4999186500   -91.4695604508 
394.0000   0.4999134140   -89.7384497403 
395.0000   0.5000476896   -87.7898242832 
396.0000   0.5005278503   -85.8690816637 
397.0000   0.5012348545   -83.9314694486 
398.0000   0.5020781343   -81.9701701605 
399.0000   0.5028829366   -80.0710356145 
400.0000   0.5040348873   -78.1286765818 
401.0000   0.5066341888   -76.1786039016 
402.0000   0.5076641769   -74.3103636530 
403.0000   0.5038822179   -72.3019585198 
404.0000   0.5085506706   -70.5218574930 
405.0000   0.5044761924   -68.3802852900 
406.0000   0.5068043268   -66.3625416745 
407.0000   0.5054354770   -64.6862200725 
408.0000   0.5076852996   -62.5007649902 
409.0000   0.5088228934   -60.6445242255 
410.0000   0.5099383281   -58.7432715703 
411.0000   0.5085706042   -56.7870626552 
412.0000   0.5043281475   -54.8486948920 
413.0000   0.5058828577   -52.8824070429 
414.0000   0.5048334277   -50.9750111356 
415.0000   0.5063749658   -48.9713170368 
416.0000   0.5025025860   -46.9534020842 
417.0000   0.5022502473   -45.0367374537 
418.0000   0.5057749467   -43.2154176859 
419.0000   0.5016259922   -41.0219045914 
420.0000   0.5015352360   -39.0696138224 
421.0000   0.5020456016   -37.3016639093 
422.0000   0.5023914373   -35.1432943777 
423.0000   0.4998775826   -33.3772975495 
424.0000   0.5016121326   -31.2624598169 
425.0000   0.5018169108   -29.3374613340 
426.0000   0.4978927120   -27.4718689366 
427.0000   0.4992866747   -25.4489756066 
428.0000   0.4975608952   -23.4890404329 
429.0000   0.4967075919   -21.5441723591 
430.0000   0.4954360428   -19.5146452413 
431.0000   0.4962968498   -17.7025459144 
432.0000   0.4938717535   -15.7827350851 
433.0000   0.4930886967   -13.7969208743 
434.0000   0.4936009845   -12.0515588394 
435.0000   0.4919180258   -9.9618245849 
436.0000   0.4917138173   -7.9769804155 
437.0000   0.4911564920   -6.1105853679 
438.0000   0.4897534407   -4.3023677699 
439.0000   0.4897074400   -2.2969233488 
440.0000   0.4879755140   -0.4675476026 
441.0000   0.4873522947   1.4120505657 
442.0000   0.4873007851   3.3622997513 
443.0000   0.4864445854   5.2607032051 
444.0000   0.4858246423   7.1506016885 
445.0000   0.4849916272   9.0451623118 
446.0000   0.4845213317   10.9557660394 
447.0000   0.4836538024   12.7873976907 
448.0000   0.4826482085   14.6831248771 
449.0000   0.4819371727   16.4890013118 
450.0000   0.4811944569   18.3574014795 
451.0000   0.4806324846   20.2254874366 
452.0000   0.4798825059   22.0956900287 
453.0000   0.4793373056   23.9980416320 
454.0000   0.4778850181   26.0359401373 
455.0000   0.4781160120   27.7927315990 
456.0000   0.4777246326   29.7343382458 
457.0000   0.4772165833   31.5867701841 
458.0000   0.4778387375   33.4282266588 
459.0000   0.4764779198   35.2718661051 
460.0000   0.4762080554   37.1637245484 
461.0000   0.4757508934   39.0198047403 
462.0000   0.4757108262   40.8713831611 
463.0000   0.4754107561   42.7502321313 
464.0000   0.4751114093   44.5932930325 
465.0000   0.4748934220   46.4521104666 
466.0000   0.4746719366   48.3187428314 
467.0000   0.4743390921   50.1424579142 
468.0000   0.4740111071   52.0354162548 
469.0000   0.4738473813   53.8748390579 
470.0000   0.4734088779   55.7273845991 
471.0000   0.4731590967   57.6053154376 
472.0000   0.4726064765   59.4290111330 
473.0000   0.4720650967   61.3174792024 
474.0000   0.4717126624   63.1479144704 
475.0000   0.4711220310   65.0193732525 
476.0000   0.4703292256   66.8372634657 
477.0000   0.4696700883   68.6774793204 
478.0000   0.4689414604   70.4842492201 
479.0000   0.4680345677   72.3936215998 
480.0000   0.4672840686   74.2370176822 
481.0000   0.4663772667   76.0913238035 
482.0000   0.4652494395   77.9742221846 
483.0000   0.4647571859   79.7671764045 
484.0000   0.4638735864   81.5992084320 
485.0000   0.4631016386   83.4635212360 
486.0000   0.4623282534   85.2747430297 
487.0000   0.4616497746   87.1628536753 
488.0000   0.4609718374   88.9836568825 
489.0000   0.4604201789   90.8178396338 
490.0000   0.4600143559   92.6926808863 
491.0000   0.4595898567   94.5184292864 
492.0000   0.4593159488   96.3351701184 
493.0000   0.4590354368   98.1951362549 
494.0000   0.4586339286   99.9750434743 
495.0000   0.4584468397   101.8053358300 
496.0000   0.4581857389   103.6019622279 
497.0000   0.4579383892   105.4141031528 
498.0000   0.4578451535   107.2506365414 
499.0000   0.4576742993   109.0586532613 
500.0000   0.4575176012   110.8419934555 
501.0000   0.4577184016   112.6390795086 
502.0000   0.4585161514   114.4267762440 
503.0000   0.4576870276   116.2238939494 
504.0000   0.4578438894   117.9922658773 
505.0000   0.4578172646   119.7969367627 
506.0000   0.4582730907   121.5158334335 
507.0000   0.4584751423   123.3905022753 
508.0000   0.4586512205   125.1705660633 
509.0000   0.4587927222   126.9553455223 
510.0000   0.4588844686   128.7234804832 
511.0000   0.4590167964   130.4812519317 
512.0000   0.4593632948   132.2457360668 
513.0000   0.4595905244   134.0212187918 
514.0000   0.4599379941   135.8183370251 
515.0000   0.4602707345   137.5807286972 
516.0000   0.4607582108   139.3479740193 
517.0000   0.4611439414   141.1427981512 
518.0000   0.4614429817   142.8882801999 
519.0000   0.4619297970   144.6677145222 
520.0000   0.4623250993   146.4668089814 
521.0000   0.4625898773   148.1655633577 
522.0000   0.4630806181   149.9518117950 
523.0000   0.4633068380   151.7339690886 
524.0000   0.4637087702   153.5652677673 
525.0000   0.4640841324   155.3253708969 
526.0000   0.4642613899   157.1480515156 
527.0000   0.4646854687   158.8132402733 
528.0000   0.4649502790   160.5985897363 
529.0000   0.4651650962   162.4023863167 
530.0000   0.4654421585   164.2799342927 
531.0000   0.4656880192   166.0176942643 
532.0000   0.4662353903   167.8156741810 
533.0000   0.4666942330   169.6159587479 
534.0000   0.4671783744   171.3930352529 
535.0000   0.4677438969   173.1944443044 
536.0000   0.4681754891   174.8866772113 
537.0000   0.4687562622   176.7886141580 
538.0000   0.4694408770   178.6176549214 
539.0000   0.4699042124   -179.6118463437 
540.0000   0.4706389899   -177.8748245136 
541.0000   0.4711553894   -175.9939586678 
542.0000   0.4715330548   -174.2959594455 
543.0000   0.4720938414   -172.4664245679 
544.0000   0.4724844211   -170.6206279211 
545.0000   0.4728163681   -168.8983829516 
546.0000   0.4732801623   -166.9989273304 
547.0000   0.4736892228   -165.2825661110 
548.0000   0.4739418588   -163.3683259688 
549.0000   0.4742916159   -161.6893502234 
550.0000   0.4750711474   -159.9258270894 
551.0000   0.4749873660   -158.1462328802 
552.0000   0.4753849060   -156.3806446294 
553.0000   0.4759609191   -154.5177532062 
554.0000   0.4765611738   -152.7163008331 
555.0000   0.4765954004   -150.7632473765 
556.0000   0.4770840195   -149.0462331985 
557.0000   0.4775082553   -147.1631868117 
558.0000   0.4779645623   -145.4653708057 
559.0000   0.4785369287   -143.5966869623 
560.0000   0.4791666587   -141.7635008227 
561.0000   0.4798105057   -139.8233349856 
562.0000   0.4806028765   -138.1179240161 
563.0000   0.4812823062   -136.1700301067 
564.0000   0.4822814074   -134.4859679526 
565.0000   0.4830431087   -132.4955879058 
566.0000   0.4840488979   -130.7821560953 
567.0000   0.4851355179   -128.7954726480 
568.0000   0.4860221333   -127.1179814469 
569.0000   0.4870325237   -125.2607826420 
570.0000   0.4880752709   -123.4565044445 
571.0000   0.4899663056   -121.4984578267 
572.0000   0.4906063514   -119.6962919450 
573.0000   0.4918995152   -117.8039136608 
574.0000   0.4939187812   -115.9874138319 
575.0000   0.4934654381   -114.1147594956 
576.0000   0.4961464280   -112.3248724365 
577.0000   0.4958315309   -110.3675736771 
578.0000   0.4993033849   -108.6294435613 
579.0000   0.4981487228   -106.6261699205 
580.0000   0.5002327291   -104.9268094022 
581.0000   0.5011306725   -102.8555626646 
582.0000   0.5022091366   -101.2226055504 
583.0000   0.5049138216   -99.2134389726 
584.0000   0.5026837836   -97.3357592879 
585.0000   0.5055882960   -95.5194802212 
586.0000   0.5059331062   -93.5217744350 
587.0000   0.5055840264   -91.7082925710 
588.0000   0.5061626294   -89.8512555380 
589.0000   0.5063918464   -87.9470541682 
590.0000   0.5095949169   -86.0339150280 
591.0000   0.5066695600   -84.1287849477 
592.0000   0.5106342703   -82.3502290096 
593.0000   0.5108516263   -80.4813135751 
594.0000   0.5101957583   -78.5851100749 
595.0000   0.5109239295   -76.4512180460 
596.0000   0.5081769646   -74.6522921369 
597.0000   0.5082843922   -72.6754188133 
598.0000   0.5085813890   -70.8279881053 
599.0000   0.5085438032   -68.8999584549 
600.0000   0.5086918496   -67.0059353836 
601.0000   0.5094244242   -64.9721005590 
602.0000   0.5105513066   -63.0305210325 
603.0000   0.5111805667   -61.0855825000 
604.0000   0.5119699267   -59.1602620827 
605.0000   0.5122479691   -57.2416854728 
606.0000   0.5125328631   -55.3770110837 
607.0000   0.5120915598   -53.4645757222 
608.0000   0.5106083369   -51.4824109750 
609.0000   0.5093325080   -49.5145261727 
610.0000   0.5103043938   -47.6177948051 
611.0000   0.5094308667   -45.6498294656 
612.0000   0.5092420064   -43.7337960963 
613.0000   0.5113726711   -41.6199386276 
614.0000   0.5073893545   -39.6730282389 
