! 140 4400 1
# MHz S MA R 50.0
!freq ReS11 ImS11
140.0000   0.0007125202   -91.8462879405 
141.0000   0.0007000106   -91.4125226784 
142.0000   0.0007985242   -32.0853172553 
143.0000   0.0007182647   -91.5865515658 
144.0000   0.0007280943   -97.3618284692 
145.0000   0.0007454110   -90.7638640247 
146.0000   0.0010736249   -135.3482354832 
147.0000   0.0007554312   -89.6599075127 
148.0000   0.0007418516   -94.2598937517 
149.0000   0.0007760817   -90.4280763191 
150.0000   0.0007608841   -87.7212097048 
151.0000   0.0007910830   -88.9438210198 
152.0000   0.0007840762   -86.3432551740 
153.0000   0.0007733483   -87.2733510662 
154.0000   0.0007527596   -86.3925403287 
155.0000   0.0008255439   -86.2439376541 
156.0000   0.0007967800   -85.9080943950 
157.0000   0.0007785146   -78.7418853843 
158.0000   0.0008047033   -81.1934732798 
159.0000   0.0008125732   -80.4383673256 
160.0000   0.0008080321   -79.7967211707 
161.0000   0.0008004978   -78.4657051558 
162.0000   0.0008134827   -77.0940578679 
163.0000   0.0008150858   -76.5088990422 
164.0000   0.0007946748   -74.7055871698 
165.0000   0.0008048596   -72.6598110653 
166.0000   0.0010185748   -92.0854923306 
167.0000   0.0008507206   -66.4834348974 
168.0000   0.0008243015   -70.6230929609 
169.0000   0.0008406102   -63.6625679678 
170.0000   0.0008215261   -91.0387876395 
171.0000   0.0008321267   -65.3678545784 
172.0000   0.0008258258   -62.1410660896 
173.0000   0.0008142560   -64.7081744574 
174.0000   0.0008421436   -64.8218242752 
175.0000   0.0008379684   -63.3392577128 
176.0000   0.0008392415   -64.5822673783 
177.0000   0.0008345831   -62.1601601335 
178.0000   0.0008538294   -61.3550086815 
179.0000   0.0009777058   -62.8998291776 
180.0000   0.0008452246   -62.3986974519 
181.0000   0.0007486571   -58.6487101272 
182.0000   0.0008148039   -59.2990325268 
183.0000   0.0008682183   -60.0007796127 
184.0000   0.0008493831   -58.1808541244 
185.0000   0.0008439256   -59.2657092627 
186.0000   0.0008587693   -58.2651999789 
187.0000   0.0008413564   -56.8187146026 
188.0000   0.0008321161   -56.6089956340 
189.0000   0.0008454936   -55.9419631938 
190.0000   0.0008504689   -22.0319294120 
191.0000   0.0007677854   -52.9792315147 
192.0000   0.0008588812   -55.6527299322 
193.0000   0.0007798680   -58.1502079795 
194.0000   0.0005629097   -24.2355053370 
195.0000   0.0008521124   -52.5367715324 
196.0000   0.0008413679   -51.6798277479 
197.0000   0.0008469426   -51.5121799081 
198.0000   0.0008312976   -50.8651347854 
199.0000   0.0008573822   -50.4799204986 
200.0000   0.0008440755   -49.4739578824 
201.0000   0.0008592146   -49.8225642329 
202.0000   0.0008325408   -50.1740133278 
203.0000   0.0009071000   -55.7508676665 
204.0000   0.0008293016   -46.8850529206 
205.0000   0.0007394169   -50.7050337662 
206.0000   0.0008227964   -45.9399659728 
207.0000   0.0008464463   -49.4916908445 
208.0000   0.0008694693   -46.9214427108 
209.0000   0.0008823620   -46.7443517488 
210.0000   0.0008628113   -46.0929759680 
211.0000   0.0008679494   -46.2862066701 
212.0000   0.0008856877   -47.4412496132 
213.0000   0.0008579849   -45.9631471839 
214.0000   0.0011382684   -29.0606477818 
215.0000   0.0008472827   -44.2577242054 
216.0000   0.0009049882   -44.4715252756 
217.0000   0.0009159185   -47.0508985332 
218.0000   0.0008708067   -66.8251732216 
219.0000   0.0008962612   -43.4010954536 
220.0000   0.0009021189   -43.8587195862 
221.0000   0.0009357628   -44.2552433270 
222.0000   0.0009180920   -42.9422852980 
223.0000   0.0009052703   -40.9926573708 
224.0000   0.0009466202   -40.2930726462 
225.0000   0.0009398136   -41.9134771567 
226.0000   0.0009444544   -39.9953177343 
227.0000   0.0010039514   -37.1640662256 
228.0000   0.0009671265   -40.3858920913 
229.0000   0.0009132527   -40.6740062852 
230.0000   0.0009686574   -38.4755856838 
231.0000   0.0009593494   -38.4086135828 
232.0000   0.0009629412   -38.4152157000 
233.0000   0.0009703370   -38.5650661021 
234.0000   0.0009665982   -36.8901046763 
235.0000   0.0009715528   -37.6342173000 
236.0000   0.0009939532   -35.4479520569 
237.0000   0.0009681268   -36.6462096065 
238.0000   0.0007006636   -39.2002761812 
239.0000   0.0010168030   -33.6548003429 
240.0000   0.0009832968   -35.9914076742 
241.0000   0.0009714355   -36.6572983799 
242.0000   0.0008295261   -19.5486897846 
243.0000   0.0009978767   -35.2610455132 
244.0000   0.0009968206   -35.5604805196 
245.0000   0.0010129900   -33.6399272756 
246.0000   0.0010165017   -32.8820154558 
247.0000   0.0010385982   -32.5759227954 
248.0000   0.0010517742   -32.7031215941 
249.0000   0.0010274326   -31.9381822765 
250.0000   0.0010475548   -33.1866238171 
251.0000   0.0010431276   -31.2466819265 
252.0000   0.0010815826   -30.4088363911 
253.0000   0.0011074136   -32.2205289482 
254.0000   0.0010985254   -29.9232141906 
255.0000   0.0010873120   -29.0701187266 
256.0000   0.0010911582   -28.3815291118 
257.0000   0.0010926584   -28.3876683505 
258.0000   0.0011041566   -26.3378483502 
259.0000   0.0011242456   -26.0983967275 
260.0000   0.0011334135   -26.4226017840 
261.0000   0.0011527132   -25.3066858348 
262.0000   0.0015215953   -11.6539547157 
263.0000   0.0011535198   -25.5152102945 
264.0000   0.0011773030   -22.9943555317 
265.0000   0.0012067475   -21.0687412008 
266.0000   0.0014611556   -4.0188648558 
267.0000   0.0011803946   -20.5808583757 
268.0000   0.0011872345   -20.3918821731 
269.0000   0.0011766407   -19.7049800834 
270.0000   0.0012421717   -18.3336562100 
271.0000   0.0012175475   -17.8547029397 
272.0000   0.0012336090   -18.3514576037 
273.0000   0.0012309259   -17.4730141917 
274.0000   0.0012237052   -16.9413923820 
275.0000   0.0012530616   -16.5156877239 
276.0000   0.0012320712   -14.6248248316 
277.0000   0.0012557080   -15.1903248005 
278.0000   0.0013030302   -14.2401148313 
279.0000   0.0012580453   -13.9262385926 
280.0000   0.0012516158   -13.0959843045 
281.0000   0.0012724416   -12.7427116999 
282.0000   0.0012744617   -13.5150484556 
283.0000   0.0012843924   -11.6549833006 
284.0000   0.0012914991   -11.3442220123 
285.0000   0.0012934326   -10.2772865141 
286.0000   0.0013769809   2.7716575329 
287.0000   0.0013620430   -8.8948790837 
288.0000   0.0013238898   -8.8397088595 
289.0000   0.0013210872   -6.9280913252 
290.0000   0.0015983009   -8.5083985293 
291.0000   0.0013307184   -5.4245767981 
292.0000   0.0013471509   -4.8030387983 
293.0000   0.0013584262   -4.3964846175 
294.0000   0.0013827781   -4.6569656873 
295.0000   0.0014038168   -3.5201334055 
296.0000   0.0013966388   -2.0605295998 
297.0000   0.0013786994   -1.3571966244 
298.0000   0.0014143902   -0.2393540863 
299.0000   0.0014306071   -1.0032033002 
300.0000   0.0013839690   0.1520112864 
301.0000   0.0014147807   0.5799326801 
302.0000   0.0014222452   2.0803725265 
303.0000   0.0014326931   1.7012075398 
304.0000   0.0014519414   3.3537173409 
305.0000   0.0014413819   4.1712397149 
306.0000   0.0014724625   5.4590932546 
307.0000   0.0014597608   6.6563448134 
308.0000   0.0014536889   6.4810491255 
309.0000   0.0014899843   8.0390056558 
310.0000   0.0007557611   -8.5768189385 
311.0000   0.0014729564   9.6515094359 
312.0000   0.0015012308   9.2885002586 
313.0000   0.0014755210   9.8575231600 
314.0000   0.0021629371   26.6837251254 
315.0000   0.0015150257   11.2295642724 
316.0000   0.0015066528   12.9451074651 
317.0000   0.0015327039   13.0260620956 
318.0000   0.0015246855   13.8346774152 
319.0000   0.0015304034   13.6956399240 
320.0000   0.0015452589   15.7272618268 
321.0000   0.0015554200   15.8265069510 
322.0000   0.0015716448   16.2706301387 
323.0000   0.0015813191   16.8016402747 
324.0000   0.0015794105   17.7420899808 
325.0000   0.0015700436   17.9458481929 
326.0000   0.0016038722   17.5742668848 
327.0000   0.0016256828   20.2202789355 
328.0000   0.0016201258   19.5637059681 
329.0000   0.0016333564   21.3593761339 
330.0000   0.0016359377   21.4113701670 
331.0000   0.0016201387   21.4015569519 
332.0000   0.0016586040   22.5789911570 
333.0000   0.0016306049   24.0145976621 
334.0000   0.0015275886   52.2068211773 
335.0000   0.0016757829   24.2374574996 
336.0000   0.0016683270   26.0482487870 
337.0000   0.0016805034   27.4953948505 
338.0000   0.0009290706   21.0935827145 
339.0000   0.0017278805   28.0666194262 
340.0000   0.0017393024   29.7280310118 
341.0000   0.0017303200   29.6376783571 
342.0000   0.0017346545   30.0005887680 
343.0000   0.0017420308   30.8608825191 
344.0000   0.0017440937   32.2785966465 
345.0000   0.0017449306   32.2173445209 
346.0000   0.0017568466   32.9539832794 
347.0000   0.0017510915   33.7196568836 
348.0000   0.0018063551   34.8142353388 
349.0000   0.0018020257   35.5817251523 
350.0000   0.0018354778   35.4008888939 
351.0000   0.0018519666   36.7437315394 
352.0000   0.0018377637   38.6140692044 
353.0000   0.0018629525   37.9358422787 
354.0000   0.0018578981   38.3129502859 
355.0000   0.0018400390   39.8300076003 
356.0000   0.0018945198   40.4015238652 
357.0000   0.0018929177   41.5053732979 
358.0000   0.0014050181   9.8293779705 
359.0000   0.0019047653   42.4198260792 
360.0000   0.0018916367   43.2253583481 
361.0000   0.0019273892   43.6069706180 
362.0000   0.0010002493   64.5596959925 
363.0000   0.0019275663   45.6754070132 
364.0000   0.0019657175   46.1058886640 
365.0000   0.0019827267   47.7695417890 
366.0000   0.0020070851   47.9645491938 
367.0000   0.0019948252   49.2648179136 
368.0000   0.0020140783   48.4592818909 
369.0000   0.0019669813   50.2597037823 
370.0000   0.0019512812   51.7117312109 
371.0000   0.0019749992   51.5566410137 
372.0000   0.0019722388   53.4094001763 
373.0000   0.0019989776   53.4042642980 
374.0000   0.0020460071   54.6523140087 
375.0000   0.0020621243   54.9455112942 
376.0000   0.0020747350   56.5450923412 
377.0000   0.0020709269   56.6791330610 
378.0000   0.0020601356   56.4414760180 
379.0000   0.0020745465   58.8346320916 
380.0000   0.0020487319   58.8603760769 
381.0000   0.0020634924   59.9522760770 
382.0000   0.0014834952   76.4466364155 
383.0000   0.0020767608   61.7315208265 
384.0000   0.0020917873   62.3230058410 
385.0000   0.0021056141   62.8038788831 
386.0000   0.0023800644   82.3206565820 
387.0000   0.0021211544   65.2530643480 
388.0000   0.0021271045   65.4066341863 
389.0000   0.0021322732   65.8151613172 
390.0000   0.0021419238   67.0459677444 
391.0000   0.0021632303   67.9066879333 
392.0000   0.0021444442   69.0864870508 
393.0000   0.0021670873   69.8738259669 
394.0000   0.0021711284   69.9821982545 
395.0000   0.0021599247   71.9714690994 
396.0000   0.0021867170   73.1118322228 
397.0000   0.0021783281   73.0423334150 
398.0000   0.0021902292   73.4146001022 
399.0000   0.0021875956   73.6215482218 
400.0000   0.0021901416   74.1792542239 
401.0000   0.0022114640   75.8768040145 
402.0000   0.0022324193   75.7107260851 
403.0000   0.0022376796   77.5773013865 
404.0000   0.0022397990   77.3137752935 
405.0000   0.0022607533   78.6813599350 
406.0000   0.0013945459   75.2526971111 
407.0000   0.0023033987   79.4984911345 
408.0000   0.0022653700   80.5713127979 
409.0000   0.0022762840   81.4745880291 
410.0000   0.0018315128   59.7514461647 
411.0000   0.0023105637   83.1769984735 
412.0000   0.0023304585   83.7035330168 
413.0000   0.0023328104   84.6289207595 
414.0000   0.0023199969   85.6370780958 
415.0000   0.0023360783   86.1999448517 
416.0000   0.0023211554   86.6107935789 
417.0000   0.0023592756   87.7335593038 
418.0000   0.0023411404   89.0945199303 
419.0000   0.0023740752   89.0239868686 
420.0000   0.0023679744   90.4004938691 
421.0000   0.0024017580   91.3967396000 
422.0000   0.0023876641   91.4052401028 
423.0000   0.0023845134   93.1707716466 
424.0000   0.0023884305   94.3015575644 
425.0000   0.0023827155   94.8583176390 
426.0000   0.0023888457   95.9104355289 
427.0000   0.0024081470   96.0168854742 
428.0000   0.0024082511   96.9478766330 
429.0000   0.0024165529   97.7005603357 
430.0000   0.0021290929   109.6293267315 
431.0000   0.0024382178   99.9267029711 
432.0000   0.0024223394   100.2162230594 
433.0000   0.0024331618   101.1835891609 
434.0000   0.0020486340   92.7549989665 
435.0000   0.0024535408   103.3363334604 
436.0000   0.0024822548   103.8082822386 
437.0000   0.0024473787   104.7689796307 
438.0000   0.0024580986   105.5913229484 
439.0000   0.0024686989   106.2533080384 
440.0000   0.0024671159   107.3436009958 
441.0000   0.0024524596   108.1477053191 
442.0000   0.0024834241   108.8217854933 
443.0000   0.0024783385   109.7590971331 
444.0000   0.0024807844   110.1588312357 
445.0000   0.0024805887   110.4887842496 
446.0000   0.0024830521   111.5138531662 
447.0000   0.0025083844   112.3327167611 
448.0000   0.0025124846   113.6505440973 
449.0000   0.0024992211   113.8403194123 
450.0000   0.0025062593   114.7830036506 
451.0000   0.0025047203   115.4008125224 
452.0000   0.0025276414   115.9328109841 
453.0000   0.0025066516   117.3208477123 
454.0000   0.0022634524   107.2875464792 
455.0000   0.0025374483   119.0816532436 
456.0000   0.0025292454   119.8242524925 
457.0000   0.0025286537   120.3068915477 
458.0000   0.0024534777   132.6443645931 
459.0000   0.0025442053   122.1504303719 
460.0000   0.0025236848   122.6205729626 
461.0000   0.0025300201   123.6460023680 
462.0000   0.0025314101   125.1820286618 
463.0000   0.0025255627   125.5025692680 
464.0000   0.0025334088   125.9293093064 
465.0000   0.0025488407   126.5970588732 
466.0000   0.0025041900   127.3483081069 
467.0000   0.0025368672   127.9917388904 
468.0000   0.0025353004   128.8426796178 
469.0000   0.0025266275   129.4030309082 
470.0000   0.0025140216   130.5858092089 
471.0000   0.0025531273   130.8788885246 
472.0000   0.0025242501   131.7639740065 
473.0000   0.0025108486   132.4525591577 
474.0000   0.0025198777   133.2102041410 
475.0000   0.0025435249   134.2127912013 
476.0000   0.0025096026   134.8244425646 
477.0000   0.0025050703   135.5006361406 
478.0000   0.0022927330   129.7981068265 
479.0000   0.0025277369   136.9916688346 
480.0000   0.0025135115   137.4010171204 
481.0000   0.0024941928   138.0084714958 
482.0000   0.0022404018   134.5422861694 
483.0000   0.0025307014   139.8271159317 
484.0000   0.0025328529   139.5591546707 
485.0000   0.0025186948   141.0881298109 
486.0000   0.0025497757   141.7652445114 
487.0000   0.0025228114   142.5117272237 
488.0000   0.0025297844   142.9594362176 
489.0000   0.0025124794   144.0238048984 
490.0000   0.0025209297   144.1826568870 
491.0000   0.0025101967   145.4628605853 
492.0000   0.0025217821   145.2889588359 
493.0000   0.0025232490   146.7701882285 
494.0000   0.0024910359   147.1469024472 
495.0000   0.0025268304   147.9784449179 
496.0000   0.0025217673   149.3273858659 
497.0000   0.0025318235   149.4393787203 
498.0000   0.0025162155   150.2758836328 
499.0000   0.0025263635   151.4075693574 
500.0000   0.0025504112   151.3953544585 
501.0000   0.0025154117   151.9419358020 
502.0000   0.0025473192   156.1084899651 
503.0000   0.0025548190   153.3275550938 
504.0000   0.0025400376   154.2621489726 
505.0000   0.0025638844   154.2411899941 
506.0000   0.0026755067   153.2033678403 
507.0000   0.0025564427   156.3307931438 
508.0000   0.0025521740   156.7180486599 
509.0000   0.0025181797   157.1283342219 
510.0000   0.0025300281   157.4267204136 
511.0000   0.0025330844   158.1392421833 
512.0000   0.0025323619   159.1056571662 
513.0000   0.0025419036   159.1297348313 
514.0000   0.0025471202   159.8918639519 
515.0000   0.0025438839   160.2538234722 
516.0000   0.0025276407   160.5050241003 
517.0000   0.0025323340   161.5830179037 
518.0000   0.0025425185   161.9990796472 
519.0000   0.0025360562   162.4703420818 
520.0000   0.0025380686   162.6616510374 
521.0000   0.0025542224   163.9985056865 
522.0000   0.0025545019   164.1012046764 
523.0000   0.0025409124   165.2095846957 
524.0000   0.0025346415   165.3101272902 
525.0000   0.0025611047   166.5332548433 
526.0000   0.0025232042   159.5841598233 
527.0000   0.0025466034   167.1160865168 
528.0000   0.0025575089   168.1104744682 
529.0000   0.0025393353   168.5396886654 
530.0000   0.0022397386   170.3806027064 
531.0000   0.0025587683   169.6169230948 
532.0000   0.0025473346   170.1325992171 
533.0000   0.0025431729   170.4561162077 
534.0000   0.0025527488   171.5430432007 
535.0000   0.0025266742   172.0124307742 
536.0000   0.0025595314   171.9165513058 
537.0000   0.0025335438   173.1903820152 
538.0000   0.0025527514   173.5620515279 
539.0000   0.0025637696   174.0210609371 
540.0000   0.0025435850   174.2906830854 
541.0000   0.0025578358   174.7739004693 
542.0000   0.0025528604   175.2358199644 
543.0000   0.0025469915   175.7307700607 
544.0000   0.0025733708   176.6634594306 
545.0000   0.0025567379   177.0577986241 
546.0000   0.0025322628   177.6051801489 
547.0000   0.0025729562   178.1381464476 
548.0000   0.0025752193   178.6283674719 
549.0000   0.0025641847   179.2694654705 
550.0000   0.0025624053   -178.5660591416 
551.0000   0.0026044072   179.8033092754 
552.0000   0.0025942175   -179.2596726795 
553.0000   0.0026167285   -178.7119090794 
554.0000   0.0025622438   -177.3059396277 
555.0000   0.0026083845   -177.9528237802 
556.0000   0.0026029479   -177.8725864898 
557.0000   0.0026272638   -177.0851011377 
558.0000   0.0026317921   -176.6236477738 
559.0000   0.0026397786   -176.1931916166 
560.0000   0.0026314871   -175.9371022188 
561.0000   0.0026636728   -175.3117424025 
562.0000   0.0026445509   -174.9393701255 
563.0000   0.0026830131   -174.7708156519 
564.0000   0.0026664020   -174.2362878844 
565.0000   0.0027127527   -173.9383290154 
566.0000   0.0027189220   -173.1121882483 
567.0000   0.0027055291   -172.9212639525 
568.0000   0.0027191375   -172.4874528695 
569.0000   0.0027495235   -172.0478868334 
570.0000   0.0027454958   -170.9858069264 
571.0000   0.0027671730   -170.8645108802 
572.0000   0.0027796275   -170.6964645923 
573.0000   0.0028026744   -170.0632569749 
574.0000   0.0026442964   -171.2000543660 
575.0000   0.0028389838   -169.0593896121 
576.0000   0.0028133985   -168.9127698693 
577.0000   0.0028302939   -168.1358691707 
578.0000   0.0030919832   -168.2584587666 
579.0000   0.0028892762   -167.2642534627 
580.0000   0.0029069502   -166.8473504899 
581.0000   0.0029357309   -167.0172110805 
582.0000   0.0029164392   -166.1860656991 
583.0000   0.0029418358   -165.3654912815 
584.0000   0.0029858663   -165.0824485713 
585.0000   0.0030046836   -164.5535220188 
586.0000   0.0030261224   -163.8094042455 
587.0000   0.0030188495   -163.4497443119 
588.0000   0.0030516943   -163.4751369382 
589.0000   0.0030701289   -162.6377759858 
590.0000   0.0031090007   -162.2299152293 
591.0000   0.0031162781   -161.6290500518 
592.0000   0.0031469677   -161.2213779345 
593.0000   0.0031690962   -160.9269810021 
594.0000   0.0031942411   -160.2387738151 
595.0000   0.0032359993   -159.7582242506 
596.0000   0.0032473324   -159.6274086536 
597.0000   0.0032637293   -159.0768190697 
598.0000   0.0033112423   -158.8207936522 
599.0000   0.0033253107   -158.1185331074 
600.0000   0.0033333760   -157.1610599272 
601.0000   0.0033667329   -157.3622813587 
602.0000   0.0033913386   -156.1108970270 
603.0000   0.0034268846   -155.9715970429 
604.0000   0.0034285183   -155.9451037802 
605.0000   0.0034578522   -155.2438638153 
606.0000   0.0034929206   -154.5032750373 
607.0000   0.0035147951   -154.1234327694 
608.0000   0.0035719547   -153.9666384578 
609.0000   0.0035667278   -153.1248402858 
610.0000   0.0035876441   -152.3882485479 
611.0000   0.0036352799   -151.9314623293 
612.0000   0.0036481450   -151.6125290332 
613.0000   0.0037056940   -151.0941482562 
614.0000   0.0037034559   -150.4837322190 
615.0000   0.0037544416   -149.8619550228 
616.0000   0.0037675940   -149.4234249323 
