! 140 4400 10
# MHz S MA R 50.0
140.0000   0.0049702944   61.2364077951 
150.0000   0.0056017899   75.4564540426 
160.0000   0.0057952258   93.4009845141 
170.0000   0.0060654610   117.6506462175 
180.0000   0.0067880731   131.8310297796 
190.0000   0.0068955956   147.9802001635 
200.0000   0.0078572283   160.4751092590 
210.0000   0.0087917080   173.7477841130 
220.0000   0.0102356220   -173.0645155323 
230.0000   0.0119438026   -160.0561353690 
240.0000   0.0140207598   -146.4760103445 
250.0000   0.0170007968   -132.8988718629 
260.0000   0.0213211528   -116.2811036255 
270.0000   0.0274584225   -98.3296205471 
280.0000   0.0363952800   -78.1478540057 
290.0000   0.0494970991   -51.1416241182 
300.0000   0.0657816775   -15.7719292945 
310.0000   0.0694831125   29.1811777505 
320.0000   0.0577297600   67.5010522636 
330.0000   0.0448160596   94.3213285288 
340.0000   0.0361823417   114.4950193259 
350.0000   0.0304528579   131.5745964856 
360.0000   0.0264587463   147.1683838892 
370.0000   0.0238527596   161.5230641335 
380.0000   0.0219199395   175.7468341805 
390.0000   0.0204574144   -170.5315955205 
400.0000   0.0194011473   -156.8203553500 
410.0000   0.0176730075   -143.2933365844 
420.0000   0.0181589429   -129.4324019305 
430.0000   0.0179229042   -117.2399916868 
440.0000   0.0179797382   -101.9398464760 
450.0000   0.0182613096   -88.2950440607 
460.0000   0.0188230589   -74.5288571432 
470.0000   0.0195586760   -60.4134434010 
480.0000   0.0205022573   -46.2357402026 
490.0000   0.0217532711   -31.9898181851 
500.0000   0.0234181562   -17.6660137358 
510.0000   0.0255437579   -3.2296971321 
520.0000   0.0283435961   11.0028392405 
530.0000   0.0317688681   24.8438117654 
540.0000   0.0363068304   39.8467177492 
550.0000   0.0424310842   54.7185753783 
560.0000   0.0513053017   70.3884179336 
570.0000   0.0641350133   87.0861449027 
580.0000   0.0831175089   105.9114061137 
590.0000   0.1116547120   128.7186487857 
600.0000   0.1508005274   158.9498663207 
610.0000   0.1804362920   -160.4922917831 
620.0000   0.1685369647   -118.5167430333 
630.0000   0.1352546474   -86.2441565870 
640.0000   0.1074362178   -62.1659237451 
650.0000   0.0878235867   -42.4978948236 
660.0000   0.0739545347   -25.1773036805 
670.0000   0.0641464694   -9.1358832608 
680.0000   0.0566941779   6.3921593879 
690.0000   0.0511121359   21.5194195779 
700.0000   0.0466994739   36.4411510190 
710.0000   0.0432279779   51.1393604677 
720.0000   0.0406546593   66.0477174906 
730.0000   0.0385975408   80.9466925820 
740.0000   0.0372429900   96.1944313555 
750.0000   0.0364731191   111.3059243902 
760.0000   0.0363315308   126.8131462692 
770.0000   0.0367768526   141.9690068403 
780.0000   0.0376976340   157.5891824101 
790.0000   0.0393255269   172.8228254754 
800.0000   0.0415155519   -171.7683651691 
810.0000   0.0442915661   -156.5649743679 
820.0000   0.0481083781   -141.4419249489 
830.0000   0.0528635639   -126.3047748404 
840.0000   0.0590198489   -111.1006284821 
850.0000   0.0669780887   -95.6801653546 
860.0000   0.0777159082   -79.8798987983 
870.0000   0.0922995314   -63.1013443173 
880.0000   0.1127241607   -44.7200668535 
890.0000   0.1418807011   -23.3516655268 
900.0000   0.1820368282   3.7623033860 
910.0000   0.2206313502   39.6945119290 
920.0000   0.2196962743   81.0134762455 
930.0000   0.1801323265   116.2969637128 
940.0000   0.1406656294   142.8334954610 
950.0000   0.1122644109   163.8490205657 
960.0000   0.0924790911   -178.0558729566 
970.0000   0.0784023918   -161.6094083640 
980.0000   0.0680576057   -146.0558614814 
990.0000   0.0601209400   -131.0304521406 
1000.0000   0.0540030839   -116.2068432566 
1010.0000   0.0489858179   -101.6532225399 
1020.0000   0.0453624286   -86.8940538956 
1030.0000   0.0426537623   -72.2905205499 
1040.0000   0.0404785137   -57.5862564583 
1050.0000   0.0389762202   -42.9470143589 
1060.0000   0.0378964955   -28.4093873654 
1070.0000   0.0374545500   -14.0228319238 
1080.0000   0.0376352284   0.4915219325 
1090.0000   0.0384230497   14.8045077502 
1100.0000   0.0398747460   29.1147415822 
1110.0000   0.0420491510   43.2271042367 
1120.0000   0.0452167127   57.2518529198 
1130.0000   0.0492751168   71.0611839358 
1140.0000   0.0546528927   84.8986585492 
1150.0000   0.0619171240   98.8494565070 
1160.0000   0.0712967040   113.0861346468 
1170.0000   0.0842028200   128.0142489206 
1180.0000   0.1020714256   144.1470672592 
1190.0000   0.1277749351   162.7190316985 
1200.0000   0.1647744012   -174.0014100154 
1210.0000   0.2098007510   -142.4871729728 
1220.0000   0.2289723717   -102.0458979197 
1230.0000   0.1974878398   -63.9128941171 
1240.0000   0.1534611863   -35.3609690858 
1250.0000   0.1204666272   -13.7108330905 
1260.0000   0.0977473680   4.2716538372 
1270.0000   0.0820510685   20.1860479665 
1280.0000   0.0708843154   35.0144053684 
1290.0000   0.0626105878   49.2071334084 
1300.0000   0.0565057906   63.0410003323 
1310.0000   0.0518760987   76.5655699354 
1320.0000   0.0483669581   90.2422021528 
1330.0000   0.0456019884   103.9187331920 
1340.0000   0.0437665229   117.7226249030 
1350.0000   0.0426482719   131.6772399054 
1360.0000   0.0420940005   145.7968177227 
1370.0000   0.0421084892   160.0711885173 
1380.0000   0.0428985894   174.4575361321 
1390.0000   0.0443142478   -171.0896158333 
1400.0000   0.0462591588   -156.6351194241 
1410.0000   0.0490536786   -142.1314891668 
1420.0000   0.0529560633   -127.4110246273 
1430.0000   0.0578863462   -112.9958845510 
1440.0000   0.0642699479   -98.3611639209 
1450.0000   0.0725525047   -83.6342520564 
1460.0000   0.0833990434   -68.4228817732 
1470.0000   0.0979347580   -52.5176909388 
1480.0000   0.1178605236   -35.3647174796 
1490.0000   0.1457013123   -16.2264695455 
1500.0000   0.1850432635   6.6170632908 
1510.0000   0.2342897867   35.4109517232 
1520.0000   0.2706741948   71.8854577437 
1530.0000   0.2591507775   110.2547930922 
1540.0000   0.2168584922   142.0963202273 
1550.0000   0.1760027604   166.9208416118 
1560.0000   0.1449803472   -172.5786147141 
1570.0000   0.1224082364   -154.5250684168 
1580.0000   0.1056355060   -137.7859417054 
1590.0000   0.0929454132   -121.8569550057 
1600.0000   0.0831842549   -106.2725684018 
1610.0000   0.0755453942   -90.9832949306 
1620.0000   0.0696198605   -75.6683107090 
1630.0000   0.0651251086   -60.4561421740 
1640.0000   0.0615867086   -45.1512595329 
1650.0000   0.0589237084   -29.7076296508 
1660.0000   0.0571523074   -14.2662741050 
1670.0000   0.0561175341   1.3414847194 
1680.0000   0.0559134330   17.0294908570 
1690.0000   0.0566736353   32.6451082580 
1700.0000   0.0580674688   48.3701913225 
1710.0000   0.0605382155   64.0165057501 
1720.0000   0.0640119264   79.6446458493 
1730.0000   0.0685596436   95.1400626510 
1740.0000   0.0744559904   110.6578930847 
1750.0000   0.0824477529   126.1979784946 
1760.0000   0.0927203571   141.8242202222 
1770.0000   0.1061797196   157.9034211658 
1780.0000   0.1240148345   175.0087005626 
1790.0000   0.1486067915   -166.5538891380 
1800.0000   0.1826124732   -145.0507294541 
1810.0000   0.2268241969   -118.7768209036 
1820.0000   0.2675286314   -85.4570759569 
1830.0000   0.2709820386   -47.2785589447 
1840.0000   0.2318765031   -13.0908678799 
1850.0000   0.1854486653   13.5515412864 
1860.0000   0.1497271381   35.0362531128 
1870.0000   0.1233590243   53.4426213410 
1880.0000   0.1041409720   70.0395153777 
1890.0000   0.0896180414   85.6709510794 
1900.0000   0.0785192827   100.7792279594 
1910.0000   0.0698467862   115.5605034659 
1920.0000   0.0629965457   130.3522729146 
1930.0000   0.0575962001   145.0835464000 
1940.0000   0.0535001471   159.9399170117 
1950.0000   0.0504137797   174.8326406598 
1960.0000   0.0482207183   -170.1901282972 
1970.0000   0.0467814386   -155.2077143316 
1980.0000   0.0460922341   -140.0448975528 
1990.0000   0.0459442851   -125.0966082603 
2000.0000   0.0466484196   -110.0624650921 
2010.0000   0.0479775417   -95.2111917356 
2020.0000   0.0499640192   -80.3704230165 
2030.0000   0.0527632720   -65.7343628527 
2040.0000   0.0563655252   -51.0676992659 
2050.0000   0.0610749138   -36.3198435935 
2060.0000   0.0673688429   -21.4264764001 
2070.0000   0.0756722009   -6.1679331098 
2080.0000   0.0867067389   9.7837287302 
2090.0000   0.1017175461   27.0619884555 
2100.0000   0.1224032354   46.5516919554 
2110.0000   0.1503615893   69.7954604524 
2120.0000   0.1828926771   99.0000381076 
2130.0000   0.2020605334   134.8468080856 
2140.0000   0.1872523669   171.3481366977 
2150.0000   0.1540032034   -158.3554099547 
2160.0000   0.1239167974   -134.3244569740 
2170.0000   0.1013923252   -114.4075550415 
2180.0000   0.0849982096   -96.9453977649 
2190.0000   0.0729787004   -80.7547717715 
2200.0000   0.0633774221   -63.0061522867 
2210.0000   0.0564406927   -48.8748163774 
2220.0000   0.0512314934   -34.4482293978 
2230.0000   0.0471467483   -20.1578900277 
2240.0000   0.0439738039   -5.8861518978 
2250.0000   0.0416490853   8.2369763011 
2260.0000   0.0399961121   22.5357129889 
2270.0000   0.0389633139   36.8175622077 
2280.0000   0.0383619522   51.0577843221 
2290.0000   0.0383396639   65.4108459649 
2300.0000   0.0388269112   79.4922753228 
2310.0000   0.0397894808   93.6473762186 
2320.0000   0.0413730907   107.6106333188 
2330.0000   0.0435662022   121.4931537805 
2340.0000   0.0464982364   135.4942180132 
2350.0000   0.0503863459   149.5434537233 
2360.0000   0.0555767140   163.7079862658 
2370.0000   0.0622258976   178.2454672997 
2380.0000   0.0712362433   -166.7155711362 
2390.0000   0.0833541717   -150.6438418555 
2400.0000   0.1000945941   -132.8702732134 
2410.0000   0.1234085703   -111.8899352226 
2420.0000   0.1530109203   -85.7309988716 
2430.0000   0.1788821165   -52.4043327405 
2440.0000   0.1759015305   -14.9283442931 
2450.0000   0.1470887199   17.7545638402 
2460.0000   0.1170937331   43.4564780486 
2470.0000   0.0941809210   63.7625682090 
2480.0000   0.0778946058   81.1974475330 
2490.0000   0.0660900010   96.9059048534 
2500.0000   0.0573664964   111.5414720175 
2510.0000   0.0508760880   125.7174502283 
2520.0000   0.0458942818   139.5172729711 
2530.0000   0.0421799846   153.1700668972 
2540.0000   0.0393073036   166.7518560391 
2550.0000   0.0372082079   -179.7595596773 
2560.0000   0.0356813565   -166.1145667497 
2570.0000   0.0346544120   -152.8296259021 
2580.0000   0.0341879002   -139.1036727701 
2590.0000   0.0342460924   -125.7011235406 
2600.0000   0.0346490844   -112.2096040127 
2610.0000   0.0356337176   -98.7819915979 
2620.0000   0.0371296898   -85.3261129244 
2630.0000   0.0392693136   -71.7672871586 
2640.0000   0.0420931226   -58.2068966260 
2650.0000   0.0458808751   -44.6172689768 
2660.0000   0.0507809789   -30.8973232852 
2670.0000   0.0573432222   -16.9461702154 
2680.0000   0.0660935766   -2.2949489752 
2690.0000   0.0778968807   12.8577723617 
2700.0000   0.0941545385   29.9004198324 
2710.0000   0.1169107180   49.1615512913 
2720.0000   0.1473055364   72.8878471598 
2730.0000   0.1810275498   103.4267991606 
2740.0000   0.1955325393   140.0799523314 
2750.0000   0.1763046854   175.2133293247 
2760.0000   0.1448945217   -156.7069829279 
2770.0000   0.1184617772   -134.8220975697 
2780.0000   0.0987544962   -116.2649704853 
2790.0000   0.0845014994   -99.5376727273 
2800.0000   0.0739580353   -83.8766325152 
2810.0000   0.0660766567   -69.1280475364 
2820.0000   0.0601001365   -54.1804640678 
2830.0000   0.0555673004   -39.5931162720 
2840.0000   0.0521860577   -20.0805956563 
2850.0000   0.0497140837   -5.2649673459 
2860.0000   0.0479702935   9.6483027068 
2870.0000   0.0469426997   24.7750237112 
2880.0000   0.0466101521   40.1028677013 
2890.0000   0.0465043658   55.7614254361 
2900.0000   0.0474000808   71.2306367213 
2910.0000   0.0489808306   86.7366344277 
2920.0000   0.0512729142   102.2357286848 
2930.0000   0.0542649309   117.4136310943 
2940.0000   0.0580827045   132.9815375997 
2950.0000   0.0628723216   148.3228387961 
2960.0000   0.0687436105   163.8038536698 
2970.0000   0.0761258613   179.3688012659 
2980.0000   0.0851836606   -164.6775179668 
2990.0000   0.0966541849   -148.1014229084 
3000.0000   0.1114867099   -130.4238443707 
3010.0000   0.1307793881   -111.4775490755 
3020.0000   0.1555927472   -89.8081670518 
3030.0000   0.1847422040   -64.1372204228 
3040.0000   0.2095272034   -32.9382590367 
3050.0000   0.2118917389   1.8636854245 
3060.0000   0.1880864461   35.4078198114 
3070.0000   0.1557628917   63.5970406601 
3080.0000   0.1274802541   86.9856510160 
3090.0000   0.1057207513   107.2112130229 
3100.0000   0.0892308834   125.5080807525 
3110.0000   0.0768888860   142.5795388481 
3120.0000   0.0673156764   159.0804906011 
3130.0000   0.0599954385   174.6721044177 
3140.0000   0.0543009869   -169.7459475830 
3150.0000   0.0498772042   -154.3032005991 
3160.0000   0.0465457800   -138.9200321995 
3170.0000   0.0440423505   -123.9118134999 
3180.0000   0.0422849760   -108.5524065618 
3190.0000   0.0412167052   -93.4332838339 
3200.0000   0.0407671008   -78.3308802268 
3210.0000   0.0409052185   -63.5025083792 
3220.0000   0.0416218259   -48.8001476717 
3230.0000   0.0428967841   -34.3006600926 
3240.0000   0.0447971128   -19.6503502736 
3250.0000   0.0474205387   -5.5787510584 
3260.0000   0.0508180265   8.6614202028 
3270.0000   0.0552318793   22.7923859303 
3280.0000   0.0608643320   37.1528164511 
3290.0000   0.0681234620   51.6888539416 
3300.0000   0.0776288535   67.1790103371 
3310.0000   0.0902894174   83.4598360541 
3320.0000   0.1067425081   101.6056028930 
3330.0000   0.1287190271   122.6646324255 
3340.0000   0.1545710642   148.7628321623 
3350.0000   0.1743047103   -178.9659741293 
3360.0000   0.1695583733   -142.9897388031 
3370.0000   0.1437172513   -111.0429761832 
3380.0000   0.1157751951   -84.5597253089 
3390.0000   0.0935009580   -62.6208165518 
3400.0000   0.0772491869   -43.2517911585 
3410.0000   0.0654756694   -25.6692287236 
3420.0000   0.0568979860   -8.6476314001 
3430.0000   0.0506077212   7.6489781975 
3440.0000   0.0459461088   23.5404484608 
3450.0000   0.0426761788   39.2168991332 
3460.0000   0.0403440093   54.5833325872 
3470.0000   0.0386972882   69.6817279659 
3480.0000   0.0374850496   84.9868067961 
3490.0000   0.0369426584   99.1401765415 
3500.0000   0.0365662603   113.5874696083 
3510.0000   0.0365775271   127.6884469107 
3520.0000   0.0366899011   141.6630874493 
3530.0000   0.0376668090   155.3193494177 
3540.0000   0.0387427327   169.1510174960 
3550.0000   0.0403068825   -177.3314912605 
3560.0000   0.0423324162   -163.8551705030 
3570.0000   0.0449369197   -150.3988731852 
3580.0000   0.0482255549   -136.7088690661 
3590.0000   0.0522036528   -122.8449380592 
3600.0000   0.0578552770   -108.0686193468 
3610.0000   0.0649308712   -93.3996529198 
3620.0000   0.0747584152   -77.1667361931 
3630.0000   0.0872928712   -59.1886053923 
3640.0000   0.1045989774   -40.6939646996 
3650.0000   0.1246780778   -14.6027967346 
3660.0000   0.1383155333   18.0095834165 
3670.0000   0.1320025664   53.5227578220 
3680.0000   0.1101509711   85.5796026367 
3690.0000   0.0873907165   111.6861790968 
3700.0000   0.0682854944   133.8049996675 
3710.0000   0.0558824982   152.9942963847 
3720.0000   0.0470664774   170.9482963515 
3730.0000   0.0404406797   -172.5118588015 
3740.0000   0.0358826160   -156.3298502432 
3750.0000   0.0323901889   -140.5028187795 
3760.0000   0.0298624091   -124.8342211075 
3770.0000   0.0280795854   -109.6491472884 
3780.0000   0.0268743432   -94.4268800496 
3790.0000   0.0259454998   -79.8298031654 
3800.0000   0.0256296141   -65.3921549184 
3810.0000   0.0254741708   -51.4911491801 
3820.0000   0.0258815853   -37.9054135371 
3830.0000   0.0263811581   -24.7391196435 
3840.0000   0.0271053568   -11.4755499906 
3850.0000   0.0280704963   1.0784710127 
3860.0000   0.0292643215   13.7538945919 
3870.0000   0.0308002134   26.3971929136 
3880.0000   0.0326886915   39.1035275687 
3890.0000   0.0350699369   51.8548812968 
3900.0000   0.0379251525   65.1940507375 
3910.0000   0.0415574779   79.0042855507 
3920.0000   0.0463186608   93.7543592710 
3930.0000   0.0527050017   109.8804701092 
3940.0000   0.0614037093   128.2089653746 
3950.0000   0.0727648054   150.0745019009 
3960.0000   0.0856206278   177.5088916746 
3970.0000   0.0936491919   -149.1943086209 
3980.0000   0.0885403721   -113.7103704253 
3990.0000   0.0735158639   -82.5899059117 
4000.0000   0.0586225655   -57.3484341655 
4010.0000   0.0471803197   -36.4261413751 
4020.0000   0.0388384778   -17.6649727480 
4030.0000   0.0328815732   -0.6433630553 
4040.0000   0.0285009879   15.4396809954 
4050.0000   0.0252470344   30.8818355424 
4060.0000   0.0227397580   45.8596604720 
4070.0000   0.0208338550   60.5123176641 
4080.0000   0.0193245845   75.3832103402 
4090.0000   0.0181459176   89.6050965886 
4100.0000   0.0172975182   104.0702764600 
4110.0000   0.0166854036   118.4179636074 
4120.0000   0.0162369719   133.1385972051 
4130.0000   0.0160722899   147.5159299402 
4140.0000   0.0161246085   162.2702012885 
4150.0000   0.0164028550   176.8034144986 
4160.0000   0.0169598878   -168.6194199637 
4170.0000   0.0178449628   -154.1988374893 
4180.0000   0.0190627111   -139.7486033420 
4190.0000   0.0207334542   -125.5345658327 
4200.0000   0.0228964179   -111.0263197511 
4210.0000   0.0256636542   -97.0137276564 
4220.0000   0.0293895563   -82.5050338209 
4230.0000   0.0342994037   -67.4744327552 
4240.0000   0.0408075727   -51.0749904725 
4250.0000   0.0497072295   -33.0216839477 
4260.0000   0.0611536856   -10.8829726746 
4270.0000   0.0727456621   16.4284492310 
4280.0000   0.0772281469   48.9112277600 
4290.0000   0.0698281102   81.3503790484 
4300.0000   0.0569725285   108.4572332839 
4310.0000   0.0455054290   130.1781135551 
4320.0000   0.0367656308   148.6586302907 
4330.0000   0.0302120026   164.6337465860 
4340.0000   0.0252372509   -179.9514841488 
4350.0000   0.0214256965   -164.8106452824 
4360.0000   0.0184244506   -149.3698435908 
4370.0000   0.0161910065   -133.3936331912 
4380.0000   0.0144912558   -116.3770931729 
4390.0000   0.0133960172   -98.6515844746 
