! 140 4400 10
# MHz S MA R 50.0
140.0000   0.0007125202   -91.8462879405 
150.0000   0.0007608841   -87.7212097048 
160.0000   0.0008080321   -79.7967211707 
170.0000   0.0008215261   -91.0387876395 
180.0000   0.0008452246   -62.3986974519 
190.0000   0.0008504689   -22.0319294120 
200.0000   0.0008440755   -49.4739578824 
210.0000   0.0008628113   -46.0929759680 
220.0000   0.0009021189   -43.8587195862 
230.0000   0.0009686574   -38.4755856838 
240.0000   0.0009832968   -35.9914076742 
250.0000   0.0010475548   -33.1866238171 
260.0000   0.0011334135   -26.4226017840 
270.0000   0.0012421717   -18.3336562100 
280.0000   0.0012516158   -13.0959843045 
290.0000   0.0015983009   -8.5083985293 
300.0000   0.0013839690   0.1520112864 
310.0000   0.0007557611   -8.5768189385 
320.0000   0.0015452589   15.7272618268 
330.0000   0.0016359377   21.4113701670 
340.0000   0.0017393024   29.7280310118 
350.0000   0.0018354778   35.4008888939 
360.0000   0.0018916367   43.2253583481 
370.0000   0.0019512812   51.7117312109 
380.0000   0.0020487319   58.8603760769 
390.0000   0.0021419238   67.0459677444 
400.0000   0.0021901416   74.1792542239 
410.0000   0.0018315128   59.7514461647 
420.0000   0.0023679744   90.4004938691 
430.0000   0.0021290929   109.6293267315 
440.0000   0.0024671159   107.3436009958 
450.0000   0.0025062593   114.7830036506 
460.0000   0.0025236848   122.6205729626 
470.0000   0.0025140216   130.5858092089 
480.0000   0.0025135115   137.4010171204 
490.0000   0.0025209297   144.1826568870 
500.0000   0.0025504112   151.3953544585 
510.0000   0.0025300281   157.4267204136 
520.0000   0.0025380686   162.6616510374 
530.0000   0.0022397386   170.3806027064 
540.0000   0.0025435850   174.2906830854 
550.0000   0.0025624053   -178.5660591416 
560.0000   0.0026314871   -175.9371022188 
570.0000   0.0027454958   -170.9858069264 
580.0000   0.0029069502   -166.8473504899 
590.0000   0.0031090007   -162.2299152293 
600.0000   0.0033333760   -157.1610599272 
610.0000   0.0035876441   -152.3882485479 
620.0000   0.0038540125   -147.0599351865 
630.0000   0.0041632575   -141.7150775441 
640.0000   0.0044736585   -135.8613616496 
650.0000   0.0048377321   -128.1185879098 
660.0000   0.0051004542   -120.9576970566 
670.0000   0.0055910319   -112.5300905676 
680.0000   0.0056728131   -104.5159552528 
690.0000   0.0059445346   -95.8522701475 
700.0000   0.0061776373   -86.6899626823 
710.0000   0.0063694188   -78.1016213976 
720.0000   0.0065076883   -69.0819531367 
730.0000   0.0066458200   -60.4560141047 
740.0000   0.0067746992   -51.3876175949 
750.0000   0.0068193082   -42.4987407007 
760.0000   0.0068158893   -33.4600623612 
770.0000   0.0067690615   -23.7502721971 
780.0000   0.0067248489   -15.8499794171 
790.0000   0.0065966347   -7.1985054450 
800.0000   0.0064392222   1.0109533975 
810.0000   0.0062518267   8.8450328976 
820.0000   0.0060113694   15.7304611391 
830.0000   0.0057900855   22.6822891203 
840.0000   0.0054802608   28.3229181305 
850.0000   0.0052159825   34.0030007792 
860.0000   0.0050054108   39.0075351294 
870.0000   0.0048089307   43.6684695706 
880.0000   0.0046821115   48.1465440098 
890.0000   0.0045529096   51.2728171574 
900.0000   0.0045867279   54.8669959822 
910.0000   0.0045579745   58.1310345311 
920.0000   0.0047612899   61.3182381679 
930.0000   0.0049517939   65.3005111710 
940.0000   0.0051885349   69.8832980822 
950.0000   0.0054691071   75.1160041660 
960.0000   0.0057413097   80.6153065172 
970.0000   0.0060718881   86.6855628638 
980.0000   0.0063672623   93.3665762599 
990.0000   0.0066770918   101.0061462275 
1000.0000   0.0069575114   109.2769723929 
1010.0000   0.0071865734   116.8104849478 
1020.0000   0.0073753043   126.7693830933 
1030.0000   0.0075692428   135.5954549692 
1040.0000   0.0076782900   144.4117023702 
1050.0000   0.0077628353   153.4078791240 
1060.0000   0.0078175697   162.0765083571 
1070.0000   0.0078645107   171.1278002223 
1080.0000   0.0078744996   -179.8280114584 
1090.0000   0.0077922309   -170.9719738625 
1100.0000   0.0077271848   -162.1794499831 
1110.0000   0.0075758174   -153.8864188789 
1120.0000   0.0073541956   -145.5530629886 
1130.0000   0.0070094204   -138.4504349501 
1140.0000   0.0067744966   -130.9879597977 
1150.0000   0.0064312688   -123.5249271038 
1160.0000   0.0060347512   -118.1033647225 
1170.0000   0.0056203232   -112.6074506760 
1180.0000   0.0052451485   -108.0448270357 
1190.0000   0.0048815116   -104.6641095253 
1200.0000   0.0046042929   -102.1283667567 
1210.0000   0.0044034467   -101.1417921721 
1220.0000   0.0042728988   -100.5844484498 
1230.0000   0.0042612060   -100.4733514189 
1240.0000   0.0044092273   -99.8651368044 
1250.0000   0.0046386744   -98.1883903893 
1260.0000   0.0049715885   -96.7070833494 
1270.0000   0.0053996708   -93.4400997761 
1280.0000   0.0059037060   -88.5404974540 
1290.0000   0.0064263888   -82.8039166086 
1300.0000   0.0070121099   -76.4119051578 
1310.0000   0.0075905678   -69.4127735201 
1320.0000   0.0081701371   -62.0526990621 
1330.0000   0.0086953641   -54.1167336913 
1340.0000   0.0091807974   -45.9861708601 
1350.0000   0.0096569178   -37.3869932690 
1360.0000   0.0099869156   -28.6123469966 
1370.0000   0.0102627849   -19.4991260511 
1380.0000   0.0105360614   -10.3417798551 
1390.0000   0.0105994911   -0.6683600294 
1400.0000   0.0107598490   9.2312747264 
1410.0000   0.0107270943   19.4923469185 
1420.0000   0.0106684691   30.1009436311 
1430.0000   0.0104884385   40.6192570761 
1440.0000   0.0101956284   51.8336175576 
1450.0000   0.0097685977   62.6717795655 
1460.0000   0.0092090458   73.8364708586 
1470.0000   0.0085327634   84.5083110190 
1480.0000   0.0077813822   94.5023810303 
1490.0000   0.0069515140   102.9579984468 
1500.0000   0.0061815563   111.1939791556 
1510.0000   0.0054227050   117.4316481758 
1520.0000   0.0046994427   121.2136567664 
1530.0000   0.0040760695   122.6481434733 
1540.0000   0.0036298642   120.4142569838 
1550.0000   0.0033887583   115.7155012272 
1560.0000   0.0034757156   109.5238236455 
1570.0000   0.0038666277   105.7005447098 
1580.0000   0.0045150267   105.5540499529 
1590.0000   0.0052623805   108.8582761999 
1600.0000   0.0060920164   114.3181929941 
1610.0000   0.0069915175   121.3004804536 
1620.0000   0.0078944887   130.4274963013 
1630.0000   0.0087780460   140.0455052381 
1640.0000   0.0096690222   149.6877278787 
1650.0000   0.0104747383   160.0999039124 
1660.0000   0.0112409292   170.8885415177 
1670.0000   0.0119209182   -178.2902956598 
1680.0000   0.0124822220   -167.0261786715 
1690.0000   0.0129159848   -156.0030610049 
1700.0000   0.0132579654   -144.7960883140 
1710.0000   0.0134095394   -133.5096203185 
1720.0000   0.0134109998   -122.5193472481 
1730.0000   0.0133131743   -111.1432581260 
1740.0000   0.0129847484   -100.3784001732 
1750.0000   0.0124861104   -89.6558473225 
1760.0000   0.0119499000   -79.3994226179 
1770.0000   0.0112276780   -69.4840451704 
1780.0000   0.0104305118   -59.8164401496 
1790.0000   0.0095063722   -50.8927424414 
1800.0000   0.0085755771   -42.5266604776 
1810.0000   0.0076652530   -35.2750029107 
1820.0000   0.0066786382   -29.5937432894 
1830.0000   0.0057305354   -25.1754390177 
1840.0000   0.0049162526   -23.4140737249 
1850.0000   0.0042224099   -26.7212372745 
1860.0000   0.0038211727   -31.5783158271 
1870.0000   0.0038259331   -39.8748051149 
1880.0000   0.0042194961   -45.5381395455 
1890.0000   0.0048984004   -47.9490284495 
1900.0000   0.0057443711   -46.3692967807 
1910.0000   0.0066086351   -42.1223297370 
1920.0000   0.0074834603   -36.1172118433 
1930.0000   0.0083472587   -29.0774308932 
1940.0000   0.0091348996   -20.8278005355 
1950.0000   0.0098516026   -12.0974239902 
1960.0000   0.0104477717   -2.7860499116 
1970.0000   0.0109021908   6.7702013463 
1980.0000   0.0113267464   16.6581213621 
1990.0000   0.0115816064   26.4698537103 
2000.0000   0.0117686721   36.8944251750 
2010.0000   0.0118049775   47.4178408593 
2020.0000   0.0117430881   58.0829533819 
2030.0000   0.0115398828   69.2242906240 
2040.0000   0.0112233413   80.9075533982 
2050.0000   0.0107119413   92.6007978848 
2060.0000   0.0100888542   104.5917054938 
2070.0000   0.0093387397   116.3955374825 
2080.0000   0.0085545532   128.3628238531 
2090.0000   0.0077032525   140.0645228356 
2100.0000   0.0068242838   151.6942092811 
2110.0000   0.0059194973   162.4234425579 
2120.0000   0.0050047864   173.1726529910 
2130.0000   0.0041230535   -176.8525638482 
2140.0000   0.0032449483   -168.4652161905 
2150.0000   0.0024094102   -162.5638644265 
2160.0000   0.0016100430   -163.4681662723 
2170.0000   0.0010450506   179.3724441735 
2180.0000   0.0010433282   140.4407694695 
2190.0000   0.0016583408   122.7114866855 
2200.0000   0.0023693277   122.7075946221 
2210.0000   0.0030744342   128.2290771304 
2220.0000   0.0038789958   136.6743341163 
2230.0000   0.0046754346   145.6554050241 
2240.0000   0.0054531174   156.0742980299 
2250.0000   0.0061431433   166.3792286201 
2260.0000   0.0068269319   177.2034130724 
2270.0000   0.0074344134   -171.7277830842 
2280.0000   0.0079459710   -160.4504821844 
2290.0000   0.0083997740   -148.7951734955 
2300.0000   0.0087756367   -137.2802206963 
2310.0000   0.0090001285   -125.4525512244 
2320.0000   0.0091769024   -113.7979119774 
2330.0000   0.0091816441   -102.1872214464 
2340.0000   0.0091353072   -89.8816194270 
2350.0000   0.0089732774   -77.9406091144 
2360.0000   0.0086818848   -65.7817252228 
2370.0000   0.0082570654   -54.0076989133 
2380.0000   0.0078545562   -42.1599836046 
2390.0000   0.0073514013   -30.3238710597 
2400.0000   0.0067817924   -18.5063627366 
2410.0000   0.0061736747   -6.8174079271 
2420.0000   0.0055376160   5.1036918408 
2430.0000   0.0048561103   16.4844378018 
2440.0000   0.0041550413   27.7333843642 
2450.0000   0.0034640742   38.2476737487 
2460.0000   0.0027512867   49.6496123847 
2470.0000   0.0020577224   60.2722241254 
2480.0000   0.0013348173   69.5653770702 
2490.0000   0.0005987077   74.7689905768 
2500.0000   0.0001729897   -45.7444865548 
2510.0000   0.0008629513   -65.9864137756 
2520.0000   0.0015151176   -56.5780222544 
2530.0000   0.0022233938   -46.3995735716 
2540.0000   0.0029401208   -36.3706270601 
2550.0000   0.0036297682   -25.7088978132 
2560.0000   0.0043198596   -15.0874276465 
2570.0000   0.0049884304   -3.6365957007 
2580.0000   0.0056570139   7.7557006737 
2590.0000   0.0062704956   18.7798419376 
2600.0000   0.0068266722   30.1113530558 
2610.0000   0.0073229549   41.4292656475 
2620.0000   0.0078027437   52.9794096249 
2630.0000   0.0081802001   64.2119078981 
2640.0000   0.0084785955   75.6121500312 
2650.0000   0.0087054882   86.9655968285 
2660.0000   0.0088398251   98.5650845166 
2670.0000   0.0088591178   110.0518226080 
2680.0000   0.0087383633   121.3664085509 
2690.0000   0.0085345699   131.8909565771 
2700.0000   0.0082406165   143.0740256715 
2710.0000   0.0078658361   153.7919743011 
2720.0000   0.0074147738   164.2517758169 
2730.0000   0.0068245544   174.7003396509 
2740.0000   0.0061583710   -175.4765903013 
2750.0000   0.0054162587   -165.8203107330 
2760.0000   0.0045992868   -157.1725662349 
2770.0000   0.0037487888   -149.4351578167 
2780.0000   0.0028666706   -143.4866229635 
2790.0000   0.0019615092   -142.7037956632 
2800.0000   0.0011526021   -155.7732587440 
2810.0000   0.0009758947   157.1297398474 
2820.0000   0.0016932227   131.1087866008 
2830.0000   0.0026915301   129.7783853190 
2840.0000   0.0037994040   139.7076272821 
2850.0000   0.0048497229   147.7595833147 
2860.0000   0.0059057507   156.9832071780 
2870.0000   0.0069733090   167.4386393402 
2880.0000   0.0079508459   178.6008355982 
2890.0000   0.0095041262   -169.5966931585 
2900.0000   0.0103720712   -158.5164865375 
2910.0000   0.0111404627   -147.1157275398 
2920.0000   0.0117700533   -135.3484430404 
2930.0000   0.0122517799   -123.7206494008 
2940.0000   0.0125375334   -111.3830597491 
2950.0000   0.0125919200   -99.0641735345 
2960.0000   0.0125832447   -86.7061330507 
2970.0000   0.0123727270   -74.4907787809 
2980.0000   0.0120009428   -61.9126173295 
2990.0000   0.0114480766   -49.1259318882 
3000.0000   0.0108055270   -36.6049326816 
3010.0000   0.0099948254   -24.2478342749 
3020.0000   0.0090598259   -12.2210827669 
3030.0000   0.0080725286   -0.4528575700 
3040.0000   0.0071179538   11.0561274139 
3050.0000   0.0060846827   22.2152909950 
3060.0000   0.0049845097   33.1514818064 
3070.0000   0.0038899161   42.9671873192 
3080.0000   0.0028624005   49.8758290599 
3090.0000   0.0018783580   50.3956962365 
3100.0000   0.0011204405   32.6847348753 
3110.0000   0.0010887298   -12.5112104460 
3120.0000   0.0018028816   -27.7476229232 
3130.0000   0.0026553999   -26.5659829749 
3140.0000   0.0035207373   -20.0770637070 
3150.0000   0.0044252062   -11.5902520582 
3160.0000   0.0052515813   -2.1581090605 
3170.0000   0.0060217114   8.0474206768 
3180.0000   0.0067656856   19.1790711209 
3190.0000   0.0074191394   30.1444536394 
3200.0000   0.0080384286   41.0296861470 
3210.0000   0.0086019736   51.9709387406 
3220.0000   0.0090306967   62.9081556860 
3230.0000   0.0093943273   73.9092704074 
3240.0000   0.0096745010   85.2331750986 
3250.0000   0.0098311725   95.6934273467 
3260.0000   0.0098314961   106.3755735339 
3270.0000   0.0097202011   116.6595931819 
3280.0000   0.0094872117   126.7246251056 
3290.0000   0.0091116355   136.1984360304 
3300.0000   0.0086220108   145.7417354366 
3310.0000   0.0080108655   154.8151896440 
3320.0000   0.0073271749   163.2622515078 
3330.0000   0.0065134377   170.9382209632 
3340.0000   0.0056711033   177.8686820457 
3350.0000   0.0048416364   -176.9085004877 
3360.0000   0.0040322337   -173.9674253415 
3370.0000   0.0033579508   -174.6809515692 
3380.0000   0.0028437806   -179.7121599467 
3390.0000   0.0025546739   171.1370166873 
3400.0000   0.0026364015   160.1835005554 
3410.0000   0.0030368111   153.9859616413 
3420.0000   0.0035508281   153.3906965900 
3430.0000   0.0041615840   156.1208221553 
3440.0000   0.0047647991   161.2349530696 
3450.0000   0.0053571218   167.7008504003 
3460.0000   0.0058730085   175.5492218789 
3470.0000   0.0063173265   -176.0633560166 
3480.0000   0.0067196653   -166.3274477343 
3490.0000   0.0070115097   -157.4285650425 
3500.0000   0.0072185335   -147.8136587620 
3510.0000   0.0073465632   -138.2129618837 
3520.0000   0.0074153925   -127.8884221130 
3530.0000   0.0074572742   -117.5399621298 
3540.0000   0.0073871911   -106.4998193591 
3550.0000   0.0072641208   -95.7931425961 
3560.0000   0.0070544670   -85.4808196364 
3570.0000   0.0067910636   -75.3518770685 
3580.0000   0.0065279629   -64.7282570913 
3590.0000   0.0062053935   -54.5394812647 
3600.0000   0.0058766457   -44.1718490000 
3610.0000   0.0054964547   -35.3846385239 
3620.0000   0.0051273040   -26.6626785562 
3630.0000   0.0047015941   -18.9576977966 
3640.0000   0.0041211257   -14.7089759332 
3650.0000   0.0037389999   -9.4896141884 
3660.0000   0.0034439895   -5.7627688777 
3670.0000   0.0031932464   -3.5237302309 
3680.0000   0.0030058505   -3.0697020733 
3690.0000   0.0029235226   -4.2394988831 
3700.0000   0.0030085950   -15.3961111819 
3710.0000   0.0032179745   -15.3483358536 
3720.0000   0.0034840708   -13.3548969581 
3730.0000   0.0038214822   -10.6623038255 
3740.0000   0.0041378488   -5.3095344154 
3750.0000   0.0044763003   0.0048556690 
3760.0000   0.0047903828   5.9817579447 
3770.0000   0.0050825236   12.5048052076 
3780.0000   0.0053816314   19.6262222067 
3790.0000   0.0055917659   27.5465509246 
3800.0000   0.0057549278   35.5434314854 
3810.0000   0.0058927041   43.6771017856 
3820.0000   0.0059502143   51.5455224710 
3830.0000   0.0059398106   59.3886298411 
3840.0000   0.0059191110   68.1960812664 
3850.0000   0.0058078812   75.9398690912 
3860.0000   0.0056674213   83.7013926349 
3870.0000   0.0054816970   91.7144241834 
3880.0000   0.0052253836   99.3252893365 
3890.0000   0.0049788944   106.7559809673 
3900.0000   0.0047498822   114.5292715050 
3910.0000   0.0044377616   121.5944469539 
3920.0000   0.0041250389   127.8851685592 
3930.0000   0.0038387300   133.7361690648 
3940.0000   0.0035857476   139.8196479617 
3950.0000   0.0033684041   145.6115105339 
3960.0000   0.0031639875   151.4741711529 
3970.0000   0.0029771159   156.5078010886 
3980.0000   0.0027987401   161.6007540397 
3990.0000   0.0026974614   167.3050929199 
4000.0000   0.0025996273   172.8741036514 
4010.0000   0.0025328584   179.5981161167 
4020.0000   0.0025079979   -173.7401885865 
4030.0000   0.0024577822   -166.2772479427 
4040.0000   0.0024602176   -158.3301362222 
4050.0000   0.0024582424   -149.5404469484 
4060.0000   0.0025528698   -139.9892321945 
4070.0000   0.0026339218   -129.6067970674 
4080.0000   0.0027488983   -119.6376862340 
4090.0000   0.0028153827   -109.1310726673 
4100.0000   0.0029215786   -98.7031521810 
4110.0000   0.0030573868   -89.1782186568 
4120.0000   0.0032362378   -78.9455679779 
4130.0000   0.0034299266   -69.4997815257 
4140.0000   0.0035805905   -59.5771102154 
4150.0000   0.0037220697   -50.2842848690 
4160.0000   0.0038851578   -41.4818897015 
4170.0000   0.0040104690   -32.6502174311 
4180.0000   0.0041423943   -25.0221596966 
4190.0000   0.0042939390   -17.8105480266 
4200.0000   0.0043730958   -10.8029375307 
4210.0000   0.0044968376   -4.2762940037 
4220.0000   0.0045829662   1.5909483572 
4230.0000   0.0046491516   7.2262762208 
4240.0000   0.0047439617   12.4224517625 
4250.0000   0.0048604495   16.6244362893 
4260.0000   0.0050116838   21.0661061805 
4270.0000   0.0051485215   25.7262184861 
4280.0000   0.0053000053   30.0698124866 
4290.0000   0.0055012435   34.3502435407 
4300.0000   0.0057259456   38.6849039379 
4310.0000   0.0059396684   42.9190367572 
4320.0000   0.0061820091   47.9294134665 
4330.0000   0.0064178598   52.2996186520 
4340.0000   0.0066431169   57.8281204364 
4350.0000   0.0068423631   62.8392632398 
4360.0000   0.0070670635   68.0062382987 
4370.0000   0.0073139553   73.3315083447 
4380.0000   0.0074623892   79.4648655990 
4390.0000   0.0075942126   85.7994307402 
