! 140 4400 10
# MHz S MA R 50.0
140.0000   0.0227210950   -149.0891141188 
150.0000   0.0318440933   -113.1847894522 
160.0000   0.0325446648   -67.6052368844 
170.0000   0.0269951869   -22.4564784971 
180.0000   0.0214210038   1.7149023883 
190.0000   0.0172266710   22.1261762063 
200.0000   0.0145389442   40.1268430831 
210.0000   0.0127495399   54.7790854101 
220.0000   0.0117813851   68.1113400595 
230.0000   0.0109940325   81.8655536203 
240.0000   0.0102830747   94.9725630419 
250.0000   0.0099088590   108.4058651230 
260.0000   0.0097998164   123.5489852303 
270.0000   0.0097629319   138.5429175668 
280.0000   0.0097128013   153.5693424697 
290.0000   0.0099125846   167.5244251777 
300.0000   0.0099240722   -176.6068994106 
310.0000   0.0103186958   -166.4274230051 
320.0000   0.0105939685   -147.3147303398 
330.0000   0.0112474739   -133.3089509814 
340.0000   0.0121434966   -119.4975979424 
350.0000   0.0133569174   -106.1394073848 
360.0000   0.0149015415   -92.5475469577 
370.0000   0.0168623478   -78.6632707274 
380.0000   0.0194674521   -64.6907382448 
390.0000   0.0226530682   -50.4937848017 
400.0000   0.0269542866   -36.0684297294 
410.0000   0.0338376354   -21.3491315646 
420.0000   0.0413282084   -3.2208263815 
430.0000   0.0534514503   16.9369089510 
440.0000   0.0725785037   41.4911835276 
450.0000   0.0948523692   74.8321473711 
460.0000   0.1027526538   116.1497376625 
470.0000   0.0885075193   153.4968328359 
480.0000   0.0703579326   -178.5923458789 
490.0000   0.0569605002   -157.0605985632 
500.0000   0.0476044738   -138.9724206258 
510.0000   0.0412166550   -122.7602850145 
520.0000   0.0364588560   -107.7687678914 
530.0000   0.0329785190   -92.6737980638 
540.0000   0.0302593145   -78.9729280611 
550.0000   0.0283465807   -65.0806432755 
560.0000   0.0271458087   -51.1560084001 
570.0000   0.0264576378   -37.0892236370 
580.0000   0.0261502481   -22.8072030170 
590.0000   0.0261274585   -8.5171895336 
600.0000   0.0264802146   5.9954264836 
610.0000   0.0271256632   20.8008051345 
620.0000   0.0280835861   35.8782830557 
630.0000   0.0293957981   51.0244646041 
640.0000   0.0309945695   66.1288629133 
650.0000   0.0331750949   81.4411275132 
660.0000   0.0357080174   96.7538468091 
670.0000   0.0391654648   111.6477868524 
680.0000   0.0437808925   127.3731271478 
690.0000   0.0495685866   142.9384227043 
700.0000   0.0571138019   158.8430041240 
710.0000   0.0671800093   175.1742213067 
720.0000   0.0812917949   -167.3047153729 
730.0000   0.1013478990   -147.9042684138 
740.0000   0.1307041334   -124.8439293048 
750.0000   0.1700504341   -95.0442820357 
760.0000   0.2009647482   -55.8531260022 
770.0000   0.1882786116   -14.6324805660 
780.0000   0.1513881536   18.1981268797 
790.0000   0.1196153687   42.9508052039 
800.0000   0.0970723606   63.0222894652 
810.0000   0.0811219695   80.6147584461 
820.0000   0.0693505195   96.7384207582 
830.0000   0.0604985756   112.1312213658 
840.0000   0.0538486261   127.0957611718 
850.0000   0.0485313462   141.9436673784 
860.0000   0.0444975580   156.6470635777 
870.0000   0.0413324573   171.4097924309 
880.0000   0.0390263926   -173.9279978326 
890.0000   0.0373635887   -159.0645281688 
900.0000   0.0361085144   -144.0323440249 
910.0000   0.0354076802   -128.9925911083 
920.0000   0.0353142280   -113.8169209191 
930.0000   0.0357956922   -98.6327686142 
940.0000   0.0367780180   -83.4180124337 
950.0000   0.0384436138   -68.3152237400 
960.0000   0.0408902794   -53.2530729282 
970.0000   0.0438732099   -38.4368171993 
980.0000   0.0478899266   -23.6457568272 
990.0000   0.0531824720   -8.7110163471 
1000.0000   0.0599397984   6.3201145423 
1010.0000   0.0688268085   21.6640194506 
1020.0000   0.0806047656   37.9350333608 
1030.0000   0.0968873147   55.3402831810 
1040.0000   0.1199845472   75.1117972476 
1050.0000   0.1520106296   99.2855166076 
1060.0000   0.1890087897   130.9919118703 
1070.0000   0.2040066551   170.3324324238 
1080.0000   0.1774504369   -152.2727000935 
1090.0000   0.1391294866   -123.7073238078 
1100.0000   0.1096652479   -101.8920866328 
1110.0000   0.0890445583   -83.8244234127 
1120.0000   0.0746794097   -67.8927050490 
1130.0000   0.0642535461   -53.1103384828 
1140.0000   0.0564573100   -39.1004255136 
1150.0000   0.0503910246   -25.3237658378 
1160.0000   0.0458084055   -11.8483830224 
1170.0000   0.0422199824   1.6080446078 
1180.0000   0.0393449860   15.1039096598 
1190.0000   0.0373417526   28.8204830360 
1200.0000   0.0359727445   42.6381357325 
1210.0000   0.0350720465   56.6440025359 
1220.0000   0.0346883215   70.8551746547 
1230.0000   0.0349275159   85.1926891806 
1240.0000   0.0356449366   99.5768277470 
1250.0000   0.0370112157   113.8407427235 
1260.0000   0.0391014690   128.2008415991 
1270.0000   0.0420542461   142.3999084772 
1280.0000   0.0458713177   156.3370552692 
1290.0000   0.0507771975   170.3567429827 
1300.0000   0.0574829489   -175.5459805739 
1310.0000   0.0662958311   -161.3288657552 
1320.0000   0.0780900793   -146.4891659811 
1330.0000   0.0942579911   -130.7740066338 
1340.0000   0.1165297469   -113.1108781416 
1350.0000   0.1480145228   -92.1230490094 
1360.0000   0.1886671821   -65.1502992829 
1370.0000   0.2221376193   -30.2132078645 
1380.0000   0.2156291252   7.9845127154 
1390.0000   0.1793250674   39.9744501882 
1400.0000   0.1436205943   64.7341081731 
1410.0000   0.1171237842   84.6673304873 
1420.0000   0.0986864511   102.2241959972 
1430.0000   0.0849122158   118.0525255781 
1440.0000   0.0748164221   133.1649251232 
1450.0000   0.0672748120   147.8051637035 
1460.0000   0.0615910175   162.4883000276 
1470.0000   0.0571417176   177.0417219903 
1480.0000   0.0537473323   -168.3440022266 
1490.0000   0.0512539990   -153.7212515175 
1500.0000   0.0494525952   -139.0881129061 
1510.0000   0.0485615633   -124.3485772748 
1520.0000   0.0482932656   -109.6621029616 
1530.0000   0.0487852728   -94.8572398139 
1540.0000   0.0497932825   -80.0006482781 
1550.0000   0.0514935862   -65.0358724362 
1560.0000   0.0538305452   -49.9378544072 
1570.0000   0.0568964958   -34.7037180233 
1580.0000   0.0608752758   -19.3501750723 
1590.0000   0.0662504916   -3.9477445698 
1600.0000   0.0731058431   11.7577334000 
1610.0000   0.0818678539   27.6167026117 
1620.0000   0.0935152451   44.0031268920 
1630.0000   0.1088344113   60.9282265280 
1640.0000   0.1300048009   79.0996105536 
1650.0000   0.1594779778   99.4212181618 
1660.0000   0.2002032656   123.4275658230 
1670.0000   0.2484582106   153.8729718842 
1680.0000   0.2784461166   -168.3294738319 
1690.0000   0.2576781353   -130.1973116741 
1700.0000   0.2107241386   -98.9770728449 
1710.0000   0.1687902398   -74.6162309243 
1720.0000   0.1378411970   -54.4558937090 
1730.0000   0.1153953731   -36.6539887195 
1740.0000   0.0989406506   -20.2780421808 
1750.0000   0.0862993429   -4.7694872265 
1760.0000   0.0765075490   10.2932634830 
1770.0000   0.0688039765   25.1577446185 
1780.0000   0.0626593055   39.8502915789 
1790.0000   0.0579583138   54.6183247258 
1800.0000   0.0543730895   69.5824369544 
1810.0000   0.0515937431   84.4682719050 
1820.0000   0.0496249603   99.2484534097 
1830.0000   0.0486293835   114.4234214812 
1840.0000   0.0483571111   129.6395799915 
1850.0000   0.0488468283   144.7755360222 
1860.0000   0.0503042114   159.7778093120 
1870.0000   0.0523482950   174.7881206637 
1880.0000   0.0552462828   -170.3864921376 
1890.0000   0.0589727902   -155.5284903774 
1900.0000   0.0639284173   -140.8964898623 
1910.0000   0.0703458581   -126.1074197219 
1920.0000   0.0785414268   -111.0530863741 
1930.0000   0.0890575300   -95.6832843066 
1940.0000   0.1028804595   -79.5408170127 
1950.0000   0.1214320273   -61.9150070222 
1960.0000   0.1464507516   -41.8433569418 
1970.0000   0.1786814949   -17.3394605307 
1980.0000   0.2106580599   13.8619815260 
1990.0000   0.2189699848   50.5067950663 
2000.0000   0.1922057210   85.1970037346 
2010.0000   0.1544701299   113.1404260804 
2020.0000   0.1231489700   135.4811510768 
2030.0000   0.1000235429   154.4328120127 
2040.0000   0.0831508955   171.5635183666 
2050.0000   0.0706761549   -172.3685103047 
2060.0000   0.0612684479   -156.8123343148 
2070.0000   0.0542887660   -141.7178228520 
2080.0000   0.0490009138   -126.6581187450 
2090.0000   0.0450003290   -111.8355693560 
2100.0000   0.0421044627   -96.8798783869 
2110.0000   0.0400131963   -82.3077035525 
2120.0000   0.0385678583   -67.4515769336 
2130.0000   0.0377026124   -52.7911812268 
2140.0000   0.0373712912   -38.0553226784 
2150.0000   0.0375607715   -23.5228478614 
2160.0000   0.0382831124   -8.9207434443 
2170.0000   0.0394898761   5.5990977384 
2180.0000   0.0413222939   19.9596250330 
2190.0000   0.0438013040   34.3144718197 
2200.0000   0.0467128521   50.8850137264 
2210.0000   0.0506395446   64.2852199797 
2220.0000   0.0560311738   78.6808326531 
2230.0000   0.0630223111   93.2519326965 
2240.0000   0.0721114594   108.4327389926 
2250.0000   0.0844101992   124.4047624030 
2260.0000   0.1013499309   142.1392051495 
2270.0000   0.1247369216   162.8701858347 
2280.0000   0.1551230013   -171.4413156120 
2290.0000   0.1837664440   -138.3319464426 
2300.0000   0.1847990090   -100.7258786534 
2310.0000   0.1561147496   -66.9464057195 
2320.0000   0.1239045636   -40.6322505254 
2330.0000   0.0990491035   -19.7139042182 
2340.0000   0.0813349120   -1.7479268059 
2350.0000   0.0684864894   14.3944991285 
2360.0000   0.0590820351   29.5580444608 
2370.0000   0.0519902189   44.0566030007 
2380.0000   0.0466530412   58.1321139528 
2390.0000   0.0424697784   72.0261916290 
2400.0000   0.0393047331   85.9260561514 
2410.0000   0.0368820231   99.8368602877 
2420.0000   0.0350713946   113.6147675353 
2430.0000   0.0338042722   127.3922133198 
2440.0000   0.0330142083   141.1028459553 
2450.0000   0.0326512126   154.5928655861 
2460.0000   0.0327849206   168.4023714688 
2470.0000   0.0333062891   -178.0576648486 
2480.0000   0.0343551163   -164.5205335864 
2490.0000   0.0358952139   -150.9043468242 
2500.0000   0.0380134734   -137.4426673938 
2510.0000   0.0408443661   -123.6959743928 
2520.0000   0.0445631010   -110.0379560185 
2530.0000   0.0495965480   -95.9981072771 
2540.0000   0.0562007207   -81.5347450972 
2550.0000   0.0652096563   -66.5918622620 
2560.0000   0.0776896650   -50.4519402793 
2570.0000   0.0950964350   -32.4698310300 
2580.0000   0.1195970641   -10.5075405258 
2590.0000   0.1494711715   17.4167194240 
2600.0000   0.1698464353   52.9427277377 
2610.0000   0.1590486006   89.9829090666 
2620.0000   0.1306241956   120.3498907014 
2630.0000   0.1047279067   143.5964082608 
2640.0000   0.0856461037   162.4498588407 
2650.0000   0.0720220550   178.7403471093 
2660.0000   0.0621867560   -166.3644725378 
2670.0000   0.0548550387   -152.3315997353 
2680.0000   0.0493062041   -138.4985587750 
2690.0000   0.0451025176   -125.1844243609 
2700.0000   0.0418996372   -111.4827319966 
2710.0000   0.0395162960   -98.0328909213 
2720.0000   0.0377274062   -84.4808947612 
2730.0000   0.0365590029   -70.6067331566 
2740.0000   0.0359787156   -56.7415726031 
2750.0000   0.0359480205   -42.6740548315 
2760.0000   0.0364089641   -28.3404947775 
2770.0000   0.0373811294   -14.2282801631 
2780.0000   0.0390212283   0.1514494276 
2790.0000   0.0413783666   14.6176908305 
2800.0000   0.0445260851   28.9892251604 
2810.0000   0.0484937129   43.1501232105 
2820.0000   0.0537845969   57.8585262468 
2830.0000   0.0604100870   72.5312157451 
2840.0000   0.0690717984   92.3996370181 
2850.0000   0.0801988026   108.0982987292 
2860.0000   0.0948632771   124.7992984498 
2870.0000   0.1146577345   143.2554821227 
2880.0000   0.1411438436   164.4589693512 
2890.0000   0.1758056456   -170.2031507288 
2900.0000   0.2074578135   -138.9079816490 
2910.0000   0.2144250144   -103.2434743349 
2920.0000   0.1905792487   -69.3724413355 
2930.0000   0.1574281459   -41.4251766643 
2940.0000   0.1294370556   -18.0403733341 
2950.0000   0.1079235489   2.0461530674 
2960.0000   0.0918341093   20.4443158470 
2970.0000   0.0797260371   37.7466508077 
2980.0000   0.0704434485   54.3202165976 
2990.0000   0.0633445858   70.6239517358 
3000.0000   0.0577519214   86.9561380910 
3010.0000   0.0534321477   102.8836457238 
3020.0000   0.0502389453   118.9101730190 
3030.0000   0.0477259647   134.8301277811 
3040.0000   0.0460217732   150.6646986455 
3050.0000   0.0449593654   166.0814967369 
3060.0000   0.0445306213   -178.1448578402 
3070.0000   0.0445807796   -162.7229164521 
3080.0000   0.0452067434   -147.5384255991 
3090.0000   0.0463540265   -132.4662209380 
3100.0000   0.0481237503   -117.4105277114 
3110.0000   0.0505544841   -102.6047454255 
3120.0000   0.0537113147   -87.6916447378 
3130.0000   0.0579368497   -73.0419098022 
3140.0000   0.0631543740   -58.0759738166 
3150.0000   0.0700157993   -42.8716547526 
3160.0000   0.0789156430   -27.0922675692 
3170.0000   0.0907079977   -10.5754576145 
3180.0000   0.1066608551   7.9929065665 
3190.0000   0.1279226144   29.1881467574 
3200.0000   0.1544475603   54.9919489221 
3210.0000   0.1782774809   86.9641854695 
3220.0000   0.1796935347   122.9531460306 
3230.0000   0.1546567333   156.1386555753 
3240.0000   0.1242817279   -176.5146768233 
3250.0000   0.0996204848   -154.6059715330 
3260.0000   0.0814211229   -135.3995391028 
3270.0000   0.0681235157   -118.0426796224 
3280.0000   0.0582536823   -101.5064516935 
3290.0000   0.0509523381   -85.7132178258 
3300.0000   0.0455606896   -69.7139474136 
3310.0000   0.0415447871   -53.9893816319 
3320.0000   0.0386395558   -38.4615442435 
3330.0000   0.0366938989   -22.9201188260 
3340.0000   0.0354458531   -7.5208331639 
3350.0000   0.0349179917   7.6431786704 
3360.0000   0.0348822269   22.9584838242 
3370.0000   0.0354304032   37.1578490677 
3380.0000   0.0364098207   51.3462641966 
3390.0000   0.0377823042   65.2875877445 
3400.0000   0.0395910104   79.1122356463 
3410.0000   0.0418901413   92.4518477217 
3420.0000   0.0446997307   106.2252812995 
3430.0000   0.0481285480   119.7424975831 
3440.0000   0.0523454464   133.5117566171 
3450.0000   0.0576260137   147.4392986640 
3460.0000   0.0643054849   162.1047199789 
3470.0000   0.0728612816   177.5905736189 
3480.0000   0.0841117066   -165.1792476794 
3490.0000   0.0990243613   -146.5290650660 
3500.0000   0.1180714754   -123.9866299474 
3510.0000   0.1389452478   -96.1115443528 
3520.0000   0.1509328584   -62.1012186221 
3530.0000   0.1409386812   -26.6635033559 
3540.0000   0.1159462499   4.6377327894 
3550.0000   0.0920882022   30.0517113199 
3560.0000   0.0738385639   51.4138864033 
3570.0000   0.0608260245   70.4393728513 
3580.0000   0.0511344864   87.8605095642 
3590.0000   0.0445241267   104.3531997975 
3600.0000   0.0395411405   120.6622769521 
3610.0000   0.0357103589   135.7165342147 
3620.0000   0.0328679999   151.0087415413 
3630.0000   0.0308219782   165.9128431108 
3640.0000   0.0293746655   177.9583611012 
3650.0000   0.0283973886   -167.5465580036 
3660.0000   0.0278116732   -152.7558667355 
3670.0000   0.0276636714   -138.3511771534 
3680.0000   0.0278522962   -124.2890403120 
3690.0000   0.0283951867   -110.5184349729 
3700.0000   0.0291781688   -96.5351857964 
3710.0000   0.0303959523   -83.2651878200 
3720.0000   0.0320386428   -69.7421279301 
3730.0000   0.0340495818   -56.9613459150 
3740.0000   0.0364261032   -43.8434447798 
3750.0000   0.0395265717   -30.6566912743 
3760.0000   0.0433258966   -16.9342718870 
3770.0000   0.0484127738   -3.0231249944 
3780.0000   0.0549371672   12.0555203861 
3790.0000   0.0635272007   28.6398530027 
3800.0000   0.0750916910   47.8151528592 
3810.0000   0.0897371842   71.3607807481 
3820.0000   0.1037488162   101.3073664541 
3830.0000   0.1067806763   137.2413863494 
3840.0000   0.0935262183   172.6280173163 
3850.0000   0.0743828160   -158.4405055170 
3860.0000   0.0584726084   -134.7839491556 
3870.0000   0.0469367871   -114.5378120745 
3880.0000   0.0388270675   -96.2856491005 
3890.0000   0.0330834292   -79.2599923517 
3900.0000   0.0287960211   -62.6989084927 
3910.0000   0.0257820739   -46.6262855773 
3920.0000   0.0235965928   -31.0287491095 
3930.0000   0.0219826771   -15.7529388152 
3940.0000   0.0208962432   -0.9010415190 
3950.0000   0.0201352308   13.4855925962 
3960.0000   0.0196964475   27.9136529019 
3970.0000   0.0194506367   41.5318963734 
3980.0000   0.0194772617   55.1087470843 
3990.0000   0.0196460775   68.4195532527 
4000.0000   0.0199206736   81.6506456625 
4010.0000   0.0204442620   94.5030306636 
4020.0000   0.0211635660   107.9031119544 
4030.0000   0.0221042667   121.0925003008 
4040.0000   0.0233405197   134.3811442629 
4050.0000   0.0249540925   148.0823327674 
4060.0000   0.0270601733   162.1189927576 
4070.0000   0.0298497404   176.6641197910 
4080.0000   0.0335084604   -167.9248519538 
4090.0000   0.0383097617   -151.7302607172 
4100.0000   0.0451156835   -133.4173857711 
4110.0000   0.0544471805   -112.2500216488 
4120.0000   0.0659180900   -86.3199594519 
4130.0000   0.0753527535   -54.6607600677 
4140.0000   0.0739020684   -19.6691163008 
4150.0000   0.0626856222   11.6957406505 
4160.0000   0.0501163309   37.2039124163 
4170.0000   0.0402751145   57.8575374230 
4180.0000   0.0329143622   75.5550888367 
4190.0000   0.0274806441   91.5304471380 
4200.0000   0.0233022644   106.8840093440 
4210.0000   0.0200903802   121.2805033969 
4220.0000   0.0175821939   135.8474936512 
4230.0000   0.0155942923   150.5123723188 
4240.0000   0.0139989576   165.9708058084 
4250.0000   0.0127387768   -178.3171097603 
4260.0000   0.0118929900   -161.4732755160 
4270.0000   0.0113824142   -144.5726444481 
4280.0000   0.0112167147   -127.4942595188 
4290.0000   0.0114422826   -110.2573045707 
4300.0000   0.0120341261   -93.7168287899 
4310.0000   0.0129482866   -77.7398726738 
4320.0000   0.0141980330   -62.4420532280 
4330.0000   0.0157978593   -48.5174133723 
4340.0000   0.0177164514   -35.0561837772 
4350.0000   0.0200534971   -21.9820028307 
4360.0000   0.0229221441   -8.9851974879 
4370.0000   0.0264628284   3.9178561454 
4380.0000   0.0307742258   17.5407799991 
4390.0000   0.0361815853   32.0271277194 
