! 140 4400 10
# MHz S MA R 50.0
140.0000   0.4424686928   141.2842906987 
150.0000   0.4869100041   157.9713285402 
160.0000   0.4981273071   -179.0064316008 
170.0000   0.4870292352   -153.8982153922 
180.0000   0.4767549179   -130.9411613455 
190.0000   0.4634938039   -110.2792955995 
200.0000   0.4549948110   -90.3499135924 
210.0000   0.4512206414   -70.9870654236 
220.0000   0.4555202545   -53.0398039780 
230.0000   0.4507640697   -34.6435230397 
240.0000   0.4392948701   -16.6036157146 
250.0000   0.4327483552   1.9028735998 
260.0000   0.4332160739   22.0779220557 
270.0000   0.4348706148   41.5572273640 
280.0000   0.4372227974   60.2452520030 
290.0000   0.4349710066   78.7326240187 
300.0000   0.4314275179   98.2533487177 
310.0000   0.4349081934   117.4595842896 
320.0000   0.4401592125   135.0386418513 
330.0000   0.4500317597   152.6255999747 
340.0000   0.4588970069   170.4332323198 
350.0000   0.4670151277   -171.8024053662 
360.0000   0.4735789503   -153.5881014859 
370.0000   0.4791168537   -135.1071878211 
380.0000   0.4857638754   -116.1960321728 
390.0000   0.4991479133   -97.3229675689 
400.0000   0.5040348873   -78.1286765818 
410.0000   0.5099383281   -58.7432715703 
420.0000   0.5015352360   -39.0696138224 
430.0000   0.4954360428   -19.5146452413 
440.0000   0.4879755140   -0.4675476026 
450.0000   0.4811944569   18.3574014795 
460.0000   0.4762080554   37.1637245484 
470.0000   0.4734088779   55.7273845991 
480.0000   0.4672840686   74.2370176822 
490.0000   0.4600143559   92.6926808863 
500.0000   0.4575176012   110.8419934555 
510.0000   0.4588844686   128.7234804832 
520.0000   0.4623250993   146.4668089814 
530.0000   0.4654421585   164.2799342927 
540.0000   0.4706389899   -177.8748245136 
550.0000   0.4750711474   -159.9258270894 
560.0000   0.4791666587   -141.7635008227 
570.0000   0.4880752709   -123.4565044445 
580.0000   0.5002327291   -104.9268094022 
590.0000   0.5095949169   -86.0339150280 
600.0000   0.5086918496   -67.0059353836 
610.0000   0.5103043938   -47.6177948051 
620.0000   0.5084542555   -27.8328124837 
630.0000   0.4999564457   -7.9702109885 
640.0000   0.4972009863   11.8277658293 
650.0000   0.4923268310   31.4697465925 
660.0000   0.4880147937   50.7842294374 
670.0000   0.4810770709   69.8577394925 
680.0000   0.4741442434   88.6229826308 
690.0000   0.4699773066   107.2701115205 
700.0000   0.4686355256   125.7946934755 
710.0000   0.4700712413   143.9548100082 
720.0000   0.4708974886   162.1094864735 
730.0000   0.4718695028   -179.8414488443 
740.0000   0.4729022745   -161.8788297673 
750.0000   0.4751263864   -143.8674129526 
760.0000   0.4806235741   -125.7324907275 
770.0000   0.4875683309   -107.5959931021 
780.0000   0.4938971938   -89.2473163041 
790.0000   0.4952254691   -70.6368749036 
800.0000   0.4943126107   -52.0071191767 
810.0000   0.4909389078   -33.0295155290 
820.0000   0.4870352716   -13.8638378809 
830.0000   0.4866053617   5.1346358215 
840.0000   0.4833735308   24.0644142581 
850.0000   0.4797003719   42.8592023222 
860.0000   0.4747222904   61.4925905623 
870.0000   0.4702485664   80.0285565537 
880.0000   0.4664726794   98.3751216477 
890.0000   0.4658063562   116.7544213084 
900.0000   0.4676875843   135.3920469021 
910.0000   0.4675488559   153.8933492914 
920.0000   0.4665654149   172.3512388303 
930.0000   0.4663531489   -168.9994571283 
940.0000   0.4671439919   -150.0509370830 
950.0000   0.4700179814   -130.8529787430 
960.0000   0.4737672557   -111.4038972023 
970.0000   0.4774409085   -91.7365153242 
980.0000   0.4775051687   -71.7205837957 
990.0000   0.4724213913   -51.5152835104 
1000.0000   0.4663886104   -31.1738128662 
1010.0000   0.4615715104   -10.8242127168 
1020.0000   0.4573183221   9.2483697076 
1030.0000   0.4513012054   29.0214324648 
1040.0000   0.4437711118   48.3333167371 
1050.0000   0.4343316358   67.1572679224 
1060.0000   0.4257714839   85.5842745437 
1070.0000   0.4210242018   103.5702375608 
1080.0000   0.4187615870   121.2752888117 
1090.0000   0.4163552109   138.5441654358 
1100.0000   0.4145761230   155.4870118054 
1110.0000   0.4142009785   172.3921748018 
1120.0000   0.4143412142   -170.7932680638 
1130.0000   0.4175308464   -153.8564164142 
1140.0000   0.4251386882   -136.6716647919 
1150.0000   0.4343132491   -119.2024005767 
1160.0000   0.4423253400   -101.3029579395 
1170.0000   0.4500974994   -82.8075481514 
1180.0000   0.4572349291   -63.6849315854 
1190.0000   0.4629128750   -43.7561702936 
1200.0000   0.4664938009   -23.1128235299 
1210.0000   0.4681885316   -1.8794525918 
1220.0000   0.4639522574   19.6731974662 
1230.0000   0.4515664464   41.1186103884 
1240.0000   0.4341122920   62.1936061114 
1250.0000   0.4160388980   82.5209976078 
1260.0000   0.3974534636   102.0712386679 
1270.0000   0.3795474676   120.7301946468 
1280.0000   0.3630244075   138.6709601205 
1290.0000   0.3486090501   155.8671056318 
1300.0000   0.3370563141   172.5202749015 
1310.0000   0.3280892536   -171.2947126280 
1320.0000   0.3237240640   -155.4023660980 
1330.0000   0.3231929170   -139.7807410041 
1340.0000   0.3247137731   -124.1323877993 
1350.0000   0.3288039131   -108.3857202234 
1360.0000   0.3349615998   -92.4157579759 
1370.0000   0.3438324849   -76.1475116087 
1380.0000   0.3548506327   -59.3836320092 
1390.0000   0.3681747162   -42.1315007479 
1400.0000   0.3837646992   -24.1607795396 
1410.0000   0.3983626982   -5.5276784606 
1420.0000   0.4121960796   14.1764181941 
1430.0000   0.4219874174   34.2339993848 
1440.0000   0.4279563552   54.9550150577 
1450.0000   0.4289498611   75.8696782258 
1460.0000   0.4247381890   96.8330941003 
1470.0000   0.4153188682   117.5768510464 
1480.0000   0.4017733033   137.8791758551 
1490.0000   0.3858498600   157.5115954078 
1500.0000   0.3703688350   176.5513735934 
1510.0000   0.3566098806   -164.9266540735 
1520.0000   0.3450938905   -146.8264654267 
1530.0000   0.3359633902   -129.0563868510 
1540.0000   0.3292034123   -111.4809480386 
1550.0000   0.3245245290   -93.9530813511 
1560.0000   0.3216774931   -76.2744021321 
1570.0000   0.3212442822   -58.4382479406 
1580.0000   0.3232803078   -40.2715502036 
1590.0000   0.3264143957   -21.7804533627 
1600.0000   0.3310572990   -2.8795212471 
1610.0000   0.3366757620   16.3149542712 
1620.0000   0.3428488717   36.0994019408 
1630.0000   0.3486737429   56.1452595100 
1640.0000   0.3535482878   76.5035869836 
1650.0000   0.3573902338   97.0612668813 
1660.0000   0.3582613990   117.6605042521 
1670.0000   0.3561383057   138.0831816821 
1680.0000   0.3516980976   158.3379721720 
1690.0000   0.3453516518   178.0052036475 
1700.0000   0.3379098896   -162.7697410626 
1710.0000   0.3304234882   -144.0584677754 
1720.0000   0.3230924038   -125.8502515647 
1730.0000   0.3167957304   -108.1189910990 
1740.0000   0.3110312115   -90.6426201238 
1750.0000   0.3057362601   -73.5614714500 
1760.0000   0.3025886987   -56.5674389865 
1770.0000   0.3012829404   -39.6719209237 
1780.0000   0.3016220230   -22.6621141581 
1790.0000   0.3034737856   -5.5171005514 
1800.0000   0.3064579784   12.1947576147 
1810.0000   0.3101131775   30.0920084551 
1820.0000   0.3137997890   48.3311460423 
1830.0000   0.3186172674   67.5429455899 
1840.0000   0.3225054172   87.5023745970 
1850.0000   0.3237164760   107.9986812325 
1860.0000   0.3217242126   129.0313007559 
1870.0000   0.3157739473   150.2952962214 
1880.0000   0.3063836561   171.4877150843 
1890.0000   0.2947080558   -167.6504571766 
1900.0000   0.2817197236   -147.3450147925 
1910.0000   0.2686106370   -127.7228941698 
1920.0000   0.2556851561   -108.6297346282 
1930.0000   0.2436831351   -90.3749246830 
1940.0000   0.2338016156   -72.5928602179 
1950.0000   0.2259926167   -55.3707928446 
1960.0000   0.2200914875   -38.5316439348 
1970.0000   0.2158754916   -22.0428800143 
1980.0000   0.2135371874   -5.7378403007 
1990.0000   0.2124917270   10.3401965608 
2000.0000   0.2131373904   26.2971350863 
2010.0000   0.2157182945   42.3933296292 
2020.0000   0.2194275390   58.6057709998 
2030.0000   0.2245053349   75.1217771601 
2040.0000   0.2305641135   92.0371846344 
2050.0000   0.2374734276   109.4252069059 
2060.0000   0.2448992785   127.4461921152 
2070.0000   0.2527471423   146.0708156824 
2080.0000   0.2601291983   165.3676860128 
2090.0000   0.2658698008   -174.6067422848 
2100.0000   0.2688255926   -154.0087862066 
2110.0000   0.2686723354   -133.0833683410 
2120.0000   0.2652158569   -112.1099855697 
2130.0000   0.2589732909   -91.3140453365 
2140.0000   0.2509772648   -70.8778156090 
2150.0000   0.2417937404   -50.9761149206 
2160.0000   0.2324711899   -31.3477872187 
2170.0000   0.2235760745   -12.1750695567 
2180.0000   0.2158174889   6.6231635062 
2190.0000   0.2094050163   25.1230530853 
2200.0000   0.2027819039   45.7076001420 
2210.0000   0.1981311319   63.0891880529 
2220.0000   0.1959374828   80.9652414454 
2230.0000   0.1947425107   98.6476928655 
2240.0000   0.1946039807   116.3103292080 
2250.0000   0.1957342643   133.7598714872 
2260.0000   0.1977685595   151.2618545646 
2270.0000   0.2005646058   168.7156873730 
2280.0000   0.2039220453   -173.9950423811 
2290.0000   0.2080388063   -156.6318838848 
2300.0000   0.2126513298   -139.4880206856 
2310.0000   0.2179044308   -122.2942295174 
2320.0000   0.2231892316   -105.1676031868 
2330.0000   0.2290161945   -88.1811484488 
2340.0000   0.2352674411   -70.8869651578 
2350.0000   0.2418284985   -53.5962959170 
2360.0000   0.2482410220   -35.9478797096 
2370.0000   0.2555966731   -18.2162020515 
2380.0000   0.2622214219   0.0260587224 
2390.0000   0.2689076225   18.7662438759 
2400.0000   0.2742380764   38.0848563868 
2410.0000   0.2774280763   58.1601059460 
2420.0000   0.2770210873   78.8037385535 
2430.0000   0.2727377706   99.9933809343 
2440.0000   0.2644803533   121.5518048172 
2450.0000   0.2528541375   143.0041355221 
2460.0000   0.2388314800   164.3263337090 
2470.0000   0.2236034185   -175.0531456342 
2480.0000   0.2087001858   -155.2206612151 
2490.0000   0.1950385308   -136.0308298858 
2500.0000   0.1829569405   -117.5768844352 
2510.0000   0.1728550801   -99.6004580546 
2520.0000   0.1648983268   -82.1487739926 
2530.0000   0.1591147322   -65.1698040724 
2540.0000   0.1551571479   -48.5188471702 
2550.0000   0.1532614713   -32.2503677904 
2560.0000   0.1531978136   -16.2577115883 
2570.0000   0.1548877133   -0.7281189268 
2580.0000   0.1585041609   14.9683370228 
2590.0000   0.1639572008   30.3555383468 
2600.0000   0.1712250227   45.8709860641 
2610.0000   0.1805315178   61.5404810504 
2620.0000   0.1918815788   77.5698252006 
2630.0000   0.2053644772   94.1153282776 
2640.0000   0.2209824774   111.5494943130 
2650.0000   0.2384692947   129.9248683270 
2660.0000   0.2559362412   149.7267393499 
2670.0000   0.2717708902   170.8507030739 
2680.0000   0.2818935258   -166.7202556222 
2690.0000   0.2838051455   -144.0601555611 
2700.0000   0.2761407781   -121.0755809575 
2710.0000   0.2613726412   -99.2305104371 
2720.0000   0.2425074310   -78.6318807430 
2730.0000   0.2228415031   -59.2448424573 
2740.0000   0.2046496254   -41.0007952217 
2750.0000   0.1885359483   -23.6641937181 
2760.0000   0.1748700341   -6.7658894758 
2770.0000   0.1637481863   9.4146068650 
2780.0000   0.1548975245   25.5494553308 
2790.0000   0.1482321567   41.6733559414 
2800.0000   0.1433991577   57.8007497747 
2810.0000   0.1403849476   73.7352089261 
2820.0000   0.1393154583   90.2505007332 
2830.0000   0.1399157097   106.7010190368 
2840.0000   0.1427950008   128.2260110805 
2850.0000   0.1471684536   145.2454946460 
2860.0000   0.1532993139   162.5623025976 
2870.0000   0.1613433039   -179.6863873952 
2880.0000   0.1709965792   -161.4377260150 
2890.0000   0.1827757219   -142.9315888360 
2900.0000   0.1943666668   -123.6135647245 
2910.0000   0.2059291203   -103.6199907412 
2920.0000   0.2160654264   -82.9444129108 
2930.0000   0.2235989630   -62.1259011493 
2940.0000   0.2275436516   -40.7808785092 
2950.0000   0.2270007279   -19.7261720709 
2960.0000   0.2229252825   0.8424941795 
2970.0000   0.2162284945   20.7755176695 
2980.0000   0.2078876549   40.0019829702 
2990.0000   0.1990567591   58.5581282504 
3000.0000   0.1904407000   76.6710981091 
3010.0000   0.1824961596   93.9750084819 
3020.0000   0.1753303824   110.9791925164 
3030.0000   0.1690111081   127.6536881285 
3040.0000   0.1634747230   144.1938427636 
3050.0000   0.1588175506   160.5241427180 
3060.0000   0.1549237139   177.3615098795 
3070.0000   0.1517887299   -165.7665040424 
3080.0000   0.1492269900   -148.5818527317 
3090.0000   0.1476834648   -130.9086949711 
3100.0000   0.1468681898   -112.6669294572 
3110.0000   0.1468985941   -93.9220436843 
3120.0000   0.1477097357   -74.4359711152 
3130.0000   0.1494071887   -54.5641800733 
3140.0000   0.1516189232   -33.9630316545 
3150.0000   0.1542235529   -12.8913801400 
3160.0000   0.1568353423   8.5140698726 
3170.0000   0.1591653470   29.8729889117 
3180.0000   0.1610301914   51.5351427454 
3190.0000   0.1621074426   72.7856216186 
3200.0000   0.1622621776   93.4347052541 
3210.0000   0.1617812680   113.3793488541 
3220.0000   0.1603506253   132.5844833454 
3230.0000   0.1583727320   151.0653979438 
3240.0000   0.1560561579   169.2165547966 
3250.0000   0.1537428051   -173.7568772902 
3260.0000   0.1514331803   -156.9610721320 
3270.0000   0.1493935956   -140.7211797351 
3280.0000   0.1477018630   -124.6664832039 
3290.0000   0.1464832708   -108.9654683503 
3300.0000   0.1458160745   -92.9392795193 
3310.0000   0.1456619077   -77.0896302798 
3320.0000   0.1460234870   -61.0633467813 
3330.0000   0.1470054551   -44.7968459138 
3340.0000   0.1483311535   -27.9277196660 
3350.0000   0.1502930575   -10.4502098317 
3360.0000   0.1524932681   8.1058033677 
3370.0000   0.1548251759   26.9472721301 
3380.0000   0.1567242453   47.0496326559 
3390.0000   0.1572671136   68.0910346255 
3400.0000   0.1561706342   90.0009366079 
3410.0000   0.1526051370   112.1982528967 
3420.0000   0.1469130698   134.9537011724 
3430.0000   0.1394723265   157.2993798250 
3440.0000   0.1313247353   179.0580133017 
3450.0000   0.1234762811   -159.9501005744 
3460.0000   0.1165089253   -139.7498623236 
3470.0000   0.1105222984   -120.5354188792 
3480.0000   0.1057830405   -101.6619222391 
3490.0000   0.1023134180   -84.3774203659 
3500.0000   0.0999762129   -67.3667859415 
3510.0000   0.0984889014   -51.0165388176 
3520.0000   0.0982230737   -35.0510213632 
3530.0000   0.0986516290   -19.6686921297 
3540.0000   0.1000347329   -4.2544847417 
3550.0000   0.1022281376   10.7842701617 
3560.0000   0.1051708377   25.6707925622 
3570.0000   0.1088101618   40.6564777424 
3580.0000   0.1131973015   55.8667148140 
3590.0000   0.1183749575   71.2593969082 
3600.0000   0.1239804749   87.6131076011 
3610.0000   0.1302442488   103.7877895055 
3620.0000   0.1362335006   121.3252797951 
3630.0000   0.1412618344   139.7346276220 
3640.0000   0.1417019258   156.7137553911 
3650.0000   0.1410968666   177.1892472411 
3660.0000   0.1384894008   -161.0676013611 
3670.0000   0.1341250374   -139.2043443924 
3680.0000   0.1279926594   -117.4407430482 
3690.0000   0.1206073552   -96.1209445168 
3700.0000   0.1103937236   -75.4285068998 
3710.0000   0.1022995935   -55.4840392297 
3720.0000   0.0945392347   -35.9676621772 
3730.0000   0.0873780499   -17.4686879929 
3740.0000   0.0809835767   0.8610401034 
3750.0000   0.0756490337   18.8714954141 
3760.0000   0.0712434696   36.6031783538 
3770.0000   0.0679005547   53.9155360834 
3780.0000   0.0653671674   71.2313468712 
3790.0000   0.0636681014   88.1221897506 
3800.0000   0.0626658029   104.9367696354 
3810.0000   0.0623973810   121.4908542792 
3820.0000   0.0627709715   137.9794702131 
3830.0000   0.0638267007   154.1140924879 
3840.0000   0.0656122526   170.4984640552 
3850.0000   0.0679797862   -173.5677651411 
3860.0000   0.0711784776   -157.2821927987 
3870.0000   0.0752207769   -140.9053960232 
3880.0000   0.0801051544   -124.1266196001 
3890.0000   0.0860592321   -107.1696037568 
3900.0000   0.0925380173   -89.4025893299 
3910.0000   0.0996441981   -70.8778695472 
3920.0000   0.1065031257   -51.4295171047 
3930.0000   0.1120648902   -31.1607781994 
3940.0000   0.1146424452   -10.1252918903 
3950.0000   0.1133841139   11.2136431478 
3960.0000   0.1080067833   32.6306486476 
3970.0000   0.0999338160   53.0958226101 
3980.0000   0.0908416079   72.8980866368 
3990.0000   0.0819166433   91.7067826609 
4000.0000   0.0737126400   109.7523159264 
4010.0000   0.0665645586   126.8899969740 
4020.0000   0.0602421247   144.0622922545 
4030.0000   0.0550458704   160.7566381799 
4040.0000   0.0507846011   177.5637330784 
4050.0000   0.0475644157   -165.6674315275 
4060.0000   0.0453297326   -148.5970257502 
4070.0000   0.0439540661   -131.2100774583 
4080.0000   0.0433897768   -113.4117746013 
4090.0000   0.0436837262   -95.6000562865 
4100.0000   0.0450107550   -77.4543532523 
4110.0000   0.0472932637   -59.4142762280 
4120.0000   0.0505178161   -41.3655005281 
4130.0000   0.0548871765   -23.4665542681 
4140.0000   0.0599174611   -5.0264385288 
4150.0000   0.0657485156   13.5137909653 
4160.0000   0.0717957013   32.7492057356 
4170.0000   0.0775299009   52.4533501134 
4180.0000   0.0820779698   72.9374630990 
4190.0000   0.0846981228   93.8734542598 
4200.0000   0.0850142426   115.1063057663 
4210.0000   0.0831628802   135.5694675927 
4220.0000   0.0796814018   155.3865739222 
4230.0000   0.0755485932   174.2351845669 
4240.0000   0.0711380626   -167.8861972907 
4250.0000   0.0665819640   -151.0668157167 
4260.0000   0.0627937273   -134.5037926056 
4270.0000   0.0589952468   -118.6516601496 
4280.0000   0.0557158109   -103.0669876912 
4290.0000   0.0528511945   -87.5643102555 
4300.0000   0.0504245557   -71.9889277405 
4310.0000   0.0484730810   -56.2494662724 
4320.0000   0.0468926444   -39.9079611748 
4330.0000   0.0456925119   -23.6641669187 
4340.0000   0.0447671530   -6.6779134973 
4350.0000   0.0442704728   10.9641336391 
4360.0000   0.0441131435   29.3302866034 
4370.0000   0.0444443518   48.2373438259 
4380.0000   0.0450084752   68.4337384643 
4390.0000   0.0459009296   89.2919839003 
