! 1500 3500 3
# MHz S MA R 50.0
1500.0000   0.00920278   162.5584 
1503.0000   0.00915852   165.0468 
1506.0000   0.00917006   167.5782 
1509.0000   0.00917689   169.9210 
1512.0000   0.00914885   172.7305 
1515.0000   0.00913046   174.9831 
1518.0000   0.00914999   177.5405 
1521.0000   0.00908429   -179.8746 
1524.0000   0.00906964   -177.0930 
1527.0000   0.00907442   -174.6833 
1530.0000   0.00912093   -172.2487 
1533.0000   0.00907998   -169.8169 
1536.0000   0.00897431   -167.3276 
1539.0000   0.00901898   -164.8024 
1542.0000   0.00898520   -162.4053 
1545.0000   0.00897297   -159.7523 
1548.0000   0.00899884   -157.4089 
1551.0000   0.00896621   -154.5829 
1554.0000   0.00891244   -152.3356 
1557.0000   0.00890815   -149.9463 
1560.0000   0.00886775   -147.1188 
1563.0000   0.00884978   -144.7423 
1566.0000   0.00883248   -142.4540 
1569.0000   0.00881669   -139.9818 
1572.0000   0.00879512   -137.3794 
1575.0000   0.00874971   -134.8700 
1578.0000   0.00876459   -132.5394 
1581.0000   0.00871005   -130.1406 
1584.0000   0.00868810   -127.3453 
1587.0000   0.00866779   -125.1039 
1590.0000   0.00870555   -122.7123 
1593.0000   0.00868066   -119.9147 
1596.0000   0.00866170   -117.8171 
1599.0000   0.00867356   -115.1270 
1602.0000   0.00869448   -112.5664 
1605.0000   0.00871995   -109.9158 
1608.0000   0.00865772   -107.8615 
1611.0000   0.00869284   -104.9703 
1614.0000   0.00869503   -102.4027 
1617.0000   0.00867292   -100.2912 
1620.0000   0.00862694   -97.6052 
1623.0000   0.00869864   -95.1031 
1626.0000   0.00860187   -92.6500 
1629.0000   0.00869373   -90.0798 
1632.0000   0.00871075   -87.1711 
1635.0000   0.00869267   -85.0870 
1638.0000   0.00875519   -82.5203 
1641.0000   0.00873112   -79.9021 
1644.0000   0.00870175   -77.2651 
1647.0000   0.00871157   -74.9442 
1650.0000   0.00876957   -72.3330 
1653.0000   0.00879850   -69.9715 
1656.0000   0.00875912   -67.2865 
1659.0000   0.00878824   -64.6550 
1662.0000   0.00886623   -62.1995 
1665.0000   0.00879845   -59.8069 
1668.0000   0.00886142   -57.2266 
1671.0000   0.00885128   -54.7932 
1674.0000   0.00886063   -52.2278 
1677.0000   0.00884710   -49.6401 
1680.0000   0.00887294   -47.3320 
1683.0000   0.00887809   -44.8277 
1686.0000   0.00886490   -42.8246 
1689.0000   0.00887468   -39.8562 
1692.0000   0.00886810   -37.6821 
1695.0000   0.00884218   -35.0260 
1698.0000   0.00882786   -32.9109 
1701.0000   0.00883682   -30.6986 
1704.0000   0.00878343   -28.3743 
1707.0000   0.00886027   -26.1384 
1710.0000   0.00879997   -23.6960 
1713.0000   0.00881777   -21.3508 
1716.0000   0.00882206   -19.0147 
1719.0000   0.00882890   -16.6995 
1722.0000   0.00875552   -14.4779 
1725.0000   0.00878743   -11.8749 
1728.0000   0.00875489   -9.7452 
1731.0000   0.00876955   -7.5952 
1734.0000   0.00871381   -5.2984 
1737.0000   0.00875549   -2.8721 
1740.0000   0.00872225   -0.9249 
1743.0000   0.00875096   1.4605 
1746.0000   0.00868163   3.7152 
1749.0000   0.00867429   5.7396 
1752.0000   0.00864442   8.0923 
1755.0000   0.00865962   10.4697 
1758.0000   0.00866758   12.2174 
1761.0000   0.00865349   14.4398 
1764.0000   0.00865092   16.7131 
1767.0000   0.00862503   18.7872 
1770.0000   0.00860718   20.7619 
1773.0000   0.00861449   23.0388 
1776.0000   0.00856741   25.3669 
1779.0000   0.00859676   27.2978 
1782.0000   0.00863036   29.4283 
1785.0000   0.00854936   31.4223 
1788.0000   0.00856578   33.4472 
1791.0000   0.00848748   35.4529 
1794.0000   0.00851118   37.6309 
1797.0000   0.00847798   39.7706 
1800.0000   0.00857085   41.9048 
1803.0000   0.00852351   43.9931 
1806.0000   0.00856847   45.9938 
1809.0000   0.00853698   47.9719 
1812.0000   0.00849766   50.4250 
1815.0000   0.00852972   52.2084 
1818.0000   0.00856334   54.1979 
1821.0000   0.00850157   56.2907 
1824.0000   0.00847932   58.2767 
1827.0000   0.00847350   60.3255 
1830.0000   0.00846826   62.0831 
1833.0000   0.00846668   64.3062 
1836.0000   0.00844058   66.6312 
1839.0000   0.00834850   68.4257 
1842.0000   0.00842115   70.7516 
1845.0000   0.00847377   72.8856 
1848.0000   0.00844469   75.2816 
1851.0000   0.00845820   77.3997 
1854.0000   0.00844136   79.2186 
1857.0000   0.00846069   81.5273 
1860.0000   0.00847122   83.6497 
1863.0000   0.00844082   86.0428 
1866.0000   0.00841335   88.1378 
1869.0000   0.00845180   89.9372 
1872.0000   0.00836388   92.0430 
1875.0000   0.00840169   94.4764 
1878.0000   0.00839610   96.3789 
1881.0000   0.00836571   98.9827 
1884.0000   0.00835560   100.9052 
1887.0000   0.00831739   103.2650 
1890.0000   0.00832794   105.1277 
1893.0000   0.00825096   107.1544 
1896.0000   0.00828835   109.5584 
1899.0000   0.00827576   111.5348 
1902.0000   0.00823615   113.6270 
1905.0000   0.00822215   115.8088 
1908.0000   0.00819375   118.0516 
1911.0000   0.00819249   120.3176 
1914.0000   0.00815197   122.1186 
1917.0000   0.00815462   124.2887 
1920.0000   0.00812835   126.6255 
1923.0000   0.00811423   129.0457 
1926.0000   0.00808351   131.2379 
1929.0000   0.00804533   132.9894 
1932.0000   0.00805300   135.3813 
1935.0000   0.00797628   137.3551 
1938.0000   0.00800100   140.2010 
1941.0000   0.00789366   142.7855 
1944.0000   0.00792664   144.7494 
1947.0000   0.00784316   146.7089 
1950.0000   0.00783243   148.9480 
1953.0000   0.00782575   150.9773 
1956.0000   0.00765232   152.9038 
1959.0000   0.00772615   155.2524 
1962.0000   0.00765665   157.4809 
1965.0000   0.00767435   159.9792 
1968.0000   0.00757611   162.0792 
1971.0000   0.00759525   164.2176 
1974.0000   0.00755374   166.1563 
1977.0000   0.00750479   168.4944 
1980.0000   0.00746263   170.9220 
1983.0000   0.00743268   172.4988 
1986.0000   0.00739030   174.6974 
1989.0000   0.00723157   177.2321 
1992.0000   0.00729245   178.9236 
1995.0000   0.00725607   -178.9704 
1998.0000   0.00720147   -176.7580 
2001.0000   0.00719510   -175.0356 
2004.0000   0.00714703   -172.9381 
2007.0000   0.00713152   -171.0005 
2010.0000   0.00712530   -169.2090 
2013.0000   0.00708366   -167.1997 
2016.0000   0.00709886   -165.0362 
2019.0000   0.00709823   -163.2760 
2022.0000   0.00714356   -161.0913 
2025.0000   0.00716801   -158.8058 
2028.0000   0.00717463   -156.7114 
2031.0000   0.00720118   -153.9668 
2034.0000   0.00728011   -152.0125 
2037.0000   0.00726426   -149.2924 
2040.0000   0.00733663   -146.6746 
2043.0000   0.00739517   -144.3014 
2046.0000   0.00745909   -141.5569 
2049.0000   0.00750805   -138.8947 
2052.0000   0.00753921   -135.9847 
2055.0000   0.00757674   -133.0729 
2058.0000   0.00759995   -130.1731 
2061.0000   0.00759592   -127.2653 
2064.0000   0.00761671   -124.1067 
2067.0000   0.00764667   -120.9218 
2070.0000   0.00765476   -118.2109 
2073.0000   0.00769247   -115.0238 
2076.0000   0.00768447   -111.5183 
2079.0000   0.00775802   -108.8505 
2082.0000   0.00774149   -105.9814 
2085.0000   0.00769614   -102.3614 
2088.0000   0.00776330   -98.8697 
2091.0000   0.00777581   -96.2486 
2094.0000   0.00773794   -92.8141 
2097.0000   0.00771615   -89.6046 
2100.0000   0.00772219   -86.3087 
2103.0000   0.00774220   -83.5445 
2106.0000   0.00767728   -80.3894 
2109.0000   0.00763320   -77.2656 
2112.0000   0.00764830   -74.2510 
2115.0000   0.00766775   -71.5806 
2118.0000   0.00761004   -68.4981 
2121.0000   0.00757182   -65.6627 
2124.0000   0.00759780   -62.8166 
2127.0000   0.00757417   -59.9730 
2130.0000   0.00753943   -56.9986 
2133.0000   0.00754246   -54.4175 
2136.0000   0.00755587   -51.8985 
2139.0000   0.00752428   -49.1870 
2142.0000   0.00754215   -46.7478 
2145.0000   0.00754631   -43.9183 
2148.0000   0.00752847   -41.0953 
2151.0000   0.00750052   -38.6910 
2154.0000   0.00750651   -35.9694 
2157.0000   0.00751149   -33.4244 
2160.0000   0.00748480   -30.6757 
2163.0000   0.00753916   -28.0700 
2166.0000   0.00751267   -25.3638 
2169.0000   0.00747790   -22.5342 
2172.0000   0.00751816   -20.3408 
2175.0000   0.00755134   -17.5036 
2178.0000   0.00754287   -15.1082 
2181.0000   0.00766267   -12.4535 
2184.0000   0.00757545   -9.8567 
2187.0000   0.00756178   -7.3768 
2190.0000   0.00761167   -4.9051 
2193.0000   0.00760604   -2.2552 
2196.0000   0.00761334   -0.0927 
2199.0000   0.00765245   2.6496 
2202.0000   0.00763699   8.2589 
2205.0000   0.00764041   11.0216 
2208.0000   0.00765271   13.3914 
2211.0000   0.00767799   15.6562 
2214.0000   0.00771365   18.1696 
2217.0000   0.00771774   20.7999 
2220.0000   0.00773128   23.2563 
2223.0000   0.00776882   25.7325 
2226.0000   0.00777900   28.1844 
2229.0000   0.00776931   30.7510 
2232.0000   0.00777597   33.0344 
2235.0000   0.00781514   35.9361 
2238.0000   0.00775269   38.3820 
2241.0000   0.00778146   40.7702 
2244.0000   0.00779769   43.2707 
2247.0000   0.00776565   45.8369 
2250.0000   0.00781670   48.3446 
2253.0000   0.00779686   50.6431 
2256.0000   0.00780627   53.1055 
2259.0000   0.00782055   55.8031 
2262.0000   0.00782376   58.1550 
2265.0000   0.00782203   60.3757 
2268.0000   0.00781132   62.8534 
2271.0000   0.00789363   65.3685 
2274.0000   0.00792833   67.5455 
2277.0000   0.00802579   70.1949 
2280.0000   0.00793765   72.8757 
2283.0000   0.00793605   75.3954 
2286.0000   0.00792549   77.9997 
2289.0000   0.00793115   80.4815 
2292.0000   0.00790710   83.0044 
2295.0000   0.00792632   85.5275 
2298.0000   0.00797343   87.8135 
2301.0000   0.00793473   90.4415 
2304.0000   0.00797379   93.2400 
2307.0000   0.00796885   95.4830 
2310.0000   0.00792034   98.1603 
2313.0000   0.00795424   100.6723 
2316.0000   0.00802487   103.4419 
2319.0000   0.00796139   105.6445 
2322.0000   0.00797498   108.0128 
2325.0000   0.00797099   110.8642 
2328.0000   0.00796572   113.2028 
2331.0000   0.00797351   115.7529 
2334.0000   0.00795866   118.5971 
2337.0000   0.00799055   120.8797 
2340.0000   0.00797706   123.1843 
2343.0000   0.00800511   125.8438 
2346.0000   0.00801112   128.2682 
2349.0000   0.00800154   130.6467 
2352.0000   0.00801206   133.2749 
2355.0000   0.00803204   135.7780 
2358.0000   0.00801566   138.3631 
2361.0000   0.00802048   140.7642 
2364.0000   0.00799099   143.2288 
2367.0000   0.00666012   141.4351 
2370.0000   0.00778431   151.5304 
2373.0000   0.00796363   150.9335 
2376.0000   0.00799633   153.5063 
2379.0000   0.00798484   156.0168 
2382.0000   0.00802363   158.3020 
2385.0000   0.00799551   160.8008 
2388.0000   0.00802459   163.3000 
2391.0000   0.00806983   165.5676 
2394.0000   0.00804076   167.9032 
2397.0000   0.00819120   170.2618 
2400.0000   0.00804004   172.7898 
2403.0000   0.00802177   175.6122 
2406.0000   0.00802361   178.1605 
2409.0000   0.00800167   -179.6044 
2412.0000   0.00799174   -177.7974 
2415.0000   0.00823121   -176.1806 
2418.0000   0.00798676   -172.7378 
2421.0000   0.00805706   -170.4847 
2424.0000   0.00803771   -168.1122 
2427.0000   0.00804320   -165.8488 
2430.0000   0.00803520   -163.1731 
2433.0000   0.00803297   -160.7770 
2436.0000   0.00804131   -158.3089 
2439.0000   0.00807011   -155.8546 
2442.0000   0.00848321   -154.8204 
2445.0000   0.00802726   -151.3784 
2448.0000   0.00801607   -149.0110 
2451.0000   0.00800446   -146.6582 
2454.0000   0.00802100   -143.8556 
2457.0000   0.00802903   -141.7710 
2460.0000   0.00799429   -139.5262 
2463.0000   0.00798019   -137.3039 
2466.0000   0.00801821   -134.8606 
2469.0000   0.00802823   -132.7473 
2472.0000   0.00797360   -130.0073 
2475.0000   0.00797792   -127.6643 
2478.0000   0.00817887   -128.2452 
2481.0000   0.00793257   -123.1189 
2484.0000   0.00796203   -120.7413 
2487.0000   0.00795752   -118.0091 
2490.0000   0.00789535   -115.8670 
2493.0000   0.00787745   -113.7175 
2496.0000   0.00788466   -110.8580 
2499.0000   0.00789210   -108.4416 
2502.0000   0.00786245   -106.2290 
2505.0000   0.00784747   -103.4263 
2508.0000   0.00785782   -101.2416 
2511.0000   0.00765352   -101.9753 
2514.0000   0.00787957   -96.2264 
2517.0000   0.00783618   -94.1220 
2520.0000   0.00784064   -91.5130 
2523.0000   0.00783112   -88.8176 
2526.0000   0.00781158   -86.6759 
2529.0000   0.00779653   -84.2106 
2532.0000   0.00775241   -81.2892 
2535.0000   0.00770880   -78.1893 
2538.0000   0.00773029   -76.4939 
2541.0000   0.00771005   -74.3107 
2544.0000   0.00770187   -71.8665 
2547.0000   0.00774024   -69.4779 
2550.0000   0.00772903   -66.8638 
2553.0000   0.00772550   -64.4630 
2556.0000   0.00770480   -61.6454 
2559.0000   0.00768812   -59.4448 
2562.0000   0.00765515   -56.6275 
2565.0000   0.00764824   -54.1147 
2568.0000   0.00756443   -51.7221 
2571.0000   0.00760303   -49.4831 
2574.0000   0.00758241   -46.8002 
2577.0000   0.00758373   -44.4281 
2580.0000   0.00749742   -41.8649 
2583.0000   0.00751343   -39.0839 
2586.0000   0.00747609   -36.9549 
2589.0000   0.00748012   -34.6288 
2592.0000   0.00743825   -32.0894 
2595.0000   0.00745645   -29.7164 
2598.0000   0.00741733   -27.1580 
2601.0000   0.00739380   -24.7719 
2604.0000   0.00736735   -21.8976 
2607.0000   0.00733895   -19.7182 
2610.0000   0.00730301   -17.3252 
2613.0000   0.00728195   -15.0388 
2616.0000   0.00728496   -12.4106 
2619.0000   0.00731573   -10.2463 
2622.0000   0.00723628   -7.7476 
2625.0000   0.00723495   -5.5069 
2628.0000   0.00721306   -3.1395 
2631.0000   0.00722050   -0.6818 
2634.0000   0.00723158   1.9086 
2637.0000   0.00721205   4.2532 
2640.0000   0.00714642   6.6251 
2643.0000   0.00712070   9.0805 
2646.0000   0.00711632   11.3363 
2649.0000   0.00706346   14.0854 
2652.0000   0.00711071   16.4912 
2655.0000   0.00705865   18.8358 
2658.0000   0.00704368   20.9402 
2661.0000   0.00702947   23.7100 
2664.0000   0.00701670   26.1511 
2667.0000   0.00704420   28.6031 
2670.0000   0.00699130   30.8002 
2673.0000   0.00698812   33.5421 
2676.0000   0.00690747   36.4114 
2679.0000   0.00691679   39.3092 
2682.0000   0.00686575   41.7835 
2685.0000   0.00685152   44.3355 
2688.0000   0.00683829   47.1545 
2691.0000   0.00676589   49.6658 
2694.0000   0.00678238   52.1220 
2697.0000   0.00669910   54.8212 
2700.0000   0.00673616   57.4439 
2703.0000   0.00671121   60.0399 
2706.0000   0.00678440   61.1006 
2709.0000   0.00672469   64.7856 
2712.0000   0.00669359   67.2340 
2715.0000   0.00670693   69.9733 
2718.0000   0.00669612   72.7306 
2721.0000   0.00665330   75.0068 
2724.0000   0.00668476   77.9026 
2727.0000   0.00669820   80.3924 
2730.0000   0.00669204   83.0541 
2733.0000   0.00663176   85.9992 
2736.0000   0.00662774   88.2192 
2739.0000   0.00661648   91.1265 
2742.0000   0.00658772   93.8549 
2745.0000   0.00661008   96.0162 
2748.0000   0.00659259   98.7492 
2751.0000   0.00653305   101.1535 
2754.0000   0.00657509   104.2628 
2757.0000   0.00651081   106.6303 
2760.0000   0.00649485   109.1190 
2763.0000   0.00645881   112.1468 
2766.0000   0.00642181   114.4482 
2769.0000   0.00642965   117.2646 
2772.0000   0.00643236   119.9357 
2775.0000   0.00643583   121.8707 
2778.0000   0.00643337   124.8831 
2781.0000   0.00641098   127.0778 
2784.0000   0.00641647   129.9129 
2787.0000   0.00641245   132.9743 
2790.0000   0.00639865   135.5296 
2793.0000   0.00639053   138.1156 
2796.0000   0.00637040   140.2852 
2799.0000   0.00640483   143.2760 
2802.0000   0.00656728   145.8674 
2805.0000   0.00639110   148.5026 
2808.0000   0.00636500   150.7385 
2811.0000   0.00636670   153.6134 
2814.0000   0.00637276   155.8774 
2817.0000   0.00640092   158.2535 
2820.0000   0.00640691   161.0039 
2823.0000   0.00645478   163.3710 
2826.0000   0.00641056   166.2206 
2829.0000   0.00644142   168.2807 
2832.0000   0.00637944   171.1115 
2835.0000   0.00637322   174.0104 
2838.0000   0.00644747   -178.7886 
2841.0000   0.00644903   -176.7109 
2844.0000   0.00647309   -173.8690 
2847.0000   0.00646694   -171.9617 
2850.0000   0.00642455   -169.5127 
2853.0000   0.00642293   -166.9544 
2856.0000   0.00645126   -164.5928 
2859.0000   0.00645904   -162.4924 
2862.0000   0.00647677   -160.2801 
2865.0000   0.00647906   -157.4663 
2868.0000   0.00647849   -155.1981 
2871.0000   0.00650784   -153.0860 
2874.0000   0.00655425   -150.4491 
2877.0000   0.00656953   -147.7812 
2880.0000   0.00657875   -145.4944 
2883.0000   0.00682211   -139.2749 
2886.0000   0.00682839   -136.8660 
2889.0000   0.00684384   -134.2067 
2892.0000   0.00686282   -132.0683 
2895.0000   0.00688301   -129.7969 
2898.0000   0.00690353   -127.6691 
2901.0000   0.00695334   -125.1647 
2904.0000   0.00705347   -121.6659 
2907.0000   0.00701300   -120.3361 
2910.0000   0.00699494   -118.0256 
2913.0000   0.00702009   -115.5833 
2916.0000   0.00703187   -113.2575 
2919.0000   0.00704453   -111.0135 
2922.0000   0.00707660   -108.5952 
2925.0000   0.00708635   -106.4064 
2928.0000   0.00709996   -104.2869 
2931.0000   0.00707192   -102.1196 
2934.0000   0.00709627   -99.9255 
2937.0000   0.00712760   -97.6656 
2940.0000   0.00713231   -95.3910 
2943.0000   0.00713624   -92.9597 
2946.0000   0.00715592   -91.1787 
2949.0000   0.00716440   -88.5099 
2952.0000   0.00722207   -86.3671 
2955.0000   0.00722339   -84.2227 
2958.0000   0.00722598   -81.8169 
2961.0000   0.00724529   -79.4831 
2964.0000   0.00721595   -76.8985 
2967.0000   0.00723555   -74.5319 
2970.0000   0.00721081   -72.5779 
2973.0000   0.00721882   -70.3996 
2976.0000   0.00720403   -67.5930 
2979.0000   0.00721210   -65.3921 
2982.0000   0.00717436   -63.1408 
2985.0000   0.00716680   -60.5892 
2988.0000   0.00716022   -58.5796 
2991.0000   0.00713059   -56.0938 
2994.0000   0.00712897   -53.6774 
2997.0000   0.00711018   -51.3054 
3000.0000   0.00708639   -48.9921 
3003.0000   0.00707967   -46.2467 
3006.0000   0.00709412   -44.2188 
3009.0000   0.00705730   -41.6147 
3012.0000   0.00701441   -39.2006 
3015.0000   0.00697913   -37.3471 
3018.0000   0.00698391   -34.8804 
3021.0000   0.00693378   -32.5986 
3024.0000   0.00694006   -28.4820 
3027.0000   0.00688776   -27.4062 
3030.0000   0.00690841   -24.7522 
3033.0000   0.00686012   -22.3165 
3036.0000   0.00680683   -20.0763 
3039.0000   0.00662587   -18.4286 
3042.0000   0.00669877   -14.8048 
3045.0000   0.00670659   -12.3281 
3048.0000   0.00667349   -9.5488 
3051.0000   0.00663219   -7.0897 
3054.0000   0.00658326   -4.2327 
3057.0000   0.00653318   -1.5565 
3060.0000   0.00645233   0.5805 
3063.0000   0.00640422   3.5191 
3066.0000   0.00638688   6.0094 
3069.0000   0.00631257   8.6836 
3072.0000   0.00620548   11.4033 
3075.0000   0.00618977   14.0743 
3078.0000   0.00610877   16.5901 
3081.0000   0.00608083   19.3860 
3084.0000   0.00603164   22.2054 
3087.0000   0.00599891   24.6070 
3090.0000   0.00596725   27.2835 
3093.0000   0.00592349   30.1443 
3096.0000   0.00587061   32.9123 
3099.0000   0.00584091   35.4127 
3102.0000   0.00581432   38.3473 
3105.0000   0.00577152   41.1278 
3108.0000   0.00567274   43.3589 
3111.0000   0.00564486   46.0683 
3114.0000   0.00558082   48.8446 
3117.0000   0.00555334   51.9123 
3120.0000   0.00550127   54.7500 
3123.0000   0.00547329   57.3098 
3126.0000   0.00543642   60.4120 
3129.0000   0.00541636   63.1596 
3132.0000   0.00535343   65.8276 
3135.0000   0.00531987   69.0979 
3138.0000   0.00524917   71.8887 
3141.0000   0.00522027   74.4307 
3144.0000   0.00513716   77.5383 
3147.0000   0.00513681   80.4625 
3150.0000   0.00510052   82.6416 
3153.0000   0.00511291   85.3687 
3156.0000   0.00505886   88.2291 
3159.0000   0.00497514   91.0234 
3162.0000   0.00493868   93.7146 
3165.0000   0.00490505   96.7581 
3168.0000   0.00492516   99.6153 
3171.0000   0.00489055   101.8837 
3174.0000   0.00466883   105.1221 
3177.0000   0.00483820   107.5027 
3180.0000   0.00482011   110.4233 
3183.0000   0.00482513   113.0925 
3186.0000   0.00477518   115.9863 
3189.0000   0.00478857   118.8474 
3192.0000   0.00477184   121.5685 
3195.0000   0.00474204   124.2862 
3198.0000   0.00476041   126.7499 
3201.0000   0.00473010   129.6731 
3204.0000   0.00474626   132.5141 
3207.0000   0.00473590   135.1473 
3210.0000   0.00471552   137.5248 
3213.0000   0.00462450   140.7141 
