! 2000 3000 10
# MHz S MA R 50.0
2000.0 -0.003571860676721062 -0.02777081726349611 -0.09225413973671232 0.21292974732834197 0.24401903976961517 -0.0854475587341 0.015004607953514104 -0.060656229931328916
2010.0 0.0007704591346023353 -0.029037240316075283 -0.1307615512622359 0.18726879860822318 0.2519648080603486 -0.03837287956505469 0.031037439824807424 -0.052846653585284446
2020.0 0.005768981224973598 -0.0294829072736442 -0.1626594556207649 0.15453512867033314 0.2522623869625107 0.008077951784494703 0.04379140658963605 -0.040821860300624235
2030.0 0.011328729078177358 -0.028996707061645102 -0.18673264794527927 0.11696829167756058 0.243661931406478 0.053844122907869094 0.05236855334690806 -0.02583315336542645
2040.0 0.017024902093876665 -0.027135705674286675 -0.20245047046620093 0.07580511031006751 0.2263826531699848 0.09685286051160744 0.0562473155403248 -0.009246034788126047
2050.0 0.02255867739252194 -0.024066452694415087 -0.20971750824809038 0.03453238642603557 0.2023055866692846 0.13511346040212824 0.055189916637786274 0.007237963872132941
2060.0 0.027518888363413957 -0.01950559425594514 -0.2089896328035071 -0.00661668969937156 0.17211641040936299 0.16793791255649404 0.049648756479459995 0.022505899551079463
2070.0 0.03149906408481268 -0.013766840614787548 -0.20094188605611504 -0.04571410331914839 0.1370573063954008 0.1942213019297866 0.04024506094162319 0.035190964292459166
2080.0 0.03412487813190309 -0.0070393485900587605 -0.186080860679808 -0.08177599407761599 0.09840664061644464 0.2136379874043238 0.027743906924515064 0.04470800124671473
2090.0 0.035160968889299864 0.0002954299405730126 -0.16577467612862065 -0.11405778719856584 0.05784595125960546 0.22584321701838592 0.013396275312446295 0.05020793360154888
2100.0 0.03435378027750612 0.00782333808979461 -0.13965284197165317 -0.14195655913347882 0.015255172405483748 0.23048060300725323 -0.001947095649444377 0.05150689047568602
2110.0 0.03175879651905477 0.014989873727475983 -0.11036636564583203 -0.16443955265885063 -0.0256522715648171 0.22827433801872557 -0.01673904855571893 0.0487546618574561
2120.0 0.02746879345212532 0.02130890003460707 -0.07720067604073705 -0.18143302235235673 -0.06587861664381847 0.21863346698823058 -0.030288557409814173 0.04180942310167519
2130.0 0.021760558894785068 0.026436565042900154 -0.04145188336725862 -0.19238244525802656 -0.10357442292290789 0.20272313679095194 -0.041455481276072785 0.03143256654011534
2140.0 0.014919494284797882 0.029974954222063182 -0.004408740432777746 -0.1967130917829225 -0.1377374533159651 0.1805381025579621 -0.04934139034844144 0.018344997364546825
2150.0 0.00750622992341604 0.03166889336482905 0.03334163444310058 -0.19418714678610102 -0.16789289357962667 0.1528607915259559 -0.05334710795700543 0.0033851073813998427
2160.0 -0.0002017673490791351 0.03137112116054741 0.07081805360581346 -0.1844988866587683 -0.19304431988544435 0.11967482499697354 -0.0530002346789367 -0.012420748544980492
2170.0 -0.007269081321650489 0.02923271059146127 0.1055665682859399 -0.16835475361638855 -0.2115652952827535 0.08333991882635727 -0.04824802421893285 -0.027387199487703552
2180.0 -0.013422426661024563 0.025346059572689345 0.1371273533112721 -0.1452349105731785 -0.2241030978716098 0.04415821936990403 -0.039377542516992436 -0.04072340832554236
2190.0 -0.018199901074396136 0.020134174854587277 0.1639125403160821 -0.11623187197336562 -0.22934024791213048 0.0032056048766234187 -0.026873518675118675 -0.051016557122280884
2200.0 -0.0215666778474486 0.01324306755991488 0.18551110122707673 -0.07555690611954208 -0.22393551384440946 -0.04538967949658611 -0.010144986481840791 -0.0572574610929979
2210.0 -0.022283165770028524 0.00702901938505146 0.19667531727194126 -0.03992682996562266 -0.2135283816474024 -0.0823881790854299 0.0053801131708609605 -0.058392519985792944
2220.0 -0.02157022678966252 0.0006039427000346845 0.20180359076440219 -0.00015462184899959206 -0.19631875972998777 -0.12073974100887135 0.02136655448000321 -0.05543320504808517
2230.0 -0.01919552767738974 -0.005014480679259273 0.19874874135495277 0.03960354508470782 -0.17250358661212084 -0.15517742881970342 0.03570887344867168 -0.04810799538827565
2240.0 -0.01529870847020761 -0.009372306208169782 0.18752594480165313 0.0781056014999401 -0.1424223758481406 -0.1847990715285763 0.04729502785276609 -0.03692421351474097
2250.0 -0.010589328981786867 -0.012393998893480213 0.1690663088703217 0.11366310606362376 -0.10732267201428614 -0.20901752946600904 0.055295276434745085 -0.023080523745141156
2260.0 -0.005295229778287139 -0.013728544416825153 0.143291462224505 0.14504477782713052 -0.06702929934251532 -0.2265281080775008 0.0590602462276724 -0.007574802524627891
2270.0 -7.327024633254077e-05 -0.013348278907087698 0.11196300543666707 0.17046294594900607 -0.02398469789593167 -0.23611265466677933 0.058288913819631125 0.008141144748597454
2280.0 0.004545845187134903 -0.011423900964710016 0.07639421748621263 0.1888099712003549 0.020265492017600917 -0.23723813804660804 0.05315658335243482 0.02280501756408335
2290.0 0.008194454949155492 -0.008308865187157694 0.03783730247561793 0.19990973768770895 0.06446052920208896 -0.23011789257581478 0.044364377243667714 0.03523898342659644
2300.0 0.010559760019831443 -0.004318025077922713 -0.0016322219960519307 0.20325455638137044 0.10634005753887163 -0.21462588773121094 0.03269133700790998 0.04443588066931672
2310.0 0.011494286592739204 8.622514758359882e-05 -0.041760814394383575 0.19846280331671182 0.1454658590645914 -0.190593530060579 0.019067587551338094 0.049919742449620635
2320.0 0.01105367423454052 0.004457874953860312 -0.07949965538517947 0.18609805681299793 0.1784218284866931 -0.15988538483965523 0.004890248958868823 0.05143066015167589
2330.0 0.009231612811890793 0.008379997563062522 -0.11354209329101125 0.16655386485319185 0.20360573175530902 -0.12369057596643185 -0.008718978117257867 0.048906038888870136
2340.0 0.006575021342854655 0.01153359985221465 -0.14362269398047237 0.1406000723946317 0.22312740083911037 -0.08313108905363306 -0.020769921142705167 0.042825693733630384
2350.0 0.0030791562637538378 0.01382623913090561 -0.16783254952903892 0.1091658938560075 0.2335098369171955 -0.039897369764087906 -0.030438108071887345 0.03388965939818526
2360.0 -0.0007064260704771385 0.014912797512115232 -0.1850747698421167 0.07353983838646318 0.23560157292041828 0.004051153216656774 -0.03678439998814483 0.022828809314483983
2370.0 -0.0046866596809299905 0.015051387870360835 -0.19479516734963404 0.03561948010187915 0.22915953501014882 0.04665052491898098 -0.03964769790579793 0.010818422007066734
2380.0 -0.00847495985389685 0.014194449975780558 -0.19675424155092164 -0.0032152056826391952 0.21514273762255082 0.08689448152218099 -0.038931442189140894 -0.0010358426144839153
2390.0 -0.0119399623129359 0.012492448715655005 -0.19111922214725 -0.041687851444407745 0.19419536789411193 0.1235898598276611 -0.035039980042581916 -0.011760061939626879
2400.0 -0.014805170421709132 0.010092777680552022 -0.17739055332020676 -0.0780300616764621 0.16756563203289385 0.15493513152512192 -0.028332656502075348 -0.02060006982356632
2410.0 -0.01720109788929858 0.007166467040018253 -0.15731819513770415 -0.110688183296311 0.13584432823057244 0.18076202216706613 -0.019771383292290043 -0.02689618797621243
2420.0 -0.018938848759227776 0.0040113449957709406 -0.13128357448390907 -0.13785603465891616 0.10080948458031148 0.19987995538631692 -0.010114628159286912 -0.030203507175388757
2430.0 -0.02010823663033715 0.0004468040491840875 -0.10106759340874782 -0.1590937371346997 0.06353602288700158 0.2125162070269581 -0.00027199467179856297 -0.030652513253188768
2440.0 -0.020603221289454982 -0.003352162471800695 -0.06706485408883503 -0.17395448167411892 0.02452523918497427 0.2184546839762503 0.008981075151538826 -0.028258878163269538
2450.0 -0.020424523453403436 -0.007225482704136309 -0.03241248482869243 -0.18160280382442937 -0.01349752957185267 0.21741928522575787 0.016647304233647783 -0.023424253452890925
2460.0 -0.019619403602621818 -0.011132920331949295 0.003648890398774427 -0.18247045992987831 -0.05141656066991401 0.20997133992613648 0.022764718095009438 -0.016940007408946134
2470.0 -0.01810561884022521 -0.014973001828804474 0.037887294136940725 -0.1762630887735176 -0.08670121427090596 0.1958313980190065 0.026624038735401003 -0.009299042479135527
2480.0 -0.01598111512277828 -0.01866097152824867 0.0697259235183482 -0.16397109032146356 -0.1187460990257745 0.1764240188703606 0.027912140536024872 -0.0009124321342966624
2490.0 -0.012859561276037866 -0.02213828847458465 0.0986253766841569 -0.14623464970431957 -0.14697877451085864 0.15160466255656607 0.02706461791809784 0.007275844263717947
2500.0 -0.008998882762476675 -0.025214548956697603 0.12302627033619254 -0.12385271106025282 -0.17040925591448908 0.12262789699073808 0.02408092881801801 0.014720472756594796
2510.0 -0.00425497202108687 -0.02765591224389765 0.14290312654998902 -0.09766218777006908 -0.18859335503519728 0.09010355356839225 0.01930259389663015 0.021023204950955422
2520.0 0.001142947211355495 -0.02910807936865905 0.15717632717959812 -0.06835167178951751 -0.20061606263818046 0.054705125296755724 0.013090277964620098 0.02574330021794761
2530.0 0.007139575506882019 -0.02953469801832466 0.16617773580449155 -0.03754852658354396 -0.20682992463742814 0.017897410384876855 0.005974764212405384 0.028717244809454822
2540.0 0.013543959186029303 -0.028610581510512375 0.16936657590847326 -0.0054459490386400055 -0.20671047151853333 -0.019372464504373608 -0.0016355212131986456 0.029800262771883024
2550.0 0.01983502059620187 -0.026188101561736916 0.16693137173060388 0.026034202957706247 -0.20019691892188757 -0.056174804260095766 -0.00914841528416898 0.028976266182653407
2560.0 0.02586555992668223 -0.02220598302899717 0.1588670839202387 0.056576272699341276 -0.18761653847105372 -0.0914280754214181 -0.016168664221760505 0.026358109705592728
2570.0 0.030986577523016798 -0.0168307817527936 0.14574899386729281 0.08439939652734935 -0.1691074821817325 -0.12374847856976437 -0.022188869243860185 0.022159146913700793
2580.0 0.034926077504044896 -0.00982767069237921 0.12715766457312805 0.11068344866143381 -0.14510653296923043 -0.15287136792836006 -0.027245042081036803 0.01652989988072928
2590.0 0.037139532161725504 -0.0019044786680497447 0.10463915561211908 0.13222833618272153 -0.11656343528637052 -0.17771301428723366 -0.03072503282327461 0.010096588497225079
2600.0 0.03745510081260927 0.006768192521439976 0.07839541922936512 0.14965747077236402 -0.08310061925139056 -0.19745602753649485 -0.0324758655279607 0.003033562827339091
2610.0 0.03554812313176811 0.015444961569183445 0.04933470786534939 0.16201359528738055 -0.04614146662947949 -0.21111574917995468 -0.0324671148907236 -0.004185342060746498
2620.0 0.031264479964463514 0.02359397134039243 0.01824769888668221 0.16856751558849373 -0.007024817302586908 -0.2177823427166155 -0.03104331011306205 -0.011102279273030358
2630.0 0.024827234274604273 0.030650876490469478 -0.013933608989898037 0.1692643304278141 0.03380717753312853 -0.2170977043117958 -0.027889758231231965 -0.01745006959365862
2640.0 0.01669634225102074 0.035804768891576154 -0.045599335957910006 0.16375977302869518 0.0738552324580117 -0.2083700213754307 -0.023488295415663947 -0.02276174177274226
2650.0 0.007275397325206155 0.038625881137761546 -0.07601770459463215 0.15237201399907838 0.11177222148386937 -0.19234957400556116 -0.018129022477968208 -0.02681726687078539
2660.0 -0.002582689969261392 0.038826876996548104 -0.1037733091528123 0.1352928052948528 0.14614673068874282 -0.1686295539826663 -0.01208801147875289 -0.029517043313286622
2670.0 -0.012225491016085423 0.03629315338709513 -0.12754286152372823 0.11308229826529695 0.17525906585946077 -0.1389928125956522 -0.0058910705579519485 -0.03070762279046087
2680.0 -0.02080243256631855 0.031191931769941235 -0.147115939647189 0.08614371628368865 0.1982237635650216 -0.10357998645614176 0.0003103867711889964 -0.030471619226622514
2690.0 -0.02734995949742912 0.024253593012407187 -0.16058981141026635 0.056885499440781806 0.21344784518453508 -0.06554281262722216 0.005854031998048197 -0.02892851605385122
2700.0 -0.0317740029138908 0.015453854361839934 -0.16848845230857548 0.024193713203081998 0.22143862578359003 -0.0241924164747567 0.010949335347224885 -0.02636645601211721
2710.0 -0.03341719446332512 0.0060955902739942055 -0.16973738795255158 -0.00879010621497821 0.22106416446188637 0.01643294865743983 0.014884895459661231 -0.02305024757475408
2720.0 -0.032405541113855595 -0.002977023533365958 -0.16453588067558447 -0.04112224327744572 0.21317901018419594 0.0561643413011226 0.01791319490791491 -0.019049280766702224
2730.0 -0.028900512475617493 -0.011241465895170336 -0.15306230675459598 -0.07217352241621273 0.19830848082181118 0.09391196790751141 0.01997031129777421 -0.014873703138159366
2740.0 -0.023250204277141463 -0.017830518138764018 -0.1359924272250693 -0.09999726232979494 0.17680659605882998 0.12727972502265483 0.020910446826906345 -0.01077365164173793
2750.0 -0.016148003422839584 -0.02244115036602093 -0.113916797154529 -0.12395477738330174 0.150211882207094 0.15633935921584083 0.02109624730369183 -0.0068859851697760195
2760.0 -0.008301047435774372 -0.02457055490169328 -0.087550570383971 -0.1430067716748607 0.11897868140620706 0.17979808520358712 0.020596922019127453 -0.003343794885213893
2770.0 -0.0005745871889702693 -0.02424518237758527 -0.05846709783629773 -0.15655808987846553 0.08457632780390513 0.19743603385695932 0.019514721494210675 -0.00034720627801337623
2780.0 0.006535919646572972 -0.02167959559276052 -0.027239416773695697 -0.1643263804719635 0.04735220994304552 0.20852091733092926 0.018208523899989962 0.00219083440862023
2790.0 0.012346357598116742 -0.017145565086106814 0.0051037424399957105 -0.16620105498301202 0.008348235599296792 0.21300747983767784 0.016680624468683927 0.00427736412184456
2800.0 0.01627381546965165 -0.011138659137352508 0.03693037342594225 -0.1614329084455303 -0.030740677268431316 0.21022904416036464 0.015070556185687164 0.005867766194255381
2810.0 0.017872774526937404 -0.00465237801195878 0.06611371354673039 -0.15134847159471576 -0.06774485071349738 0.20097944032420717 0.013521621030962458 0.0070593496021541385
2820.0 0.017475786864571446 0.002297628093593956 0.09407410999183427 -0.13521486525890994 -0.10386550950297868 0.18452581673308355 0.012051529924064436 0.008186798644884303
2830.0 0.0149919592673018 0.008371375865678458 0.11769042071522816 -0.11464773097516363 -0.13546462523288122 0.16171310380604734 0.010769271491401618 0.009055373649352322
2840.0 0.010538850624571154 0.01877317743043452 0.14414451650791024 -0.07882463192323631 -0.17379492103904062 0.11996786342949736 0.0084443900340101 0.0105148359836714
2850.0 0.003019399262379532 0.026627354958657496 0.15599093635060884 -0.049574948847883805 -0.19281116843803342 0.08489799706217582 0.0070482822388030575 0.011030760244524098
2860.0 -0.0063410703281150255 0.0265016924394726 0.16210641037638504 -0.018498066618194007 -0.20416959964077025 0.046540611709298386 0.00559589750078057 0.011408986042342141
2870.0 -0.01592918862051345 0.024431970294237524 0.16201979995059582 0.013212276262375039 -0.20796188840180074 0.006441003660073311 0.004071062707956536 0.011724751376651257
2880.0 -0.02380852672402376 0.018537302204092332 0.15572298182508917 0.04438530520344594 -0.20421297702160476 -0.03361538609312138 0.0025147266968180105 0.011809371188289865
2890.0 -0.028839830240612877 0.009988095909387894 0.14444130888186066 0.07328274523145621 -0.19323498187387458 -0.07195214069587828 0.0009949593315948942 0.011305392507850943
2900.0 -0.031226118537875634 0.0006163099046258096 0.1268605553868967 0.099662448280986 -0.17450921546846185 -0.10638881804322321 -0.0005269920568170807 0.010844963420392513
2910.0 -0.030482847598003855 -0.008867279482528474 0.10438491361849198 0.12202311049851527 -0.14968191103690828 -0.13616042834070394 -0.0019124519670163558 0.010099624957584081
2920.0 -0.026900144170899375 -0.01760899658808611 0.07802669077800932 0.1395528372709126 -0.12008934625614712 -0.16015987594167058 -0.003038536063761422 0.009004127253055747
2930.0 -0.02103725875391166 -0.024649492630353823 0.049423266651439444 0.15122944427548762 -0.08789073731129354 -0.17746596496212927 -0.0037855216219100057 0.00775171521701177
2940.0 -0.01342508634100682 -0.02953868620831692 0.018045093440880115 0.157541186499113 -0.05254028148923829 -0.18877203922470642 -0.0041898256203960465 0.006465665906213597
2950.0 -0.005000618951015279 -0.031861608446472796 -0.013215235187541979 0.15733322735279268 -0.017093021959934368 -0.1930724200110767 -0.004138619388875123 0.005129193775792342
2960.0 0.0033751515357392254 -0.03156696654388726 -0.04410892366835137 0.15106290038328954 0.018145120936450918 -0.19097693356843273 -0.0036601170330242795 0.0041305264346164815
2970.0 0.011076938643623168 -0.0289888082184661 -0.07278358763387575 0.13881415210166984 0.051777089375119954 -0.1829544161550875 -0.002708526766499528 0.0033375280843096454
2980.0 0.017383895424472575 -0.024455731476590543 -0.0986060487419199 0.12135332280928166 0.08322434706348336 -0.16935500813499574 -0.0015361850963539491 0.0031999569556229986
2990.0 0.021951545963897184 -0.018503325612562443 -0.12044460873590723 0.09875314461969459 0.11159039879802621 -0.15046003966202812 -0.00025412435545301635 0.0036660528275606705
