! 1500 3500 3
# MHz S MA R 50.0
1500.0000   0.36755285   -71.0985 
1503.0000   0.36688481   -68.4142 
1506.0000   0.36580304   -65.6696 
1509.0000   0.36485237   -62.9742 
1512.0000   0.36390501   -60.2383 
1515.0000   0.36331859   -57.5595 
1518.0000   0.36274646   -54.8531 
1521.0000   0.36204116   -52.1515 
1524.0000   0.36159377   -49.4350 
1527.0000   0.36094932   -46.7486 
1530.0000   0.36051559   -44.0503 
1533.0000   0.35993766   -41.3676 
1536.0000   0.35938699   -38.6115 
1539.0000   0.35872751   -35.9200 
1542.0000   0.35839410   -33.1782 
1545.0000   0.35780488   -30.4507 
1548.0000   0.35749547   -27.6676 
1551.0000   0.35687438   -24.9370 
1554.0000   0.35603782   -22.1606 
1557.0000   0.35582365   -19.4156 
1560.0000   0.35497969   -16.5769 
1563.0000   0.35391351   -13.8287 
1566.0000   0.35356793   -11.0158 
1569.0000   0.35289592   -8.1907 
1572.0000   0.35198192   -5.3442 
1575.0000   0.35114659   -2.5242 
1578.0000   0.35026677   0.3204 
1581.0000   0.34921481   3.1543 
1584.0000   0.34796658   6.0905 
1587.0000   0.34758042   8.9579 
1590.0000   0.34609348   11.8320 
1593.0000   0.34562984   14.7417 
1596.0000   0.34406834   17.7063 
1599.0000   0.34352720   20.5822 
1602.0000   0.34252561   23.5031 
1605.0000   0.34136898   26.4255 
1608.0000   0.34035469   29.3888 
1611.0000   0.33934370   32.2686 
1614.0000   0.33833375   35.2065 
1617.0000   0.33732167   38.1697 
1620.0000   0.33603033   41.1143 
1623.0000   0.33515674   44.0296 
1626.0000   0.33396261   46.9637 
1629.0000   0.33292079   49.9317 
1632.0000   0.33156526   52.9127 
1635.0000   0.33061286   55.7408 
1638.0000   0.32942808   58.7101 
1641.0000   0.32831088   61.6564 
1644.0000   0.32710613   64.6154 
1647.0000   0.32597599   67.5062 
1650.0000   0.32463295   70.4282 
1653.0000   0.32335320   73.3637 
1656.0000   0.32216892   76.3196 
1659.0000   0.32093271   79.2050 
1662.0000   0.31976356   82.1069 
1665.0000   0.31847584   85.0117 
1668.0000   0.31706166   87.9432 
1671.0000   0.31589111   90.8354 
1674.0000   0.31462129   93.7329 
1677.0000   0.31326183   96.6579 
1680.0000   0.31207142   99.5716 
1683.0000   0.31073318   102.4195 
1686.0000   0.30957843   105.2579 
1689.0000   0.30814794   108.1167 
1692.0000   0.30689315   111.0066 
1695.0000   0.30566590   113.8437 
1698.0000   0.30435811   116.6764 
1701.0000   0.30278588   119.5696 
1704.0000   0.30173195   122.3950 
1707.0000   0.30055458   125.1703 
1710.0000   0.29908184   128.0029 
1713.0000   0.29759877   130.7717 
1716.0000   0.29665821   133.6146 
1719.0000   0.29548927   136.3488 
1722.0000   0.29392994   139.1472 
1725.0000   0.29260407   141.9057 
1728.0000   0.29161708   144.6704 
1731.0000   0.29050602   147.3968 
1734.0000   0.28894866   150.1484 
1737.0000   0.28759181   152.8721 
1740.0000   0.28662528   155.6181 
1743.0000   0.28544707   158.2549 
1746.0000   0.28388515   160.9621 
1749.0000   0.28255483   163.6884 
1752.0000   0.28145799   166.3924 
1755.0000   0.28034239   169.0177 
1758.0000   0.27918454   171.6452 
1761.0000   0.27779874   174.3031 
1764.0000   0.27672386   176.9919 
1767.0000   0.27544668   179.5972 
1770.0000   0.27438082   -177.7625 
1773.0000   0.27310906   -175.1359 
1776.0000   0.27193988   -172.4796 
1779.0000   0.27076733   -169.8764 
1782.0000   0.26980074   -167.3348 
1785.0000   0.26855478   -164.7062 
1788.0000   0.26744839   -162.1155 
1791.0000   0.26688560   -159.5368 
1794.0000   0.26587747   -156.9721 
1797.0000   0.26501823   -154.3806 
1800.0000   0.26391781   -151.7443 
1803.0000   0.26342979   -149.1891 
1806.0000   0.26266119   -146.6001 
1809.0000   0.26174632   -143.9978 
1812.0000   0.26120360   -141.3526 
1815.0000   0.26059679   -138.8020 
1818.0000   0.26018502   -136.7174 
1821.0000   0.25970689   -134.1106 
1824.0000   0.25887489   -131.4746 
1827.0000   0.25869193   -128.9591 
1830.0000   0.25791585   -126.3581 
1833.0000   0.25789761   -123.7334 
1836.0000   0.25721482   -121.1284 
1839.0000   0.25730327   -118.5989 
1842.0000   0.25682059   -116.0025 
1845.0000   0.25654806   -113.4161 
1848.0000   0.25586232   -110.7980 
1851.0000   0.25639784   -108.3179 
1854.0000   0.25620427   -105.7769 
1857.0000   0.25602110   -103.1959 
1860.0000   0.25548199   -100.5389 
1863.0000   0.25544018   -98.0859 
1866.0000   0.25522562   -95.4874 
1869.0000   0.25446198   -92.8892 
1872.0000   0.25408976   -90.2639 
1875.0000   0.25385406   -87.7161 
1878.0000   0.25374591   -85.1758 
1881.0000   0.25334713   -82.6294 
1884.0000   0.25275918   -79.9280 
1887.0000   0.25250381   -77.4616 
1890.0000   0.25180347   -74.8600 
1893.0000   0.25154081   -72.2792 
1896.0000   0.25076763   -69.6230 
1899.0000   0.25068298   -67.0669 
1902.0000   0.24981593   -64.5048 
1905.0000   0.24922099   -61.8774 
1908.0000   0.24901515   -59.2195 
1911.0000   0.24833284   -56.6736 
1914.0000   0.24795180   -54.0730 
1917.0000   0.24739216   -51.4895 
1920.0000   0.24673181   -48.7888 
1923.0000   0.24675852   -46.2878 
1926.0000   0.24607620   -43.6831 
1929.0000   0.24565942   -41.0497 
1932.0000   0.24500406   -38.3882 
1935.0000   0.24462834   -35.8110 
1938.0000   0.24383944   -33.1697 
1941.0000   0.24356866   -30.5803 
1944.0000   0.24278268   -27.8662 
1947.0000   0.24224787   -25.2991 
1950.0000   0.24169246   -22.7066 
1953.0000   0.24120328   -20.0237 
1956.0000   0.24079290   -17.3723 
1959.0000   0.24020677   -14.7487 
1962.0000   0.23959929   -12.1678 
1965.0000   0.23936499   -9.4914 
1968.0000   0.23848785   -6.7707 
1971.0000   0.23770701   -4.1587 
1974.0000   0.23725047   -1.5014 
1977.0000   0.23655299   1.1793 
1980.0000   0.23620169   3.8749 
1983.0000   0.23530932   6.4741 
1986.0000   0.23500064   9.1117 
1989.0000   0.23410393   11.8715 
1992.0000   0.23352037   14.5825 
1995.0000   0.23283353   17.2284 
1998.0000   0.23226573   19.9240 
2001.0000   0.23116942   22.6664 
2004.0000   0.23039337   25.4891 
2007.0000   0.22979225   28.0968 
2010.0000   0.22939367   30.7533 
2013.0000   0.22844865   33.4735 
2016.0000   0.22724653   36.3316 
2019.0000   0.22680528   38.9125 
2022.0000   0.22594379   41.6473 
2025.0000   0.22500093   44.4146 
2028.0000   0.22387668   47.2490 
2031.0000   0.22291573   49.8565 
2034.0000   0.22246312   52.5859 
2037.0000   0.22145679   55.2817 
2040.0000   0.22030205   58.0700 
2043.0000   0.21957659   60.6293 
2046.0000   0.21871448   63.3064 
2049.0000   0.21752681   66.0512 
2052.0000   0.21663456   68.8246 
2055.0000   0.21597213   71.4084 
2058.0000   0.21508609   74.0766 
2061.0000   0.21408431   76.7667 
2064.0000   0.21292731   79.5664 
2067.0000   0.21217301   82.0851 
2070.0000   0.21144317   84.6977 
2073.0000   0.21083303   87.3781 
2076.0000   0.20985224   90.0785 
2079.0000   0.20936984   92.6158 
2082.0000   0.20872609   95.2597 
2085.0000   0.20798517   97.9043 
2088.0000   0.20731013   100.5741 
2091.0000   0.20687034   103.1041 
2094.0000   0.20612230   105.6904 
2097.0000   0.20575525   108.2902 
2100.0000   0.20516350   110.9380 
2103.0000   0.20497493   113.3524 
2106.0000   0.20461371   115.9309 
2109.0000   0.20428341   118.4563 
2112.0000   0.20376429   121.1018 
2115.0000   0.20374865   123.5491 
2118.0000   0.20338751   126.1245 
2121.0000   0.20318483   128.6774 
2124.0000   0.20297824   131.2726 
2127.0000   0.20264786   133.7656 
2130.0000   0.20270422   136.3263 
2133.0000   0.20257041   138.8809 
2136.0000   0.20230647   141.4453 
2139.0000   0.20229854   143.9774 
2142.0000   0.20229400   146.5174 
2145.0000   0.20201683   149.0841 
2148.0000   0.20209919   151.7224 
2151.0000   0.20223396   154.2399 
2154.0000   0.20221675   156.8039 
2157.0000   0.20211640   159.4019 
2160.0000   0.20214821   162.0564 
2163.0000   0.20230882   164.6187 
2166.0000   0.20229753   167.2136 
2169.0000   0.20248024   169.7720 
2172.0000   0.20260644   172.3775 
2175.0000   0.20279422   174.9437 
2178.0000   0.20294509   177.5434 
2181.0000   0.20324261   -179.8321 
2184.0000   0.20318882   -177.2045 
2187.0000   0.20341314   -174.6641 
2190.0000   0.20377580   -172.0377 
2193.0000   0.20391732   -169.4340 
2196.0000   0.20449596   -166.7538 
2199.0000   0.20476611   -164.2292 
2202.0000   0.20273166   -159.8742 
2205.0000   0.20297119   -157.3594 
2208.0000   0.20339371   -154.8637 
2211.0000   0.20376478   -152.3477 
2214.0000   0.20418612   -149.8267 
2217.0000   0.20449517   -147.2144 
2220.0000   0.20493742   -144.6379 
2223.0000   0.20522015   -142.1058 
2226.0000   0.20581409   -139.5523 
2229.0000   0.20617551   -136.9886 
2232.0000   0.20666850   -134.4763 
2235.0000   0.20697107   -131.9253 
2238.0000   0.20736137   -129.3968 
2241.0000   0.20785625   -126.8479 
2244.0000   0.20851654   -124.2888 
2247.0000   0.20897522   -121.7054 
2250.0000   0.20969487   -119.1875 
2253.0000   0.21018811   -116.6807 
2256.0000   0.21073035   -114.0989 
2259.0000   0.21126550   -111.4076 
2262.0000   0.21181926   -108.8120 
2265.0000   0.21246848   -106.2142 
2268.0000   0.21300009   -103.6002 
2271.0000   0.21387149   -101.0464 
2274.0000   0.21405104   -98.4631 
2277.0000   0.21468876   -95.8560 
2280.0000   0.21512752   -93.3081 
2283.0000   0.21576576   -90.6859 
2286.0000   0.21659171   -88.0765 
2289.0000   0.21728756   -85.4583 
2292.0000   0.21799274   -82.8979 
2295.0000   0.21872030   -80.2961 
2298.0000   0.21906790   -77.7792 
2301.0000   0.22003899   -75.1835 
2304.0000   0.22068043   -72.4432 
2307.0000   0.22114612   -69.8370 
2310.0000   0.22178130   -67.1624 
2313.0000   0.22287135   -64.5653 
2316.0000   0.22341306   -61.9788 
2319.0000   0.22411053   -59.3225 
2322.0000   0.22471943   -56.7834 
2325.0000   0.22525026   -54.1150 
2328.0000   0.22576690   -51.5465 
2331.0000   0.22634270   -48.9208 
2334.0000   0.22718699   -46.3138 
2337.0000   0.22783937   -43.6659 
2340.0000   0.22852430   -41.0770 
2343.0000   0.22839991   -38.6416 
2346.0000   0.22976352   -35.7127 
2349.0000   0.23044364   -33.0840 
2352.0000   0.23081890   -30.5123 
2355.0000   0.23145058   -27.8736 
2358.0000   0.23231730   -25.2261 
2361.0000   0.23244224   -22.4285 
2364.0000   0.23316678   -20.0013 
2367.0000   0.23314132   -17.2380 
2370.0000   0.23468863   -14.6751 
2373.0000   0.23523353   -12.0319 
2376.0000   0.23574854   -9.4448 
2379.0000   0.23648723   -6.7706 
2382.0000   0.23711931   -4.1141 
2385.0000   0.23766102   -1.2991 
2388.0000   0.23837219   1.1282 
2391.0000   0.23895080   3.8587 
2394.0000   0.23951252   6.5182 
2397.0000   0.24013142   9.1298 
2400.0000   0.24044445   11.6983 
2403.0000   0.24119485   14.3816 
2406.0000   0.24126949   17.0710 
2409.0000   0.24239300   19.7374 
2412.0000   0.24201563   22.5155 
2415.0000   0.24356066   24.9669 
2418.0000   0.24336970   27.6592 
2421.0000   0.24435700   30.2245 
2424.0000   0.24478577   32.8646 
2427.0000   0.24543580   35.5425 
2430.0000   0.24575398   38.1065 
2433.0000   0.24563339   40.6090 
2436.0000   0.24669741   43.4555 
2439.0000   0.24713484   46.4049 
2442.0000   0.24789839   48.8066 
2445.0000   0.24835542   51.5180 
2448.0000   0.24883462   54.0718 
2451.0000   0.24948007   56.8493 
2454.0000   0.24990430   59.5404 
2457.0000   0.25051196   62.2292 
2460.0000   0.25099918   64.9286 
2463.0000   0.25137945   67.6339 
2466.0000   0.25161456   70.3090 
2469.0000   0.25205385   73.0128 
2472.0000   0.25257681   75.6831 
2475.0000   0.25297173   78.4332 
2478.0000   0.25358465   81.1395 
2481.0000   0.25422999   83.7941 
2484.0000   0.25441081   86.7270 
2487.0000   0.25472518   89.5314 
2490.0000   0.25532802   92.2452 
2493.0000   0.25565843   94.9661 
2496.0000   0.25601192   97.7397 
2499.0000   0.25648218   100.5593 
2502.0000   0.25701099   103.3418 
2505.0000   0.25727983   106.2423 
2508.0000   0.25769831   109.0494 
2511.0000   0.25824809   111.9279 
2514.0000   0.25834974   114.7908 
2517.0000   0.25864115   117.6426 
2520.0000   0.25887297   120.4743 
2523.0000   0.25913467   123.3676 
2526.0000   0.25965232   126.2249 
2529.0000   0.26014391   129.1172 
2532.0000   0.26044517   132.0961 
2535.0000   0.26094015   135.0399 
2538.0000   0.26108590   137.9141 
2541.0000   0.26141046   140.8809 
2544.0000   0.26167249   143.7605 
2547.0000   0.26206708   146.7499 
2550.0000   0.26243574   149.7125 
2553.0000   0.26272271   152.6458 
2556.0000   0.26313098   155.6238 
2559.0000   0.26329533   158.5814 
2562.0000   0.26354351   161.5658 
2565.0000   0.26379097   164.5263 
2568.0000   0.26395949   167.4495 
2571.0000   0.26425260   170.3951 
2574.0000   0.26447297   173.3523 
2577.0000   0.26479323   176.3535 
2580.0000   0.26490153   179.3864 
2583.0000   0.26510613   -177.6476 
2586.0000   0.26521641   -174.7103 
2589.0000   0.26535359   -171.8067 
2592.0000   0.26543780   -168.8427 
2595.0000   0.26551304   -165.8314 
2598.0000   0.26554965   -162.8460 
2601.0000   0.26547852   -159.8504 
2604.0000   0.26550746   -156.8969 
2607.0000   0.26533143   -153.9877 
2610.0000   0.26532981   -151.0290 
2613.0000   0.26525756   -148.0951 
2616.0000   0.26491928   -145.2246 
2619.0000   0.26446927   -142.2838 
2622.0000   0.26449937   -139.3192 
2625.0000   0.26410327   -136.3177 
2628.0000   0.26386007   -133.3431 
2631.0000   0.26332400   -130.4248 
2634.0000   0.26286152   -127.5058 
2637.0000   0.26244863   -124.6174 
2640.0000   0.26195791   -121.7412 
2643.0000   0.26139752   -118.7991 
2646.0000   0.26095475   -115.9411 
2649.0000   0.26027270   -113.0135 
2652.0000   0.25965184   -110.1081 
2655.0000   0.25938141   -107.2308 
2658.0000   0.25832564   -104.3825 
2661.0000   0.25767375   -101.5069 
2664.0000   0.25665757   -98.6913 
2667.0000   0.25615217   -95.8522 
2670.0000   0.25530247   -93.0395 
2673.0000   0.25457281   -90.1219 
2676.0000   0.25371871   -87.2550 
2679.0000   0.25305205   -84.4484 
2682.0000   0.25192232   -81.6317 
2685.0000   0.25101771   -78.7782 
2688.0000   0.25010034   -76.0283 
2691.0000   0.24926012   -73.1844 
2694.0000   0.24813630   -70.3811 
2697.0000   0.24725790   -67.6130 
2700.0000   0.24638253   -64.7703 
2703.0000   0.24507381   -62.0283 
2706.0000   0.24428871   -59.3490 
2709.0000   0.24312696   -56.5686 
2712.0000   0.24207629   -53.8351 
2715.0000   0.24081820   -51.1400 
2718.0000   0.24014760   -48.3673 
2721.0000   0.23905074   -45.6787 
2724.0000   0.23790379   -43.0183 
2727.0000   0.23669324   -40.2636 
2730.0000   0.23573286   -37.4766 
2733.0000   0.23461566   -34.8011 
2736.0000   0.23341631   -32.1099 
2739.0000   0.23246990   -29.4770 
2742.0000   0.23111773   -26.8142 
2745.0000   0.23013181   -24.0643 
2748.0000   0.22889834   -21.4234 
2751.0000   0.22793907   -18.7212 
2754.0000   0.22656707   -16.0949 
2757.0000   0.22568582   -13.4697 
2760.0000   0.22421153   -10.8402 
2763.0000   0.22343868   -8.2149 
2766.0000   0.22218799   -5.5833 
2769.0000   0.22126052   -2.9267 
2772.0000   0.21988642   -0.3640 
2775.0000   0.21888060   2.3024 
2778.0000   0.21779606   4.9131 
2781.0000   0.21678035   7.5210 
2784.0000   0.21571119   10.2471 
2787.0000   0.21461121   12.8548 
2790.0000   0.21370397   15.4752 
2793.0000   0.21254384   18.1264 
2796.0000   0.21153314   20.7142 
2799.0000   0.21059561   23.3133 
2802.0000   0.20944740   25.8993 
2805.0000   0.20859053   28.4758 
2808.0000   0.20781261   31.0447 
2811.0000   0.20761127   33.5389 
2814.0000   0.20581442   36.1750 
2817.0000   0.20493586   38.8244 
2820.0000   0.20402444   41.3909 
2823.0000   0.20309370   43.9202 
2826.0000   0.20226821   46.5081 
2829.0000   0.20139323   49.0275 
2832.0000   0.20061007   51.5850 
2835.0000   0.19969441   54.1048 
2838.0000   0.19960513   61.1732 
2841.0000   0.19883477   63.7553 
2844.0000   0.19819024   66.3067 
2847.0000   0.19741789   68.8920 
2850.0000   0.19674536   71.4250 
2853.0000   0.19588895   73.9934 
2856.0000   0.19545764   76.5909 
2859.0000   0.19479373   79.1136 
2862.0000   0.19419449   81.6509 
2865.0000   0.19347538   84.3046 
2868.0000   0.19299799   86.8422 
2871.0000   0.19239183   89.4101 
2874.0000   0.19182310   91.9856 
2877.0000   0.19146162   94.5241 
2880.0000   0.19091568   97.0970 
2883.0000   0.19059405   99.5763 
2886.0000   0.19020991   102.1995 
2889.0000   0.18977192   104.7115 
2892.0000   0.18936939   107.2956 
2895.0000   0.18892472   109.8508 
2898.0000   0.18844868   112.4344 
2901.0000   0.18807868   114.9918 
2904.0000   0.18761797   117.5610 
2907.0000   0.18723252   120.0429 
2910.0000   0.18702917   122.6604 
2913.0000   0.18678858   125.2689 
2916.0000   0.18655036   127.8754 
2919.0000   0.18621585   130.4331 
2922.0000   0.18592188   132.9940 
2925.0000   0.18575628   135.5409 
2928.0000   0.18548840   138.2039 
2931.0000   0.18536077   140.7180 
2934.0000   0.18519167   143.2901 
2937.0000   0.18499364   145.8872 
2940.0000   0.18495436   148.5015 
2943.0000   0.18478501   151.1144 
2946.0000   0.18461739   153.6726 
2949.0000   0.18460889   156.3092 
2952.0000   0.18449710   158.9378 
2955.0000   0.18441810   161.5085 
2958.0000   0.18442000   164.1147 
2961.0000   0.18437324   166.7492 
2964.0000   0.18430945   169.3722 
2967.0000   0.18441483   172.0019 
2970.0000   0.18441839   174.5731 
2973.0000   0.18443584   177.1959 
2976.0000   0.18440041   179.8261 
2979.0000   0.18455236   -177.6089 
2982.0000   0.18455883   -174.9433 
2985.0000   0.18462255   -172.3137 
2988.0000   0.18459917   -169.6596 
2991.0000   0.18477377   -167.0521 
2994.0000   0.18505086   -164.4426 
2997.0000   0.18502100   -161.7535 
3000.0000   0.18514494   -159.1129 
3003.0000   0.18526712   -156.5396 
3006.0000   0.18544300   -153.8239 
3009.0000   0.18574946   -151.1392 
3012.0000   0.18569180   -148.4822 
3015.0000   0.18589212   -145.8301 
3018.0000   0.18598104   -143.2083 
3021.0000   0.18619661   -140.5552 
3024.0000   0.18622711   -137.9019 
3027.0000   0.18646529   -135.2563 
3030.0000   0.18664718   -132.6065 
3033.0000   0.18672249   -129.8476 
3036.0000   0.18678854   -127.1662 
3039.0000   0.18694529   -124.4695 
3042.0000   0.18705795   -121.7989 
3045.0000   0.18725189   -119.1049 
3048.0000   0.18733288   -116.3960 
3051.0000   0.18751138   -113.7077 
3054.0000   0.18755241   -110.9869 
3057.0000   0.18766037   -108.2708 
3060.0000   0.18783738   -105.6026 
3063.0000   0.18797796   -102.8888 
3066.0000   0.18803281   -100.1983 
3069.0000   0.18816124   -97.4436 
3072.0000   0.18810801   -94.7385 
3075.0000   0.18817649   -92.0574 
3078.0000   0.18809772   -89.2646 
3081.0000   0.18825606   -86.5485 
3084.0000   0.18848719   -83.7939 
3087.0000   0.18835256   -81.0434 
3090.0000   0.18833058   -78.2929 
3093.0000   0.18825199   -75.5537 
3096.0000   0.18822090   -72.7445 
3099.0000   0.18828613   -70.0180 
3102.0000   0.18819245   -67.2769 
3105.0000   0.18819566   -64.4970 
3108.0000   0.18818982   -61.7882 
3111.0000   0.18804411   -59.0039 
3114.0000   0.18784637   -56.2995 
3117.0000   0.18786808   -53.5214 
3120.0000   0.18767284   -50.7505 
3123.0000   0.18768681   -48.0014 
3126.0000   0.18764046   -45.2173 
3129.0000   0.18745080   -42.4386 
3132.0000   0.18732692   -39.6407 
3135.0000   0.18727195   -36.8733 
3138.0000   0.18701632   -34.1149 
3141.0000   0.18702807   -31.3198 
3144.0000   0.18669904   -28.4459 
3147.0000   0.18668143   -25.7288 
3150.0000   0.18656924   -22.9174 
3153.0000   0.18644625   -20.1206 
3156.0000   0.18627870   -17.3078 
3159.0000   0.18614805   -14.5790 
3162.0000   0.18597301   -11.8212 
3165.0000   0.18585507   -8.9919 
3168.0000   0.18562429   -6.1434 
3171.0000   0.18556052   -3.4615 
3174.0000   0.18537991   -0.6320 
3177.0000   0.18527130   2.1861 
3180.0000   0.18508308   5.0179 
3183.0000   0.18497415   7.8339 
3186.0000   0.18481443   10.6714 
3189.0000   0.18463493   13.4697 
3192.0000   0.18440297   16.3659 
3195.0000   0.18421501   19.0953 
3198.0000   0.18421442   21.9777 
3201.0000   0.18408306   24.7956 
3204.0000   0.18402890   27.6539 
3207.0000   0.18375531   30.4598 
3210.0000   0.18361530   33.2605 
3213.0000   0.18353926   35.9943 
