! 1500 3500 3
# MHz S MA R 50.0
1500.0000   0.34985248   99.2921 
1503.0000   0.35017460   101.8547 
1506.0000   0.35024833   104.4206 
1509.0000   0.35047253   106.9183 
1512.0000   0.35074290   109.5501 
1515.0000   0.35095036   112.0816 
1518.0000   0.35135328   114.6533 
1521.0000   0.35181359   117.1896 
1524.0000   0.35214196   119.7958 
1527.0000   0.35272617   122.3029 
1530.0000   0.35330015   124.8800 
1533.0000   0.35354505   127.4071 
1536.0000   0.35391386   130.0480 
1539.0000   0.35467104   132.6080 
1542.0000   0.35522809   135.2020 
1545.0000   0.35542588   137.8224 
1548.0000   0.35595891   140.4501 
1551.0000   0.35650980   143.0429 
1554.0000   0.35697070   145.7110 
1557.0000   0.35734674   148.3377 
1560.0000   0.35743191   151.0821 
1563.0000   0.35757938   153.6956 
1566.0000   0.35797941   156.4357 
1569.0000   0.35806062   159.1571 
1572.0000   0.35807056   161.9057 
1575.0000   0.35834069   164.6379 
1578.0000   0.35810978   167.4069 
1581.0000   0.35836436   170.1821 
1584.0000   0.35850435   173.0201 
1587.0000   0.35832744   175.7965 
1590.0000   0.35843630   178.6373 
1593.0000   0.35846186   -178.5536 
1596.0000   0.35844099   -175.6648 
1599.0000   0.35857823   -172.8414 
1602.0000   0.35860661   -169.9829 
1605.0000   0.35890218   -167.1147 
1608.0000   0.35871367   -164.2336 
1611.0000   0.35885692   -161.4104 
1614.0000   0.35902208   -158.5114 
1617.0000   0.35927599   -155.6423 
1620.0000   0.35927039   -152.7195 
1623.0000   0.35981940   -149.8766 
1626.0000   0.35998216   -146.9982 
1629.0000   0.36017755   -144.1051 
1632.0000   0.36037304   -141.1944 
1635.0000   0.36055128   -138.4151 
1638.0000   0.36074608   -135.5004 
1641.0000   0.36087673   -132.6386 
1644.0000   0.36115932   -129.7456 
1647.0000   0.36133473   -126.8960 
1650.0000   0.36163363   -124.0039 
1653.0000   0.36184167   -121.1476 
1656.0000   0.36192232   -118.2004 
1659.0000   0.36211078   -115.4171 
1662.0000   0.36235135   -112.5311 
1665.0000   0.36235199   -109.6651 
1668.0000   0.36231917   -106.7887 
1671.0000   0.36257323   -103.9280 
1674.0000   0.36257317   -101.0464 
1677.0000   0.36257833   -98.2020 
1680.0000   0.36258859   -95.2888 
1683.0000   0.36265473   -92.4870 
1686.0000   0.36257618   -89.6205 
1689.0000   0.36253322   -86.7514 
1692.0000   0.36230142   -83.9148 
1695.0000   0.36247322   -81.0858 
1698.0000   0.36228959   -78.2484 
1701.0000   0.36230320   -75.4006 
1704.0000   0.36214076   -72.5000 
1707.0000   0.36215396   -69.7213 
1710.0000   0.36206500   -66.8745 
1713.0000   0.36194260   -64.0310 
1716.0000   0.36178538   -61.1599 
1719.0000   0.36174375   -58.3685 
1722.0000   0.36174190   -55.5677 
1725.0000   0.36147505   -52.7390 
1728.0000   0.36127922   -49.8895 
1731.0000   0.36136383   -47.0823 
1734.0000   0.36127534   -44.2722 
1737.0000   0.36121490   -41.4435 
1740.0000   0.36111423   -38.6295 
1743.0000   0.36122661   -35.8464 
1746.0000   0.36108047   -33.0334 
1749.0000   0.36105592   -30.2512 
1752.0000   0.36090572   -27.3949 
1755.0000   0.36106440   -24.6363 
1758.0000   0.36113466   -21.8536 
1761.0000   0.36104897   -19.0600 
1764.0000   0.36127643   -16.2348 
1767.0000   0.36136808   -13.4898 
1770.0000   0.36152589   -10.7095 
1773.0000   0.36171104   -7.9011 
1776.0000   0.36171024   -5.0905 
1779.0000   0.36197453   -2.3439 
1782.0000   0.36196565   0.4262 
1785.0000   0.36235001   3.1650 
1788.0000   0.36243377   5.9855 
1791.0000   0.36282289   8.7449 
1794.0000   0.36306117   11.5467 
1797.0000   0.36308027   14.3373 
1800.0000   0.36312955   17.1631 
1803.0000   0.36342089   19.9178 
1806.0000   0.36340654   22.7312 
1809.0000   0.36371801   25.5413 
1812.0000   0.36365253   28.3782 
1815.0000   0.36395894   31.1543 
1818.0000   0.36434094   33.5023 
1821.0000   0.36425475   36.3035 
1824.0000   0.36435526   39.1377 
1827.0000   0.36458100   41.9536 
1830.0000   0.36456055   44.7684 
1833.0000   0.36449492   47.5784 
1836.0000   0.36436866   50.4791 
1839.0000   0.36449199   53.2534 
1842.0000   0.36420006   56.0572 
1845.0000   0.36421295   58.8950 
1848.0000   0.36398511   61.7871 
1851.0000   0.36455535   64.5225 
1854.0000   0.36450220   67.3300 
1857.0000   0.36414990   70.1474 
1860.0000   0.36372074   73.0352 
1863.0000   0.36368467   75.7661 
1866.0000   0.36338014   78.6009 
1869.0000   0.36296374   81.4183 
1872.0000   0.36246502   84.2878 
1875.0000   0.36203181   87.0698 
1878.0000   0.36154961   89.8816 
1881.0000   0.36106264   92.7163 
1884.0000   0.36030587   95.6317 
1887.0000   0.35979619   98.3883 
1890.0000   0.35912974   101.2354 
1893.0000   0.35839686   104.0770 
1896.0000   0.35752003   106.9542 
1899.0000   0.35703874   109.7163 
1902.0000   0.35604558   112.5615 
1905.0000   0.35529948   115.4097 
1908.0000   0.35422075   118.3121 
1911.0000   0.35364598   121.1051 
1914.0000   0.35268265   123.9486 
1917.0000   0.35182811   126.7925 
1920.0000   0.35077205   129.7092 
1923.0000   0.35014407   132.4783 
1926.0000   0.34930081   135.3316 
1929.0000   0.34817848   138.1992 
1932.0000   0.34717779   141.1169 
1935.0000   0.34647198   143.9057 
1938.0000   0.34528054   146.7444 
1941.0000   0.34444253   149.6082 
1944.0000   0.34309324   152.5399 
1947.0000   0.34223455   155.3115 
1950.0000   0.34134220   158.1722 
1953.0000   0.34013642   161.0224 
1956.0000   0.33885279   163.9350 
1959.0000   0.33795625   166.6859 
1962.0000   0.33687680   169.5437 
1965.0000   0.33561769   172.4318 
1968.0000   0.33406066   175.3670 
1971.0000   0.33320876   178.0864 
1974.0000   0.33179561   -179.0562 
1977.0000   0.33053046   -176.2114 
1980.0000   0.32914891   -173.3430 
1983.0000   0.32809029   -170.6009 
1986.0000   0.32684745   -167.7752 
1989.0000   0.32530768   -164.9245 
1992.0000   0.32373995   -161.9898 
1995.0000   0.32260042   -159.2854 
1998.0000   0.32114818   -156.4829 
2001.0000   0.31973279   -153.6144 
2004.0000   0.31802252   -150.7050 
2007.0000   0.31683070   -147.9836 
2010.0000   0.31542872   -145.2318 
2013.0000   0.31413084   -142.4045 
2016.0000   0.31238373   -139.4897 
2019.0000   0.31131869   -136.7626 
2022.0000   0.30990299   -133.9664 
2025.0000   0.30850482   -131.1414 
2028.0000   0.30695184   -128.2352 
2031.0000   0.30600146   -125.5242 
2034.0000   0.30473398   -122.7409 
2037.0000   0.30341470   -119.8955 
2040.0000   0.30209718   -117.0802 
2043.0000   0.30117649   -114.3746 
2046.0000   0.30008923   -111.5774 
2049.0000   0.29897780   -108.7786 
2052.0000   0.29763609   -105.8891 
2055.0000   0.29677831   -103.1842 
2058.0000   0.29566248   -100.3982 
2061.0000   0.29475097   -97.5741 
2064.0000   0.29348103   -94.7214 
2067.0000   0.29298005   -92.0471 
2070.0000   0.29214625   -89.3259 
2073.0000   0.29122216   -86.5001 
2076.0000   0.29001629   -83.6673 
2079.0000   0.28958021   -80.9912 
2082.0000   0.28870247   -78.1674 
2085.0000   0.28789359   -75.3860 
2088.0000   0.28693102   -72.5268 
2091.0000   0.28636211   -69.8507 
2094.0000   0.28575970   -67.0677 
2097.0000   0.28497317   -64.2864 
2100.0000   0.28412801   -61.4695 
2103.0000   0.28362144   -58.8000 
2106.0000   0.28296365   -56.0133 
2109.0000   0.28220541   -53.2966 
2112.0000   0.28140358   -50.4176 
2115.0000   0.28093884   -47.7431 
2118.0000   0.28032567   -45.0066 
2121.0000   0.27965125   -42.2487 
2124.0000   0.27887583   -39.4194 
2127.0000   0.27855947   -36.7151 
2130.0000   0.27790763   -33.9110 
2133.0000   0.27746120   -31.2145 
2136.0000   0.27673392   -28.3914 
2139.0000   0.27628926   -25.7050 
2142.0000   0.27574383   -22.9270 
2145.0000   0.27515099   -20.1363 
2148.0000   0.27462825   -17.3190 
2151.0000   0.27438078   -14.5752 
2154.0000   0.27387120   -11.8212 
2157.0000   0.27328302   -9.0289 
2160.0000   0.27275438   -6.1729 
2163.0000   0.27251030   -3.4653 
2166.0000   0.27201561   -0.6369 
2169.0000   0.27148058   2.0766 
2172.0000   0.27104221   4.9404 
2175.0000   0.27060028   7.6886 
2178.0000   0.27023863   10.4266 
2181.0000   0.26978100   13.2610 
2184.0000   0.26953602   16.0335 
2187.0000   0.26958003   18.7573 
2190.0000   0.26857393   21.5719 
2193.0000   0.26817291   24.3553 
2196.0000   0.26767626   27.2021 
2199.0000   0.26739769   29.8916 
2202.0000   0.26406340   34.4223 
2205.0000   0.26366337   37.1424 
2208.0000   0.26332715   39.8096 
2211.0000   0.26291294   42.4599 
2214.0000   0.26255142   45.1223 
2217.0000   0.26222375   47.9878 
2220.0000   0.26187698   50.6919 
2223.0000   0.26151270   53.3541 
2226.0000   0.26108546   56.0767 
2229.0000   0.26064004   58.7559 
2232.0000   0.26019451   61.4474 
2235.0000   0.25937967   64.1147 
2238.0000   0.25907287   66.8359 
2241.0000   0.25874855   69.4828 
2244.0000   0.25840323   72.1943 
2247.0000   0.25790792   74.8519 
2250.0000   0.25747174   77.4934 
2253.0000   0.25700509   80.1558 
2256.0000   0.25640047   82.7612 
2259.0000   0.25594420   85.5639 
2262.0000   0.25561440   88.2373 
2265.0000   0.25501730   90.9490 
2268.0000   0.25447829   93.6864 
2271.0000   0.25398459   96.3595 
2274.0000   0.25351384   99.0125 
2277.0000   0.25297824   101.7098 
2280.0000   0.25224860   104.3977 
2283.0000   0.25177599   107.0441 
2286.0000   0.25123374   109.7068 
2289.0000   0.25042983   112.4302 
2292.0000   0.25020810   115.1031 
2295.0000   0.24958358   117.6537 
2298.0000   0.24905816   120.3264 
2301.0000   0.24843144   123.0791 
2304.0000   0.24772966   125.6897 
2307.0000   0.24730668   128.4045 
2310.0000   0.24673409   131.0592 
2313.0000   0.24606827   133.7699 
2316.0000   0.24551410   136.3633 
2319.0000   0.24482132   139.0075 
2322.0000   0.24415229   141.6061 
2325.0000   0.24331812   144.2871 
2328.0000   0.24246701   146.8731 
2331.0000   0.24195364   149.5361 
2334.0000   0.24129477   152.1435 
2337.0000   0.24086967   154.7248 
2340.0000   0.23988767   157.3820 
2343.0000   0.23913142   160.0239 
2346.0000   0.23838095   162.7303 
2349.0000   0.23744334   165.3700 
2352.0000   0.23683340   167.9606 
2355.0000   0.23606200   170.6352 
2358.0000   0.23529587   173.2841 
2361.0000   0.23450759   175.9087 
2364.0000   0.23369034   178.5022 
2367.0000   0.23299481   -178.8752 
2370.0000   0.23203699   -176.2895 
2373.0000   0.23103901   -173.6138 
2376.0000   0.23042643   -171.0570 
2379.0000   0.22954480   -168.4694 
2382.0000   0.22866261   -165.8514 
2385.0000   0.22786736   -163.2603 
2388.0000   0.22710587   -160.6472 
2391.0000   0.22611479   -157.9755 
2394.0000   0.22528057   -155.4094 
2397.0000   0.22447760   -152.8174 
2400.0000   0.22367842   -150.3239 
2403.0000   0.22276883   -147.7087 
2406.0000   0.22210705   -145.1050 
2409.0000   0.22116769   -142.5416 
2412.0000   0.22035538   -139.9337 
2415.0000   0.21954704   -137.3882 
2418.0000   0.21845333   -134.8352 
2421.0000   0.21767098   -132.3235 
2424.0000   0.21675830   -129.8217 
2427.0000   0.21579238   -127.2728 
2430.0000   0.21530963   -124.7662 
2433.0000   0.21421694   -122.1864 
2436.0000   0.21349136   -119.6948 
2439.0000   0.21268219   -117.0888 
2442.0000   0.21184403   -114.5875 
2445.0000   0.21110459   -112.0594 
2448.0000   0.21033966   -109.5896 
2451.0000   0.20939205   -107.0383 
2454.0000   0.20870003   -104.5800 
2457.0000   0.20799104   -102.0422 
2460.0000   0.20715429   -99.5271 
2463.0000   0.20624242   -96.9897 
2466.0000   0.20548156   -94.5294 
2469.0000   0.20478407   -92.0122 
2472.0000   0.20403974   -89.5753 
2475.0000   0.20337988   -87.0840 
2478.0000   0.20264072   -84.6496 
2481.0000   0.20205826   -82.1011 
2484.0000   0.20134366   -79.5136 
2487.0000   0.20061285   -77.0242 
2490.0000   0.19996736   -74.5658 
2493.0000   0.19941679   -72.0476 
2496.0000   0.19875186   -69.6076 
2499.0000   0.19817743   -67.0556 
2502.0000   0.19753446   -64.5770 
2505.0000   0.19700712   -62.0009 
2508.0000   0.19640523   -59.4879 
2511.0000   0.19584249   -56.9930 
2514.0000   0.19523155   -54.4967 
2517.0000   0.19470349   -51.9729 
2520.0000   0.19431964   -49.4774 
2523.0000   0.19377728   -46.9703 
2526.0000   0.19353652   -44.4635 
2529.0000   0.19297799   -41.9518 
2532.0000   0.19267455   -39.3659 
2535.0000   0.19245017   -36.8407 
2538.0000   0.19215214   -34.3202 
2541.0000   0.19181651   -31.8191 
2544.0000   0.19147415   -29.3805 
2547.0000   0.19144273   -26.8177 
2550.0000   0.19110147   -24.3409 
2553.0000   0.19093828   -21.7828 
2556.0000   0.19099711   -19.2961 
2559.0000   0.19084941   -16.8107 
2562.0000   0.19062982   -14.3234 
2565.0000   0.19061578   -11.8141 
2568.0000   0.19054493   -9.3943 
2571.0000   0.19064921   -6.9109 
2574.0000   0.19071103   -4.4672 
2577.0000   0.19076174   -1.9827 
2580.0000   0.19077250   0.5628 
2583.0000   0.19089295   3.0158 
2586.0000   0.19097038   5.4649 
2589.0000   0.19107977   7.9084 
2592.0000   0.19117666   10.2927 
2595.0000   0.19130974   12.8046 
2598.0000   0.19148558   15.2431 
2601.0000   0.19163174   17.6780 
2604.0000   0.19169389   20.1278 
2607.0000   0.19205845   22.5596 
2610.0000   0.19210996   25.0148 
2613.0000   0.19220901   27.4048 
2616.0000   0.19249078   29.7913 
2619.0000   0.19268081   32.2393 
2622.0000   0.19279448   34.6410 
2625.0000   0.19309683   37.0956 
2628.0000   0.19320556   39.6522 
2631.0000   0.19352196   42.0586 
2634.0000   0.19373969   44.4980 
2637.0000   0.19384473   46.9394 
2640.0000   0.19406602   49.3331 
2643.0000   0.19433144   51.7802 
2646.0000   0.19453625   54.2253 
2649.0000   0.19482905   56.7212 
2652.0000   0.19499675   59.1914 
2655.0000   0.19546564   61.6332 
2658.0000   0.19576172   64.0526 
2661.0000   0.19598261   66.5335 
2664.0000   0.19604943   68.9005 
2667.0000   0.19647267   71.3777 
2670.0000   0.19683629   73.8215 
2673.0000   0.19702494   76.3160 
2676.0000   0.19738419   78.9153 
2679.0000   0.19761950   81.3682 
2682.0000   0.19796810   83.8233 
2685.0000   0.19832214   86.3633 
2688.0000   0.19853820   88.8085 
2691.0000   0.19900034   91.3313 
2694.0000   0.19935084   93.7979 
2697.0000   0.19961049   96.3311 
2700.0000   0.20009432   98.8889 
2703.0000   0.20036526   101.4037 
2706.0000   0.20066948   103.9032 
2709.0000   0.20116615   106.4302 
2712.0000   0.20147526   108.9342 
2715.0000   0.20176173   111.4113 
2718.0000   0.20247282   113.9300 
2721.0000   0.20260319   116.5466 
2724.0000   0.20291136   119.0757 
2727.0000   0.20313263   121.6605 
2730.0000   0.20356029   124.3425 
2733.0000   0.20406462   126.9154 
2736.0000   0.20431710   129.5056 
2739.0000   0.20457209   132.0641 
2742.0000   0.20491867   134.6722 
2745.0000   0.20531468   137.2790 
2748.0000   0.20577572   139.9236 
2751.0000   0.20606855   142.5462 
2754.0000   0.20640289   145.1731 
2757.0000   0.20675682   147.8060 
2760.0000   0.20696322   150.4575 
2763.0000   0.20730156   153.0545 
2766.0000   0.20756533   155.7154 
2769.0000   0.20799311   158.3525 
2772.0000   0.20818453   161.0509 
2775.0000   0.20848273   163.7102 
2778.0000   0.20885967   166.4224 
2781.0000   0.20905213   169.1089 
2784.0000   0.20951618   171.9695 
2787.0000   0.20977304   174.6553 
2790.0000   0.21003184   177.3957 
2793.0000   0.21033659   -179.8324 
2796.0000   0.21062413   -177.0816 
2799.0000   0.21092425   -174.3404 
2802.0000   0.21113099   -171.6395 
2805.0000   0.21151264   -168.8120 
2808.0000   0.21180433   -166.0870 
2811.0000   0.21215132   -163.3344 
2814.0000   0.21241766   -160.5812 
2817.0000   0.21272149   -157.7617 
2820.0000   0.21277744   -155.0139 
2823.0000   0.21319715   -152.2006 
2826.0000   0.21335948   -149.4650 
2829.0000   0.21364519   -146.6736 
2832.0000   0.21390144   -143.8862 
2835.0000   0.21405833   -141.1005 
2838.0000   0.21547627   -133.8052 
2841.0000   0.21556141   -130.9542 
2844.0000   0.21590296   -128.1297 
2847.0000   0.21596343   -125.3139 
2850.0000   0.21629071   -122.5082 
2853.0000   0.21653597   -119.7093 
2856.0000   0.21671212   -116.8226 
2859.0000   0.21700596   -114.0364 
2862.0000   0.21707604   -111.1502 
2865.0000   0.21742616   -108.2789 
2868.0000   0.21772964   -105.4472 
2871.0000   0.21770295   -102.5999 
2874.0000   0.21802523   -99.7140 
2877.0000   0.21824188   -96.8721 
2880.0000   0.21827170   -93.9665 
2883.0000   0.21979426   -91.1640 
2886.0000   0.21993281   -88.2986 
2889.0000   0.22016530   -85.4237 
2892.0000   0.22028960   -82.5787 
2895.0000   0.22035171   -79.7074 
2898.0000   0.22031098   -76.8473 
2901.0000   0.22031869   -74.0069 
2904.0000   0.22030623   -71.0968 
2907.0000   0.22033998   -68.2957 
2910.0000   0.22031472   -65.4214 
2913.0000   0.22035118   -62.4623 
2916.0000   0.22021323   -59.6223 
2919.0000   0.22019275   -56.7103 
2922.0000   0.21999919   -53.8575 
2925.0000   0.21991480   -50.9567 
2928.0000   0.21977659   -48.0784 
2931.0000   0.21968831   -45.2409 
2934.0000   0.21936862   -42.3768 
2937.0000   0.21921450   -39.4765 
2940.0000   0.21904137   -36.5498 
2943.0000   0.21876931   -33.6159 
2946.0000   0.21857432   -30.8235 
2949.0000   0.21820951   -27.8787 
2952.0000   0.21788912   -24.9728 
2955.0000   0.21764401   -22.0880 
2958.0000   0.21726131   -19.1889 
2961.0000   0.21695089   -16.2602 
2964.0000   0.21665895   -13.3651 
2967.0000   0.21619039   -10.4515 
2970.0000   0.21575778   -7.6251 
2973.0000   0.21535286   -4.7152 
2976.0000   0.21480477   -1.7665 
2979.0000   0.21439538   1.0469 
2982.0000   0.21393605   3.8969 
2985.0000   0.21338632   6.8790 
2988.0000   0.21281597   9.7806 
2991.0000   0.21231993   12.6683 
2994.0000   0.21177521   15.5659 
2997.0000   0.21117262   18.4897 
3000.0000   0.21055691   21.3977 
3003.0000   0.20992617   24.2813 
3006.0000   0.20927410   27.1834 
3009.0000   0.20866025   30.0758 
3012.0000   0.20794023   33.0050 
3015.0000   0.20724996   35.8843 
3018.0000   0.20659496   38.7830 
3021.0000   0.20587052   41.6346 
3024.0000   0.20502642   44.5144 
3027.0000   0.20431227   47.3756 
3030.0000   0.20368298   50.2765 
3033.0000   0.20278857   53.2235 
3036.0000   0.20201252   56.1026 
3039.0000   0.20124400   59.0539 
3042.0000   0.20040169   61.8705 
3045.0000   0.19955573   64.8010 
3048.0000   0.19864522   67.7112 
3051.0000   0.19791244   70.5724 
3054.0000   0.19696653   73.4390 
3057.0000   0.19613636   76.3860 
3060.0000   0.19511452   79.2377 
3063.0000   0.19420337   82.1361 
3066.0000   0.19326325   84.9905 
3069.0000   0.19244625   87.8450 
3072.0000   0.19134285   90.7268 
3075.0000   0.19047935   93.5495 
3078.0000   0.18952954   96.4074 
3081.0000   0.18867177   99.3401 
3084.0000   0.18764529   102.1884 
3087.0000   0.18666772   105.0665 
3090.0000   0.18577827   107.8909 
3093.0000   0.18474398   110.7710 
3096.0000   0.18374723   113.6741 
3099.0000   0.18290565   116.4788 
3102.0000   0.18196861   119.2748 
3105.0000   0.18103169   122.1964 
3108.0000   0.18007499   125.0205 
3111.0000   0.17908671   127.8519 
3114.0000   0.17820808   130.6813 
3117.0000   0.17720440   133.4953 
3120.0000   0.17625850   136.3207 
3123.0000   0.17545219   139.0802 
3126.0000   0.17454408   141.9191 
3129.0000   0.17362976   144.7749 
3132.0000   0.17280797   147.5835 
3135.0000   0.17194743   150.3989 
3138.0000   0.17105129   153.1891 
3141.0000   0.17018578   155.9842 
3144.0000   0.16933112   158.8542 
3147.0000   0.16864167   161.5805 
3150.0000   0.16776880   164.3540 
3153.0000   0.16714216   167.1640 
3156.0000   0.16629675   169.9518 
3159.0000   0.16560012   172.7362 
3162.0000   0.16485313   175.4665 
3165.0000   0.16410343   178.2324 
3168.0000   0.16342627   -178.9562 
3171.0000   0.16272550   -176.3557 
3174.0000   0.16213982   -173.5932 
3177.0000   0.16153468   -170.8308 
3180.0000   0.16092900   -168.0868 
3183.0000   0.16029444   -165.3638 
3186.0000   0.15968677   -162.6561 
3189.0000   0.15916538   -159.9101 
3192.0000   0.15851864   -157.1475 
3195.0000   0.15809068   -154.4647 
3198.0000   0.15762020   -151.7212 
3201.0000   0.15710548   -149.0225 
3204.0000   0.15658546   -146.3139 
3207.0000   0.15616944   -143.6260 
3210.0000   0.15570362   -140.9605 
