! 140 4400 10
# MHz S MA R 50.0
140.0000   0.4013738539   -29.0054924664 
150.0000   0.4167585271   -11.8652757945 
160.0000   0.4133363419   10.4078309271 
170.0000   0.4129687578   36.2946528283 
180.0000   0.4175849366   54.0188707652 
190.0000   0.4184891454   71.4447181082 
200.0000   0.4043214166   91.2967879779 
210.0000   0.4015111368   108.6244582243 
220.0000   0.4156743510   125.3719941585 
230.0000   0.4304662859   142.6518997667 
240.0000   0.4430798667   159.1206004277 
250.0000   0.4562229648   177.1181888054 
260.0000   0.4680856291   -162.6255773203 
270.0000   0.4731090746   -142.8931476329 
280.0000   0.4742606032   -123.2183089423 
290.0000   0.4826674830   -102.6919355038 
300.0000   0.4908612448   -82.2494400598 
310.0000   0.4905780585   -62.2878165775 
320.0000   0.4885606535   -42.3103050816 
330.0000   0.4807736926   -23.2513237463 
340.0000   0.4701146347   -3.9242677136 
350.0000   0.4610441087   14.9925744091 
360.0000   0.4556564637   33.6068880215 
370.0000   0.4530583540   52.3029867120 
380.0000   0.4495799732   70.5770345962 
390.0000   0.4427618019   88.4696228435 
400.0000   0.4404587690   106.1840200671 
410.0000   0.4443608847   123.9976546743 
420.0000   0.4489077079   141.8726529157 
430.0000   0.4561511494   159.8189917954 
440.0000   0.4628310991   177.6341101999 
450.0000   0.4693473461   -164.3599015346 
460.0000   0.4739484351   -146.1204804918 
470.0000   0.4795428305   -127.6155766384 
480.0000   0.4913363784   -108.7920711927 
490.0000   0.4999338702   -89.6700269606 
500.0000   0.5061997067   -70.2882942299 
510.0000   0.5070865911   -50.9883939764 
520.0000   0.5039124392   -31.4565102574 
530.0000   0.4943609780   -11.8569383232 
540.0000   0.4862755927   7.6583269790 
550.0000   0.4795726952   26.7301496384 
560.0000   0.4763558950   45.5978892633 
570.0000   0.4729972377   64.2241685137 
580.0000   0.4658763819   82.6261433287 
590.0000   0.4610625040   100.8646905113 
600.0000   0.4603667261   118.9413732822 
610.0000   0.4629910992   136.8971567445 
620.0000   0.4647327489   154.8014888329 
630.0000   0.4680371194   172.6636842671 
640.0000   0.4721294802   -169.3745246869 
650.0000   0.4755907821   -151.3132656216 
660.0000   0.4784965956   -133.0655713753 
670.0000   0.4871566534   -114.3850172375 
680.0000   0.4957803704   -95.5807092431 
690.0000   0.4988811023   -76.6362249648 
700.0000   0.5004761278   -57.5029870104 
710.0000   0.4974041231   -38.3870769237 
720.0000   0.4925202731   -19.1303741925 
730.0000   0.4869386689   0.2415470591 
740.0000   0.4845038073   19.6202691979 
750.0000   0.4848666753   38.8729422573 
760.0000   0.4821166476   57.9891802185 
770.0000   0.4751886052   76.8652825256 
780.0000   0.4703859839   95.4853246997 
790.0000   0.4686067900   113.9970328285 
800.0000   0.4684020125   132.2675778115 
810.0000   0.4682683762   150.4367909457 
820.0000   0.4679809343   168.4958707484 
830.0000   0.4675556011   -173.5055783826 
840.0000   0.4668545515   -155.3577821769 
850.0000   0.4662138417   -137.1312054362 
860.0000   0.4700698483   -118.5794238751 
870.0000   0.4746241368   -99.6168196470 
880.0000   0.4742277677   -80.6116639960 
890.0000   0.4712177688   -61.5231125560 
900.0000   0.4663973691   -42.2751303331 
910.0000   0.4606776173   -23.0592574855 
920.0000   0.4551999002   -3.9259678960 
930.0000   0.4532194226   15.1330308328 
940.0000   0.4534387542   34.1896298965 
950.0000   0.4500530114   52.9372470817 
960.0000   0.4439415625   71.4919830513 
970.0000   0.4399612594   89.8013800815 
980.0000   0.4388609129   107.8898118162 
990.0000   0.4397784411   125.9356053824 
1000.0000   0.4414696592   143.9050772839 
1010.0000   0.4434794874   161.8448810038 
1020.0000   0.4456421430   179.9156207594 
1030.0000   0.4473786905   -161.8657589297 
1040.0000   0.4523377234   -143.3748478073 
1050.0000   0.4599999072   -124.5334305066 
1060.0000   0.4675848203   -105.4496343146 
1070.0000   0.4727648650   -85.8972193037 
1080.0000   0.4747141234   -65.8601216698 
1090.0000   0.4730581976   -45.4897506317 
1100.0000   0.4690536992   -24.8510712252 
1110.0000   0.4652803854   -4.0663347088 
1120.0000   0.4585461484   16.4253056669 
1130.0000   0.4476026197   36.4764915934 
1140.0000   0.4324869073   56.0865985568 
1150.0000   0.4166695609   75.1049753868 
1160.0000   0.4021629365   93.4263093414 
1170.0000   0.3901348800   111.2407923032 
1180.0000   0.3813301609   128.4653571044 
1190.0000   0.3733752213   145.3522273203 
1200.0000   0.3657322312   161.9702461540 
1210.0000   0.3607778551   178.3954652912 
1220.0000   0.3588077494   -165.2143487139 
1230.0000   0.3602320389   -148.9401545251 
1240.0000   0.3647627754   -132.5460660549 
1250.0000   0.3715016675   -116.0198386999 
1260.0000   0.3798297168   -99.2184170441 
1270.0000   0.3890926697   -81.9817512751 
1280.0000   0.3998393382   -64.2705882726 
1290.0000   0.4131604935   -45.9941684643 
1300.0000   0.4275263389   -27.1362230228 
1310.0000   0.4401751264   -7.6401084086 
1320.0000   0.4488914173   12.5931583212 
1330.0000   0.4518978395   33.2137702347 
1340.0000   0.4482849556   54.0074819586 
1350.0000   0.4387569250   74.6730324901 
1360.0000   0.4250481610   94.9150770168 
1370.0000   0.4083208092   114.6112956676 
1380.0000   0.3890903819   133.8877060432 
1390.0000   0.3702288602   152.4019534941 
1400.0000   0.3534449972   170.4340828140 
1410.0000   0.3391587136   -171.9216055924 
1420.0000   0.3289637122   -154.3219068092 
1430.0000   0.3213472821   -137.3167885613 
1440.0000   0.3166079220   -120.2889292698 
1450.0000   0.3142618366   -103.3789645634 
1460.0000   0.3132982062   -86.3897670204 
1470.0000   0.3153510584   -69.2947787367 
1480.0000   0.3201366938   -52.0212199913 
1490.0000   0.3279962508   -34.5140527591 
1500.0000   0.3377850324   -16.6756391089 
1510.0000   0.3492472699   1.4978331189 
1520.0000   0.3609870054   20.0220530387 
1530.0000   0.3729648509   38.9786300669 
1540.0000   0.3841869951   58.3489150025 
1550.0000   0.3925656020   78.1239196988 
1560.0000   0.3965309947   98.2597241975 
1570.0000   0.3955973193   118.4717705300 
1580.0000   0.3903965524   138.6357177187 
1590.0000   0.3822734714   158.5182041822 
1600.0000   0.3724459685   178.0160966577 
1610.0000   0.3627124305   -162.9225422174 
1620.0000   0.3534060347   -144.1397727517 
1630.0000   0.3442518900   -125.8113172764 
1640.0000   0.3361253678   -107.7285215819 
1650.0000   0.3292625511   -89.8253206411 
1660.0000   0.3238431876   -72.0069024875 
1670.0000   0.3200718534   -54.2267892401 
1680.0000   0.3180836753   -36.2426225964 
1690.0000   0.3183008982   -18.1578332837 
1700.0000   0.3196536039   0.3128577420 
1710.0000   0.3210235312   19.1786625636 
1720.0000   0.3233058668   38.3970472976 
1730.0000   0.3253898105   58.0324953166 
1740.0000   0.3276621995   78.3112052863 
1750.0000   0.3283547033   98.6966188165 
1760.0000   0.3268846625   119.2647701448 
1770.0000   0.3230065085   139.8187387680 
1780.0000   0.3164290327   160.1333824675 
1790.0000   0.3081104304   -179.9929540624 
1800.0000   0.2997203581   -160.4011096792 
1810.0000   0.2910669798   -141.5645634407 
1820.0000   0.2820425161   -123.5569782128 
1830.0000   0.2741399126   -105.8047445164 
1840.0000   0.2674060024   -88.6177426817 
1850.0000   0.2619925498   -71.8864397984 
1860.0000   0.2584706854   -55.5442016950 
1870.0000   0.2565562470   -39.4399455273 
1880.0000   0.2563844991   -23.3835033517 
1890.0000   0.2568861208   -7.4082875847 
1900.0000   0.2585792773   8.6466452296 
1910.0000   0.2618896020   24.8081094343 
1920.0000   0.2669319706   41.5247652592 
1930.0000   0.2730298480   58.6024992838 
1940.0000   0.2798318355   76.3749593630 
1950.0000   0.2863421423   94.7743541131 
1960.0000   0.2915950619   114.0063895686 
1970.0000   0.2951738877   134.0269852973 
1980.0000   0.2961585938   154.7020661391 
1990.0000   0.2928923581   175.7026381928 
2000.0000   0.2850377262   -163.0429290993 
2010.0000   0.2736178342   -141.9229607656 
2020.0000   0.2594453618   -121.1696969929 
2030.0000   0.2442172215   -101.0296379600 
2040.0000   0.2298696045   -81.3262817823 
2050.0000   0.2169356016   -62.3165469803 
2060.0000   0.2057438184   -43.8543079971 
2070.0000   0.1968284812   -25.7913210410 
2080.0000   0.1897703879   -8.1058535229 
2090.0000   0.1851733936   9.1951512275 
2100.0000   0.1827050401   26.3699121615 
2110.0000   0.1824503834   43.2489161311 
2120.0000   0.1841618655   59.8945159347 
2130.0000   0.1871213135   76.4313994871 
2140.0000   0.1915683601   92.9242153181 
2150.0000   0.1974410138   109.3970601843 
2160.0000   0.2045291952   126.1315776257 
2170.0000   0.2126581600   143.0707174073 
2180.0000   0.2215183589   160.2578776715 
2190.0000   0.2307195687   177.7788263756 
2200.0000   0.2381977789   -161.9732569573 
2210.0000   0.2462528920   -144.5075142390 
2220.0000   0.2547428936   -126.1293431323 
2230.0000   0.2621680372   -107.5300181028 
2240.0000   0.2677456457   -88.6982622255 
2250.0000   0.2717979629   -69.6717381899 
2260.0000   0.2736790082   -50.4052393388 
2270.0000   0.2736512692   -30.8700236342 
2280.0000   0.2713623632   -11.3796945770 
2290.0000   0.2676738293   8.3215578476 
2300.0000   0.2621881409   27.8984340049 
2310.0000   0.2550978563   47.6698742849 
2320.0000   0.2469454661   67.3947974317 
2330.0000   0.2378611139   87.0103090033 
2340.0000   0.2291250359   106.6964935896 
2350.0000   0.2196527753   126.3811542110 
2360.0000   0.2112123864   145.8789803649 
2370.0000   0.2033542392   165.1287322140 
2380.0000   0.1965852557   -176.0140992724 
2390.0000   0.1909209546   -157.6093435298 
2400.0000   0.1866543080   -139.6973288970 
2410.0000   0.1831080489   -122.0695704209 
2420.0000   0.1807025352   -105.0238035011 
2430.0000   0.1797374520   -88.3439831920 
2440.0000   0.1799980123   -71.9083942002 
2450.0000   0.1818769481   -56.0719637061 
2460.0000   0.1847761217   -40.0408204878 
2470.0000   0.1887568099   -24.2946677362 
2480.0000   0.1944808441   -8.5775349584 
2490.0000   0.2019305660   7.2386814976 
2500.0000   0.2111290055   23.3777958476 
2510.0000   0.2218424451   39.9852649775 
2520.0000   0.2339334871   57.2655823692 
2530.0000   0.2475216177   75.4200029067 
2540.0000   0.2611179795   94.7700935773 
2550.0000   0.2733119050   115.4945549920 
2560.0000   0.2815854171   137.5417753376 
2570.0000   0.2831881203   160.3344966793 
2580.0000   0.2769996524   -176.4324181212 
2590.0000   0.2639252948   -153.8991762423 
2600.0000   0.2461371711   -132.3811405650 
2610.0000   0.2269650885   -112.1539894883 
2620.0000   0.2081359526   -93.0588484733 
2630.0000   0.1912222640   -74.9148737031 
2640.0000   0.1768870123   -57.5744913039 
2650.0000   0.1650599907   -40.8604278371 
2660.0000   0.1557476864   -24.5355504412 
2670.0000   0.1487197420   -8.4967145360 
2680.0000   0.1439379252   7.5284793810 
2690.0000   0.1413424905   23.0351662899 
2700.0000   0.1406093518   39.0719403739 
2710.0000   0.1418884700   54.7600501442 
2720.0000   0.1448251229   70.5620241150 
2730.0000   0.1498148969   86.5624777461 
2740.0000   0.1567296910   102.6634696300 
2750.0000   0.1659613162   119.0941434652 
2760.0000   0.1771815666   136.0440965970 
2770.0000   0.1908566303   153.2716664049 
2780.0000   0.2063546547   171.4248599108 
2790.0000   0.2228833462   -169.4336624979 
2800.0000   0.2394094440   -149.3169333966 
2810.0000   0.2531063939   -128.6695427665 
2820.0000   0.2621572928   -106.6945133660 
2830.0000   0.2638055011   -84.8189273136 
2840.0000   0.2587604185   -58.4245043730 
2850.0000   0.2479841555   -37.5652879597 
2860.0000   0.2339798400   -17.6512471190 
2870.0000   0.2192910732   1.3021115317 
2880.0000   0.2047299880   19.4680606293 
2890.0000   0.1917240932   36.7429981941 
2900.0000   0.1801124198   53.6420124653 
2910.0000   0.1702376867   70.2630103351 
2920.0000   0.1619814844   86.7479327344 
2930.0000   0.1554159763   102.9742754479 
2940.0000   0.1506902172   119.5654452774 
2950.0000   0.1468700135   136.1963269923 
2960.0000   0.1445391502   153.1577538916 
2970.0000   0.1436774166   170.3981015600 
2980.0000   0.1440135841   -171.9898643171 
2990.0000   0.1455206177   -153.8452684558 
3000.0000   0.1482326443   -135.0956143772 
3010.0000   0.1522786833   -116.0767569812 
3020.0000   0.1573752759   -96.4195396494 
3030.0000   0.1632965825   -76.3232349321 
3040.0000   0.1695346487   -55.7678235333 
3050.0000   0.1757507816   -35.0889796946 
3060.0000   0.1811180711   -13.8217545135 
3070.0000   0.1851114736   7.1887764357 
3080.0000   0.1873617141   27.9984775063 
3090.0000   0.1879954069   48.4973119799 
3100.0000   0.1870785843   68.5108538500 
3110.0000   0.1849519771   87.8260881587 
3120.0000   0.1819699166   106.7085997273 
3130.0000   0.1785000521   124.4708746868 
3140.0000   0.1746744289   141.9375115373 
3150.0000   0.1707472811   158.9015723163 
3160.0000   0.1668803409   175.5720218740 
3170.0000   0.1631813886   -168.2115866006 
3180.0000   0.1598962729   -151.7124610726 
3190.0000   0.1571368752   -135.2535043584 
3200.0000   0.1547210775   -118.6846332348 
3210.0000   0.1530125251   -101.7930143321 
3220.0000   0.1515219967   -84.6564023755 
3230.0000   0.1507025292   -66.9082018064 
3240.0000   0.1501819667   -48.2946426901 
3250.0000   0.1501567787   -29.4001371607 
3260.0000   0.1503116702   -9.4051928475 
3270.0000   0.1505232651   11.2111755456 
3280.0000   0.1504756907   32.8050973683 
3290.0000   0.1500969972   54.7405157140 
3300.0000   0.1490630279   77.3938585715 
3310.0000   0.1470010255   99.8277141245 
3320.0000   0.1440090666   121.8211030821 
3330.0000   0.1401878232   143.2465073075 
3340.0000   0.1361355876   163.9214949672 
3350.0000   0.1321819145   -176.2072085610 
3360.0000   0.1286668652   -156.8632978935 
3370.0000   0.1257283502   -139.0347845342 
3380.0000   0.1233343691   -121.6814070161 
3390.0000   0.1217723854   -104.9812695994 
3400.0000   0.1208080097   -88.8258188702 
3410.0000   0.1205460979   -73.2505778318 
3420.0000   0.1210286065   -57.6372146265 
3430.0000   0.1220775625   -42.3713858276 
3440.0000   0.1239396922   -27.2529943519 
3450.0000   0.1268726484   -11.9546190075 
3460.0000   0.1300322780   3.5665557878 
3470.0000   0.1342949858   19.5142912840 
3480.0000   0.1391708761   36.3093443347 
3490.0000   0.1446064475   53.0750966356 
3500.0000   0.1501421402   71.2037100912 
3510.0000   0.1550714023   90.2662007065 
3520.0000   0.1579403347   110.6636233228 
3530.0000   0.1585845322   131.9160352726 
3540.0000   0.1545120123   154.3286675832 
3550.0000   0.1473517781   176.8342615027 
3560.0000   0.1376950617   -160.8557766928 
3570.0000   0.1270874565   -139.1768306475 
3580.0000   0.1163860606   -118.2007880789 
3590.0000   0.1067879650   -98.0553556679 
3600.0000   0.0985130265   -78.2457062206 
3610.0000   0.0920790905   -59.8828126680 
3620.0000   0.0872031191   -41.6561717233 
3630.0000   0.0837368686   -24.1347066281 
3640.0000   0.0816288869   -9.6135812470 
3650.0000   0.0806339315   7.0095732567 
3660.0000   0.0806151706   23.6010956197 
3670.0000   0.0813011144   39.6376725083 
3680.0000   0.0827137527   55.3666630053 
3690.0000   0.0842820347   70.9137361573 
3700.0000   0.0833997333   86.4459745701 
3710.0000   0.0851090618   102.0310776997 
3720.0000   0.0873500639   117.9745592156 
3730.0000   0.0898935368   133.6630814742 
3740.0000   0.0930857597   149.9396353073 
3750.0000   0.0967279422   166.7822007501 
3760.0000   0.1008720633   -175.7965101000 
3770.0000   0.1055231793   -157.7214072289 
3780.0000   0.1100715546   -138.6497044854 
3790.0000   0.1143720362   -118.8654463399 
3800.0000   0.1176026672   -98.2713630470 
3810.0000   0.1190176203   -77.2240566542 
3820.0000   0.1179489165   -55.9174645137 
3830.0000   0.1137324214   -34.7928928249 
3840.0000   0.1068649392   -13.8720484805 
3850.0000   0.0982283548   5.9839074240 
3860.0000   0.0893334612   25.5874512324 
3870.0000   0.0808438025   44.5225951169 
3880.0000   0.0730478852   62.9880480874 
3890.0000   0.0665466261   80.8943502441 
3900.0000   0.0608640139   98.8015398330 
3910.0000   0.0563662648   116.4511335781 
3920.0000   0.0528416686   133.9684951265 
3930.0000   0.0504746904   151.4825867892 
3940.0000   0.0489877272   168.9532897118 
3950.0000   0.0484227184   -173.6780237177 
3960.0000   0.0486610812   -156.1478619589 
3970.0000   0.0497544492   -139.0235375801 
3980.0000   0.0517988870   -121.8503385459 
3990.0000   0.0547918321   -104.9610351518 
4000.0000   0.0585245533   -88.0186775638 
4010.0000   0.0638624207   -71.2113955797 
4020.0000   0.0697210121   -53.9098180376 
4030.0000   0.0767837268   -36.3138456751 
4040.0000   0.0842023182   -18.0456673037 
4050.0000   0.0916306838   1.0356667118 
4060.0000   0.0979111742   21.0566614509 
4070.0000   0.1015037853   41.8607314079 
4080.0000   0.1016387109   63.4183838691 
4090.0000   0.0984115412   84.3336689213 
4100.0000   0.0927038322   104.8505094696 
4110.0000   0.0857848784   124.2950475549 
4120.0000   0.0786210617   142.6748826466 
4130.0000   0.0719046152   159.9021074458 
4140.0000   0.0656642253   176.6945375865 
4150.0000   0.0601463930   -167.1623055807 
4160.0000   0.0553966476   -151.1752665542 
4170.0000   0.0514247412   -135.2877799502 
4180.0000   0.0481841955   -119.1690003261 
4190.0000   0.0456213276   -102.7681269956 
4200.0000   0.0437044235   -85.6939870200 
4210.0000   0.0424733316   -68.3207242432 
4220.0000   0.0419553686   -50.1291464210 
4230.0000   0.0422123027   -31.5394209650 
4240.0000   0.0432254557   -12.2374869492 
4250.0000   0.0449106181   7.1174751158 
4260.0000   0.0475957737   27.2740968090 
4270.0000   0.0505083761   47.5909380171 
4280.0000   0.0539696329   68.2564655343 
4290.0000   0.0574234404   89.4210396249 
4300.0000   0.0603635056   110.9406100035 
4310.0000   0.0626701185   132.5161710615 
4320.0000   0.0639126248   154.4091973384 
4330.0000   0.0640674505   175.2763180869 
4340.0000   0.0633378172   -164.3657922533 
4350.0000   0.0619031753   -144.9356857708 
4360.0000   0.0599957155   -126.4043489480 
4370.0000   0.0580297757   -108.9423070401 
4380.0000   0.0557564911   -91.9066408973 
4390.0000   0.0540041976   -75.7123835694 
