! 140 4400 10
# MHz S MA R 50.0
140.0000   0.0093791008   66.8981201199 
150.0000   0.0096458998   76.6077935268 
160.0000   0.0093474424   90.5337751636 
170.0000   0.0089022768   111.1367474982 
180.0000   0.0084684553   123.1157879934 
190.0000   0.0081110865   132.1307311157 
200.0000   0.0074330694   149.2352030295 
210.0000   0.0069072323   162.1200909394 
220.0000   0.0066271087   174.3356751611 
230.0000   0.0062575301   -171.0007915998 
240.0000   0.0057671244   -157.1100539033 
250.0000   0.0053592570   -141.5760150221 
260.0000   0.0050316771   -123.3291410670 
270.0000   0.0046197599   -105.0312397036 
280.0000   0.0042713917   -85.2404754430 
290.0000   0.0043930758   -66.1185410607 
300.0000   0.0035935037   -42.4136196165 
310.0000   0.0031984006   -14.3143591982 
320.0000   0.0031666072   4.4191749003 
330.0000   0.0030637136   28.7510391036 
340.0000   0.0031053165   53.7784343287 
350.0000   0.0032338351   77.5611645271 
360.0000   0.0034455094   100.4321927784 
370.0000   0.0037054948   122.5582346436 
380.0000   0.0040088995   144.2874493568 
390.0000   0.0043486360   163.9464538353 
400.0000   0.0047343705   -177.1753027290 
410.0000   0.0045084271   -156.8510223937 
420.0000   0.0054299627   -140.6005299090 
430.0000   0.0056848438   -123.7410905851 
440.0000   0.0061226728   -105.8686718390 
450.0000   0.0065256697   -88.9659104271 
460.0000   0.0068851115   -72.2055152719 
470.0000   0.0072171229   -55.8706068678 
480.0000   0.0075744084   -39.3595687103 
490.0000   0.0078441973   -22.7767515427 
500.0000   0.0081212086   -5.8059966097 
510.0000   0.0083665736   11.0799810807 
520.0000   0.0086484326   27.6083378596 
530.0000   0.0090202025   44.1070857962 
540.0000   0.0090432557   60.4040778507 
550.0000   0.0092246283   77.8055702195 
560.0000   0.0094657127   93.2813756747 
570.0000   0.0096503278   109.6370783388 
580.0000   0.0098741905   125.9361906188 
590.0000   0.0100196939   142.5989378728 
600.0000   0.0102257671   159.2710725551 
610.0000   0.0104214863   175.5140127935 
620.0000   0.0105387963   -168.1473420728 
630.0000   0.0106270347   -152.0416639251 
640.0000   0.0106997995   -135.8393964370 
650.0000   0.0105627902   -120.3859814558 
660.0000   0.0105999238   -103.3476648893 
670.0000   0.0106766592   -87.1823255944 
680.0000   0.0103278151   -70.5496504539 
690.0000   0.0101220696   -53.9756411439 
700.0000   0.0098948965   -37.4719831261 
710.0000   0.0095257182   -20.8288985553 
720.0000   0.0091364597   -4.3039594260 
730.0000   0.0086359248   13.2414615001 
740.0000   0.0081029381   31.3132409068 
750.0000   0.0076002450   50.5427407528 
760.0000   0.0070579898   70.9948882278 
770.0000   0.0066019281   94.0535872606 
780.0000   0.0063148015   115.9314133100 
790.0000   0.0061794121   139.8709627535 
800.0000   0.0062139812   165.5220945952 
810.0000   0.0065253419   -169.6200113223 
820.0000   0.0070839714   -145.7487223295 
830.0000   0.0078847742   -123.8368885863 
840.0000   0.0088239509   -103.6459237211 
850.0000   0.0098889190   -84.2908277917 
860.0000   0.0109841045   -66.8201209577 
870.0000   0.0121009108   -49.9585770519 
880.0000   0.0131887434   -33.5189457561 
890.0000   0.0142586561   -17.6589151623 
900.0000   0.0152526083   -2.5172718220 
910.0000   0.0161576777   12.6218542862 
920.0000   0.0171069939   27.4283682818 
930.0000   0.0178612401   42.1711818076 
940.0000   0.0184907808   56.5826515629 
950.0000   0.0189988414   70.9753748487 
960.0000   0.0193621156   85.1313865611 
970.0000   0.0195013002   99.3625539084 
980.0000   0.0195150822   113.4858884068 
990.0000   0.0193025589   127.7529602613 
1000.0000   0.0189029818   142.3073935819 
1010.0000   0.0184834349   157.1997089826 
1020.0000   0.0176518475   171.7361612907 
1030.0000   0.0167377301   -173.2075955533 
1040.0000   0.0156665038   -158.2290790937 
1050.0000   0.0144422039   -142.6414862854 
1060.0000   0.0131170443   -126.8380719276 
1070.0000   0.0116656608   -110.2293072469 
1080.0000   0.0101504513   -92.0618058321 
1090.0000   0.0085918828   -72.2842320332 
1100.0000   0.0071557882   -49.1084693486 
1110.0000   0.0060188013   -20.6939232381 
1120.0000   0.0054403077   13.0581920101 
1130.0000   0.0057422760   48.5513540265 
1140.0000   0.0067221739   79.0869742172 
1150.0000   0.0081970226   104.2140182479 
1160.0000   0.0097699130   124.7781199579 
1170.0000   0.0114600538   142.9652624092 
1180.0000   0.0130502832   159.2011277726 
1190.0000   0.0146186931   174.4815760066 
1200.0000   0.0160638117   -170.6357611088 
1210.0000   0.0173855295   -156.3368200749 
1220.0000   0.0184969316   -142.1294708405 
1230.0000   0.0194044080   -128.0871898397 
1240.0000   0.0200556859   -114.1341862954 
1250.0000   0.0204229066   -99.8769457018 
1260.0000   0.0204210019   -85.6801590879 
1270.0000   0.0199545591   -71.3247545693 
1280.0000   0.0190489409   -57.2894158856 
1290.0000   0.0173839197   -43.8179290115 
1300.0000   0.0148900609   -32.8277570670 
1310.0000   0.0124026273   -31.2550214582 
1320.0000   0.0132315635   -35.7219707978 
1330.0000   0.0160181130   -26.2454961566 
1340.0000   0.0171507796   -9.7684768918 
1350.0000   0.0167157790   7.0400042786 
1360.0000   0.0154823819   23.1944591500 
1370.0000   0.0136767211   38.6465457701 
1380.0000   0.0117500058   54.9110718971 
1390.0000   0.0096256748   70.8011517590 
1400.0000   0.0073545453   89.2883348779 
1410.0000   0.0051314159   111.5511538507 
1420.0000   0.0030641484   145.7216300346 
1430.0000   0.0022344911   -147.1266547395 
1440.0000   0.0035865480   -90.3358498574 
1450.0000   0.0057531161   -61.1129636177 
1460.0000   0.0079906288   -40.8838252512 
1470.0000   0.0102378189   -23.2261020667 
1480.0000   0.0124226922   -7.0466757907 
1490.0000   0.0144448328   8.6490472714 
1500.0000   0.0163187852   23.4731809427 
1510.0000   0.0180238929   37.3333443005 
1520.0000   0.0197670756   50.9781478980 
1530.0000   0.0214495995   64.5467042593 
1540.0000   0.0230471137   78.2565036598 
1550.0000   0.0243572487   91.8292463891 
1560.0000   0.0255507055   105.3318965231 
1570.0000   0.0265906342   118.9744216155 
1580.0000   0.0274830799   132.7437011935 
1590.0000   0.0281651993   146.6311663778 
1600.0000   0.0286600473   160.5986471377 
1610.0000   0.0288502292   174.5963094845 
1620.0000   0.0288977897   -171.1776129908 
1630.0000   0.0286447000   -157.0248145135 
1640.0000   0.0281511335   -142.9703595433 
1650.0000   0.0273832441   -128.9025493524 
1660.0000   0.0264256165   -114.8377592630 
1670.0000   0.0251892928   -100.7204418822 
1680.0000   0.0237279358   -86.5066003861 
1690.0000   0.0220879615   -72.3245036924 
1700.0000   0.0202360233   -57.8400710692 
1710.0000   0.0181856800   -43.0593320394 
1720.0000   0.0160045990   -28.0479470091 
1730.0000   0.0136386617   -11.7710596840 
1740.0000   0.0112512212   5.3103441884 
1750.0000   0.0088112664   24.7648888228 
1760.0000   0.0065960497   49.4910455208 
1770.0000   0.0047895382   84.4129587986 
1780.0000   0.0042369459   133.3990540185 
1790.0000   0.0053956552   177.6921917684 
1800.0000   0.0074145382   -152.2195596631 
1810.0000   0.0097238558   -130.4949289938 
1820.0000   0.0121087468   -112.6930133647 
1830.0000   0.0144657560   -96.4468078420 
1840.0000   0.0167389700   -81.5349337574 
1850.0000   0.0187711527   -67.1309408379 
1860.0000   0.0208271735   -53.3939666637 
1870.0000   0.0225014975   -39.8258791209 
1880.0000   0.0240714462   -26.5941198614 
1890.0000   0.0253855999   -13.6090302850 
1900.0000   0.0264479307   -0.7161552738 
1910.0000   0.0272829521   11.9587492339 
1920.0000   0.0278567450   24.7584619316 
1930.0000   0.0281646868   37.3891628991 
1940.0000   0.0282406378   50.0242831241 
1950.0000   0.0280444181   62.7191990676 
1960.0000   0.0275646623   75.4394506231 
1970.0000   0.0268115668   88.0339787627 
1980.0000   0.0257613608   100.8573101438 
1990.0000   0.0245066550   113.3956845301 
2000.0000   0.0229055133   126.1672086823 
2010.0000   0.0211571207   138.6400910376 
2020.0000   0.0191947009   151.1234251457 
2030.0000   0.0171417660   163.7135640163 
2040.0000   0.0149385591   176.3826126394 
2050.0000   0.0126530645   -170.6186263319 
2060.0000   0.0103112776   -157.5824720153 
2070.0000   0.0079700941   -143.9897485888 
2080.0000   0.0055896709   -129.4354915626 
2090.0000   0.0031886773   -112.2258401583 
2100.0000   0.0009116991   -68.5210213141 
2110.0000   0.0018978266   62.9119994258 
2120.0000   0.0043861557   85.8528867605 
2130.0000   0.0069268824   101.2142245336 
2140.0000   0.0095062010   115.1372379107 
2150.0000   0.0120726834   128.2173272438 
2160.0000   0.0146029419   141.1326644104 
2170.0000   0.0170496922   153.6325482969 
2180.0000   0.0194121765   166.1001587816 
2190.0000   0.0215944395   178.6349951177 
2200.0000   0.0234142549   -166.8369676406 
2210.0000   0.0250461243   -154.9794239250 
2220.0000   0.0266535019   -142.7690826381 
2230.0000   0.0280494978   -130.6522240394 
2240.0000   0.0290209541   -118.4666100555 
2250.0000   0.0297705674   -106.3100282238 
2260.0000   0.0301633381   -94.1685980130 
2270.0000   0.0302379885   -81.9336664151 
2280.0000   0.0299116392   -69.7065326531 
2290.0000   0.0293068444   -57.3952352754 
2300.0000   0.0283505660   -45.0997110096 
2310.0000   0.0270732078   -32.6860033536 
2320.0000   0.0255146961   -20.2349253578 
2330.0000   0.0236462442   -7.7390185043 
2340.0000   0.0216042292   4.8377854437 
2350.0000   0.0193234136   17.4327104459 
2360.0000   0.0168248941   30.2714520199 
2370.0000   0.0141809092   43.0498266401 
2380.0000   0.0113647801   55.8534448498 
2390.0000   0.0085080695   68.7423026609 
2400.0000   0.0056109797   81.8018598303 
2410.0000   0.0026981817   97.1822990347 
2420.0000   0.0002914978   -129.2638621732 
2430.0000   0.0030367787   -67.4825837159 
2440.0000   0.0058283655   -52.7763263026 
2450.0000   0.0084786377   -39.4619594842 
2460.0000   0.0109850027   -26.6971050027 
2470.0000   0.0133620579   -14.2273058379 
2480.0000   0.0155892550   -1.9049547999 
2490.0000   0.0176519044   10.4269841108 
2500.0000   0.0195890778   22.7995861825 
2510.0000   0.0213384591   35.2413902364 
2520.0000   0.0228020802   47.6536418671 
2530.0000   0.0241520884   60.2012032789 
2540.0000   0.0252662337   72.6506239634 
2550.0000   0.0262286614   85.2422746558 
2560.0000   0.0269784658   97.7599078932 
2570.0000   0.0274591927   110.1155889128 
2580.0000   0.0276750275   122.7815369102 
2590.0000   0.0277162655   135.1093502246 
2600.0000   0.0274282635   147.5440437058 
2610.0000   0.0269217978   159.9173869335 
2620.0000   0.0260650490   172.2263357503 
2630.0000   0.0249639414   -175.5191382092 
2640.0000   0.0235998167   -163.3577312879 
2650.0000   0.0220471141   -151.4135913958 
2660.0000   0.0202488144   -139.5701768226 
2670.0000   0.0182723739   -127.9344039735 
2680.0000   0.0161318066   -116.4159367043 
2690.0000   0.0138530255   -105.4575181695 
2700.0000   0.0114949881   -94.3951452563 
2710.0000   0.0090222102   -84.6428674684 
2720.0000   0.0065517348   -76.1615144321 
2730.0000   0.0040553513   -72.1972373651 
2740.0000   0.0018582092   -89.2888762228 
2750.0000   0.0019838690   -162.9132930416 
2760.0000   0.0042256195   -176.6833252471 
2770.0000   0.0067454006   -172.2746087659 
2780.0000   0.0092031377   -163.8560700181 
2790.0000   0.0116496135   -153.5586475503 
2800.0000   0.0139740281   -142.5405909805 
2810.0000   0.0162185461   -131.5184368694 
2820.0000   0.0183854699   -119.7112299862 
2830.0000   0.0203097865   -107.8342603255 
2840.0000   0.0220815068   -91.0654350382 
2850.0000   0.0236293334   -78.9194298912 
2860.0000   0.0249529202   -66.8203244763 
2870.0000   0.0261094335   -54.5025826282 
2880.0000   0.0269128181   -42.1884928803 
2890.0000   0.0272627112   -30.7981640419 
2900.0000   0.0274429683   -18.4964401107 
2910.0000   0.0274431567   -6.1857721815 
2920.0000   0.0271775245   6.0135350890 
2930.0000   0.0266690762   17.9686019708 
2940.0000   0.0259331727   29.9549745903 
2950.0000   0.0250449971   41.8051150772 
2960.0000   0.0239210182   53.4874371222 
2970.0000   0.0226264403   65.0085888317 
2980.0000   0.0211493631   76.1933532501 
2990.0000   0.0194962341   86.9287672386 
3000.0000   0.0177061457   97.3936709213 
3010.0000   0.0157527247   106.8217616320 
3020.0000   0.0138005783   115.6051030539 
3030.0000   0.0116989046   122.7421391843 
3040.0000   0.0096323479   127.5040391133 
3050.0000   0.0077666231   127.6583695024 
3060.0000   0.0063769025   121.3541567005 
3070.0000   0.0059202264   108.3973647269 
3080.0000   0.0065971152   96.0933767121 
3090.0000   0.0081499299   90.7325009845 
3100.0000   0.0101648781   91.7847895461 
3110.0000   0.0123629587   96.8850665217 
3120.0000   0.0145921838   104.1181665331 
3130.0000   0.0166904368   112.3965986312 
3140.0000   0.0186566807   121.7539241950 
3150.0000   0.0204671199   131.5282984015 
3160.0000   0.0220546659   141.7558715566 
3170.0000   0.0233764781   151.9522292592 
3180.0000   0.0245021673   162.5902740017 
3190.0000   0.0253391703   173.1673398564 
3200.0000   0.0258825886   -176.0313836172 
3210.0000   0.0261891317   -165.3344762348 
3220.0000   0.0262454420   -154.7012048872 
3230.0000   0.0260217152   -144.1698427498 
3240.0000   0.0255386231   -133.3406818877 
3250.0000   0.0248438568   -123.1373204147 
3260.0000   0.0238999589   -112.7225807554 
3270.0000   0.0228373261   -102.6875849212 
3280.0000   0.0215829029   -92.5997378307 
3290.0000   0.0201449306   -83.0546193839 
3300.0000   0.0186394660   -73.4534622935 
3310.0000   0.0169962260   -64.6485257719 
3320.0000   0.0153395318   -56.4662392814 
3330.0000   0.0137226137   -49.5315384691 
3340.0000   0.0121279842   -43.6478355178 
3350.0000   0.0107085949   -39.6323114652 
3360.0000   0.0095354837   -37.4837205525 
3370.0000   0.0087753827   -38.3094791953 
3380.0000   0.0083989069   -40.1083935483 
3390.0000   0.0085528042   -42.1716170227 
3400.0000   0.0091197041   -42.5037168701 
3410.0000   0.0099731245   -40.6609023876 
3420.0000   0.0109677409   -36.5410189344 
3430.0000   0.0120517771   -30.9500158943 
3440.0000   0.0131448145   -24.1359568559 
3450.0000   0.0141649584   -16.5278250973 
3460.0000   0.0151292693   -8.1172297240 
3470.0000   0.0160244979   0.7810921289 
3480.0000   0.0167890707   10.2759998097 
3490.0000   0.0174530106   19.2781892716 
3500.0000   0.0179269976   28.8402811098 
3510.0000   0.0182678258   38.4687133316 
3520.0000   0.0185107921   48.1310594894 
3530.0000   0.0185615630   57.6637772037 
3540.0000   0.0185007286   67.5690725650 
3550.0000   0.0182587210   76.9857522251 
3560.0000   0.0178588598   86.3833854947 
3570.0000   0.0173299459   95.8021620067 
3580.0000   0.0166997312   104.8171987491 
3590.0000   0.0159208226   113.5833012031 
3600.0000   0.0150342869   122.3135600983 
3610.0000   0.0140874687   129.6347694075 
3620.0000   0.0130740360   137.0327223429 
3630.0000   0.0120722284   143.5682176740 
3640.0000   0.0111543919   146.6758952805 
3650.0000   0.0102724570   151.4099034802 
3660.0000   0.0094447949   155.3818483751 
3670.0000   0.0087286302   158.3292124132 
3680.0000   0.0082264818   160.3976728649 
3690.0000   0.0079025354   161.9312432002 
3700.0000   0.0075580264   165.8595052897 
3710.0000   0.0076278776   168.1100754445 
3720.0000   0.0078778857   171.4967013028 
3730.0000   0.0081936754   175.2919675114 
3740.0000   0.0086341004   -179.5744257686 
3750.0000   0.0090522033   -173.3608072375 
3760.0000   0.0094855187   -166.1908211926 
3770.0000   0.0099332770   -158.4722759968 
3780.0000   0.0103010225   -149.9728982291 
3790.0000   0.0106142929   -141.5255603018 
3800.0000   0.0108772263   -132.4951492535 
3810.0000   0.0111451577   -123.0668301253 
3820.0000   0.0113759629   -113.4253477443 
3830.0000   0.0115188675   -103.9298332405 
3840.0000   0.0116055600   -94.1160781580 
3850.0000   0.0116249176   -84.5758745540 
3860.0000   0.0116101032   -75.0150310498 
3870.0000   0.0115334132   -65.5780704136 
3880.0000   0.0114135042   -56.1673153875 
3890.0000   0.0112994498   -47.4846624096 
3900.0000   0.0110595282   -38.7182747164 
3910.0000   0.0108577731   -30.4093722352 
3920.0000   0.0106385582   -22.3152957257 
3930.0000   0.0104034826   -14.6231525318 
3940.0000   0.0101479285   -7.5048602378 
3950.0000   0.0098966831   -0.9878699418 
3960.0000   0.0096923702   5.0727211583 
3970.0000   0.0095160433   10.2811471123 
3980.0000   0.0094882305   15.5724156892 
3990.0000   0.0095102456   20.7179895990 
4000.0000   0.0095382970   25.6476447799 
4010.0000   0.0096187029   30.3016942876 
4020.0000   0.0097508170   35.0870333786 
4030.0000   0.0099863451   39.9292722044 
4040.0000   0.0103070328   45.0502972266 
4050.0000   0.0106276508   50.5852897741 
4060.0000   0.0109903106   56.6793266136 
4070.0000   0.0112924938   62.8189003087 
4080.0000   0.0115369147   69.4699604010 
4090.0000   0.0117696926   75.6715967051 
4100.0000   0.0120335292   82.5804698877 
4110.0000   0.0122191241   89.5099637659 
4120.0000   0.0123371767   96.8947776858 
4130.0000   0.0123934755   104.0582995000 
4140.0000   0.0123488041   111.5166001594 
4150.0000   0.0121984094   118.6931766931 
4160.0000   0.0120121485   125.7253732549 
4170.0000   0.0117926419   132.7924406110 
4180.0000   0.0115504519   139.7279532225 
4190.0000   0.0112623807   146.6768535337 
4200.0000   0.0109634336   153.5974398896 
4210.0000   0.0106022685   160.0108481519 
4220.0000   0.0102355658   166.3017038783 
4230.0000   0.0099028105   172.3481336023 
4240.0000   0.0095874737   178.2771375630 
4250.0000   0.0093262649   -175.9421704052 
4260.0000   0.0090609456   -169.8955692928 
4270.0000   0.0089235862   -164.1291391391 
4280.0000   0.0087398855   -158.2471202414 
4290.0000   0.0086194423   -152.4200941699 
4300.0000   0.0085781355   -145.9131436873 
4310.0000   0.0085557597   -139.4464151739 
4320.0000   0.0085571154   -131.9332122201 
4330.0000   0.0085868129   -124.5972563450 
4340.0000   0.0085986488   -117.1218308509 
4350.0000   0.0086247189   -108.8706839680 
4360.0000   0.0086609338   -100.3634754074 
4370.0000   0.0087013216   -91.6633745454 
4380.0000   0.0086872682   -82.5774463920 
4390.0000   0.0086962878   -73.4369565253 
