!Created with skrf (http://scikit-rf.org).
# MHz S RI R 50.0 
!freq ReS11 ImS11 ReS21 ImS21 ReS12 ImS12 ReS22 ImS22
140.0 0.0837649616992574 -0.07123085353341514 -0.2496737583283397 0.3556019568176614 -0.28609056269038347 0.29410709895587245 0.07598715518425403 -0.11238967166032872
141.0 0.08645674795612729 -0.06762593911697773 -0.2474460410696818 0.36214868686707985 -0.2876516408720576 0.29607356545391367 0.07959434619669815 -0.11126890599036085
142.0 0.08320370415762204 -0.05020951052859715 -0.24061782976844615 0.37810487834985507 -0.31038123477799245 0.2941364430584355 0.07195615856552455 -0.10784354692805075
143.0 0.0876534131162909 -0.06357250629225844 -0.26724892493647395 0.36200457771109884 -0.30715221072951504 0.29549039236322744 0.09289654346094169 -0.10753589841917104
144.0 0.09820806705461456 -0.05997728477397697 -0.307084222776852 0.3457010301094853 -0.31579707159300174 0.2965998673903819 0.09071810244812034 -0.10624278094556801
145.0 0.1037575795377615 -0.057295692059975104 -0.28188396799828347 0.3548392004397264 -0.31981246852399925 0.28330360476908534 0.09273194986173491 -0.09748335890910191
146.0 0.08915341998641998 -0.05429589447581753 -0.31187341184657774 0.3640399405776896 -0.32591801569846884 0.2700945674367706 0.09759996277699481 -0.08554044857731123
147.0 0.1045138547490379 -0.04573463984607951 -0.3097093355977307 0.3482508531011936 -0.34043636007607164 0.2691403303374567 0.10423738636835624 -0.09099936849199788
148.0 0.1091944519999147 -0.03665657316334851 -0.30192899787613164 0.3574542602239024 -0.36268513422597015 0.25726038798406203 0.10371098353546643 -0.08958000496228562
149.0 0.10820678104044582 -0.03603231602960202 -0.3251103823966509 0.3317009817239404 -0.3531799921208211 0.25642797510003695 0.11097013628462593 -0.08141760642990953
150.0 0.10943195296066215 -0.03030148132206618 -0.34243193704234814 0.3305972181070613 -0.36609932464227685 0.24275164911882435 0.11369506339040404 -0.0765379598103608
151.0 0.1107998988158332 -0.02509198990566562 -0.3422625846984991 0.31890713595647063 -0.37287052115359565 0.23587930148161787 0.11646434308946516 -0.07066200834759401
152.0 0.11057015101201853 -0.01944198458994913 -0.34977722810423717 0.3159127193777896 -0.37676701566157633 0.22400682946997844 0.11813168919359944 -0.0668659088632647
153.0 0.112203577706409 -0.01486393364324329 -0.3628006845717583 0.30280123599593256 -0.3861972789223762 0.21645710524322098 0.12051194013742043 -0.05919005868365391
154.0 0.11271153283708721 -0.008598279367094988 -0.3658922445153175 0.2932293389269362 -0.3872071399827397 0.2068266591473078 0.12345067556369627 -0.05503143703849105
155.0 0.11202110939505663 -0.0011281522968347704 -0.37848129491250004 0.2794658923879644 -0.39141285267220666 0.19691494002694246 0.12094396566842854 -0.04796985319606032
156.0 0.11321840689348378 0.005150524318120085 -0.3721972667321621 0.2791165098905942 -0.398485979223325 0.19350384946751806 0.12227693849325356 -0.04692694546439166
157.0 0.10917957507000815 0.0049032058162853985 -0.3977139465467766 0.2604024718997433 -0.4019011447531094 0.17345947075599602 0.12471753569664834 -0.03437260532177976
158.0 0.10884644328159185 0.015239063015448476 -0.4041912798527706 0.25264620275382504 -0.41120751692091895 0.1643672182938428 0.12701082809962894 -0.028778534100933773
159.0 0.109429797096557 0.01795041144388526 -0.4104001726236356 0.23325629543198834 -0.4138142304888194 0.14683930038983659 0.12703686186379703 -0.023409836606064886
160.0 0.10816711259358583 0.02366850487382181 -0.41911168357673856 0.22214334330110685 -0.41835442653368116 0.13576773990373286 0.12731624109990597 -0.015932548016843233
161.0 0.10625179412279376 0.029627057013666597 -0.4256630924658305 0.20637240873122248 -0.42094159366715456 0.11856554318122378 0.1267224606179088 -0.010631159457319779
162.0 0.1038655098150389 0.03520382138299988 -0.424756371523806 0.19540652205317657 -0.4270833434850084 0.10424437525519728 0.12623690081085995 -0.003282479711134493
163.0 0.10097901263751857 0.04069385627422723 -0.4332953392162509 0.1764338667789312 -0.4312765387368888 0.08716193635738502 0.12532974778479655 0.0032834071879355876
164.0 0.09850655405470907 0.04554855160010669 -0.4444600052959766 0.15657575323752182 -0.4334481847490127 0.06837307579179006 0.12401007191814861 0.009373992583483825
165.0 0.09482887353550307 0.05177540420365608 -0.4465168449076783 0.144289863973866 -0.4353970195106727 0.05541575216281898 0.1220852382427905 0.017175127341769125
166.0 0.08384127473736695 0.05643782110988122 -0.436169677597619 0.15262566697614002 -0.42495483164535813 0.054662633948902715 0.1280966619176358 0.012736072927767489
167.0 0.09031976544705357 0.06097100471888934 -0.45231118616835064 0.11910892223382422 -0.43616254790362985 0.023551479665987602 0.11782039147055717 0.026411556464189315
168.0 0.085023089584357 0.06480964381888318 -0.4538327917508122 0.11472694990866295 -0.43367871943748537 0.009883198591813499 0.11591941830379159 0.031448556069356905
169.0 0.083006417410804 0.06975242909562558 -0.4566628292576419 0.0912684724796397 -0.4343670609554943 0.0038225071275615765 0.11469711696391512 0.03980063036413335
170.0 0.07537380164392644 0.07570234447274689 -0.46086127607211086 0.07406305920238525 -0.4386433049101158 0.002771425585279402 0.1084560984117757 0.03483334596061836
171.0 0.07719105484839033 0.07363248696108053 -0.46271425862992804 0.07233915204174396 -0.43431702854494475 -0.015122665860971284 0.10927890461815548 0.04621067188657268
172.0 0.07430694124441602 0.0764624866131053 -0.46132686330812883 0.06147875303375489 -0.4330392905076033 -0.023971842397188386 0.10718319994622541 0.05026554928536609
173.0 0.07101331913309997 0.0790240227561303 -0.4631989217324943 0.05604092451306237 -0.4323942100846059 -0.03317223494209879 0.10424544762896801 0.0536017954651753
174.0 0.06786166073334589 0.08157508348818995 -0.4642816175359232 0.04343219238532211 -0.4341598844996962 -0.041472952750236214 0.10099339452546144 0.05793008670757361
175.0 0.06473419058343603 0.0836300882527113 -0.4652164556104838 0.038042583864596455 -0.4336208539291332 -0.05292930746465271 0.09907988088186474 0.06000467240140882
176.0 0.06154868951644397 0.08560613182003542 -0.46880295516531445 0.029254724970298282 -0.43279966956449223 -0.05964560113343423 0.09551089373051229 0.0637734998420479
177.0 0.05836535344239065 0.08740704545466811 -0.466731155477225 0.02333324855257029 -0.4286150545422721 -0.06722816206523505 0.09250946925186868 0.06735648339826807
178.0 0.05494846229160288 0.08919252956495122 -0.46338424917268184 0.014708967939305529 -0.43077312142079355 -0.07639577303289997 0.09015818345972784 0.06971735892796682
179.0 0.05139726406466314 0.09221233048718205 -0.46586040265589346 0.004539568133562845 -0.4307174119252956 -0.08308577947199877 0.08586400034581543 0.07187369350236154
180.0 0.05009261933341706 0.09156431997355668 -0.4668659714506327 -0.01498261944385676 -0.4243267583472592 -0.0809262374266566 0.082387229918196 0.07572604098317771
181.0 0.045601511025817575 0.09291140206308716 -0.46314534752108777 -0.007163281798059703 -0.4222299257662755 -0.09767896551314616 0.07843242358801614 0.07908067023957503
182.0 0.041053856881357015 0.09683380799723541 -0.46076898816269385 -0.028700098002093895 -0.4162873917620522 -0.10892522538125718 0.07539642462186265 0.08046165528473723
183.0 0.03765729359089106 0.09656554536271379 -0.465681155547744 -0.032072772963687185 -0.4192845699237641 -0.11853492772131034 0.07316292141361574 0.08289891874151006
184.0 0.03374865997216462 0.09810777797978922 -0.45907939847379836 -0.03535083229723264 -0.4152722512235708 -0.12097477150864927 0.06977032680822734 0.0847294276974491
185.0 0.03040793633600126 0.09822852914422212 -0.460423606775702 -0.044657378114163065 -0.41048537070682256 -0.1319062445106556 0.066245446238456 0.08700430160949478
186.0 0.02678871593857107 0.09903457144439738 -0.45871774402040905 -0.05323204696602279 -0.4071652729869771 -0.1399137366044425 0.06249222031726154 0.08896066418405858
187.0 0.022963726885075468 0.09974238758692597 -0.4603058781086481 -0.06711690550513202 -0.40373829229180375 -0.14890289038114085 0.058547820075918085 0.09021570531273378
188.0 0.019215827733911842 0.09993666669014294 -0.45629734954141626 -0.07326262101690527 -0.40247043904693314 -0.16210712492397264 0.05505467739258962 0.09231954135034186
189.0 0.015479175055124849 0.1004112883413653 -0.45513149495446326 -0.08437089116773566 -0.3962302737619244 -0.1655590437844895 0.050462478927985256 0.0935046367906295
190.0 0.00558743608567629 0.10280023679383907 -0.4516380477798793 -0.08516972804782434 -0.3932759647885584 -0.16728499467420443 0.0525765069985147 0.09570633350335826
191.0 0.008655732494413093 0.1010414202147083 -0.44948876687297207 -0.10148051436042575 -0.3923517679555088 -0.1806151586518423 0.042918548292797315 0.09635816350953834
192.0 0.003790655245925902 0.10062851871521629 -0.44898361329217806 -0.1024104484611644 -0.3818936722837345 -0.18837800909167626 0.038567837062115716 0.09664556143060318
193.0 0.0007819102016903066 0.09837332258280897 -0.4404032785464292 -0.11426923529134705 -0.3791906640756049 -0.1959378888833772 0.0329480515438038 0.09709244916053847
194.0 -0.002725303598155799 0.09484503326252924 -0.432771475506112 -0.12763179417556691 -0.38381258605992924 -0.20206530608343407 0.030484064543424918 0.09755034992819042
195.0 -0.005575390542892895 0.09752713419388022 -0.4326998997658752 -0.1318289793886915 -0.367699275504531 -0.21171921445541755 0.027591935600986682 0.09708149798580523
196.0 -0.009054744158222898 0.09661160817018381 -0.4289067340371268 -0.1401435890851004 -0.3655302045218868 -0.21694277183654687 0.02239982030674127 0.09721779304544051
197.0 -0.013111541999736326 0.0959794501878582 -0.4245333780159986 -0.14895817678426834 -0.356787834332283 -0.22561640778391842 0.019857691817790266 0.09712202993134857
198.0 -0.015440019268186092 0.09457325031216249 -0.4197831866143041 -0.15586915346946764 -0.34999788043290986 -0.2321411327098628 0.015791025385362527 0.09673703644436725
199.0 -0.019067970683356257 0.09396969474073578 -0.4164258039180231 -0.16484857720520715 -0.3419031976000016 -0.23757493252004236 0.012310264878609022 0.09645191708394077
200.0 -0.021609961837672186 0.0924858912395526 -0.41286290346199583 -0.17250366734922104 -0.3383742457938668 -0.24060963477101616 0.008464718156115018 0.09622793674795244
201.0 -0.02445218940870324 0.09033729372886538 -0.4071855477282593 -0.1791336958715181 -0.3305907207281357 -0.24982884513516185 0.005026781698823728 0.09555929744074498
202.0 -0.027938705082799147 0.08923983959443939 -0.40058854781804776 -0.1844560235843758 -0.32474323997755444 -0.2552633455135958 0.0013839798354472854 0.09547338945858933
203.0 -0.029287109533833542 0.08743205770083498 -0.3980415194299751 -0.19138137641477468 -0.318591704341175 -0.2565326292555919 -0.0015812999796334288 0.09388874460028747
204.0 -0.03264898832626787 0.08600468177119269 -0.3941154726151318 -0.19402541210466273 -0.31795779691340925 -0.2606803601775085 -0.006463382841969628 0.0937520973945385
205.0 -0.03457850990385442 0.08479634916205675 -0.3868621469065611 -0.20518148178180814 -0.30870183391946476 -0.26925318313425306 -0.007585226851934741 0.09203469303600836
206.0 -0.0377502350037442 0.08369901720540683 -0.3907389296642191 -0.21038331968214916 -0.3085336989545315 -0.2695876187361692 -0.010201762934875926 0.0912555661586853
207.0 -0.04055775008825769 0.08260576168967473 -0.38420908502235573 -0.21830726281410504 -0.29797307926505 -0.2775466192619154 -0.014169995960996823 0.09139859848332103
208.0 -0.042577060130609815 0.08140018440741296 -0.3782593550101693 -0.2208616030014118 -0.29510573602252865 -0.28728159091298855 -0.01688706210365803 0.0899694462504955
209.0 -0.04443226322814338 0.07932619930073909 -0.3756531283486832 -0.22945806512048306 -0.29028566351129875 -0.2914563421260679 -0.020301352498787395 0.08956364891953866
210.0 -0.046808974109547506 0.07800433022213646 -0.37238747673537953 -0.23501534188486428 -0.28505282304618285 -0.29315286541761787 -0.02330519800913032 0.08831209822177043
211.0 -0.04897622968127001 0.07619116968085662 -0.37243251632187324 -0.24224050651433426 -0.28196546955102914 -0.302220743517938 -0.02536763975387269 0.08728414540622678
212.0 -0.051472501879088126 0.07541429609182645 -0.3681339245394873 -0.24692458920177932 -0.27528790711431245 -0.30418868286028666 -0.02880822647376117 0.08649436161134948
213.0 -0.05366760859484695 0.07357777741172881 -0.36435635836140495 -0.252197292134163 -0.2727024207794399 -0.3122601358483171 -0.0318943084944891 0.0852185893906867
214.0 -0.05091712181822793 0.06971228596430214 -0.35927428223797747 -0.25407265605965096 -0.26418115214056914 -0.3156021147800654 -0.030932786059126527 0.0804236141887618
215.0 -0.057892085743779916 0.06952963077575225 -0.3561664890588934 -0.2654232044643066 -0.26060524558853115 -0.319453907849601 -0.036158729473630635 0.08272588342733908
216.0 -0.06019177178349106 0.06687672406844276 -0.3512502954765044 -0.2710836318827176 -0.25597201176731144 -0.3280928521839593 -0.039572601640853716 0.08069073410607194
217.0 -0.0613929473670894 0.0653814220639066 -0.3491737027245053 -0.27584291408836964 -0.24947620255034345 -0.33044890122762766 -0.04234007027721241 0.07961802198573333
218.0 -0.059979169114693635 0.06220143092945195 -0.34303277500462487 -0.28266481090457307 -0.23930423070995246 -0.33321971812787043 -0.04767787261364596 0.08164584831109202
219.0 -0.06530753644549962 0.06159911664495959 -0.33942109592425884 -0.2902220342436046 -0.23950067372977776 -0.3415968265292875 -0.04766267579181116 0.07588398481062456
220.0 -0.06733474961706133 0.059141073358367095 -0.3364044164088819 -0.29702938552442787 -0.23303853876613145 -0.3459025980812841 -0.05060405550027344 0.07425568792186457
221.0 -0.06845585655439777 0.05702879241821462 -0.3311589880307494 -0.30471369839784834 -0.22645387086524407 -0.3497953463254726 -0.05254349929326925 0.07173693029284646
222.0 -0.07087785125288788 0.05480335637764442 -0.3249929096339449 -0.3110228182058393 -0.22025275693737828 -0.3575289919226191 -0.05495716451333918 0.07005773565494872
223.0 -0.0714160386090537 0.052338345225586294 -0.32054890447918194 -0.3162101107864535 -0.21349009417558343 -0.359951734028868 -0.05733884684819619 0.06790687739761858
224.0 -0.07281679616596391 0.04991322846556877 -0.3157503479100236 -0.32457304438030454 -0.20637916303262024 -0.3640441890613798 -0.05941365109715257 0.0652144469202509
225.0 -0.07406838738748912 0.04739129914653576 -0.3100526555786835 -0.32906475938148577 -0.1999464333581421 -0.36677643950749894 -0.06168280006353467 0.06303548223398396
226.0 -0.07548370632216216 0.044881334088455696 -0.3038463310980567 -0.33215761367015595 -0.19438245586785619 -0.370632149506126 -0.0639670766513662 0.060401474067762966
227.0 -0.07685074419140844 0.04213367176275526 -0.29833360704272077 -0.33711231483694026 -0.18714496325837976 -0.37459309100171784 -0.06583053634006228 0.05842448794323951
228.0 -0.0782315904465084 0.03987423025807742 -0.29189224661149143 -0.348369597283605 -0.17976824180567552 -0.381594686258424 -0.06747846867577197 0.05592071297200135
229.0 -0.07861643031282459 0.036903623131352495 -0.28492933996689807 -0.35082310173141784 -0.1740683382593945 -0.38466267511220936 -0.06937105619131885 0.05321008828653624
230.0 -0.07919243581476615 0.034038819691773144 -0.28353943624561423 -0.35567744720379396 -0.16839526533167873 -0.3871846489110785 -0.0706966526075721 0.05001898014041039
231.0 -0.0799427029517448 0.03195829268549238 -0.27279361857433504 -0.3587106331340048 -0.15899000320645396 -0.3884936971231473 -0.07250141703053145 0.047678164729169956
232.0 -0.08048508013289349 0.029332677242860306 -0.26755687161120656 -0.36435048525338615 -0.1513537045375797 -0.3955915161751272 -0.07364773104596907 0.045198779454201005
233.0 -0.08147100182804788 0.02633357530713817 -0.26159413327969194 -0.36954195828783676 -0.14380693525608196 -0.3981631143245982 -0.07500577691571593 0.04208491016376718
234.0 -0.081303413403858 0.024224621762361204 -0.2557199358886517 -0.37597690274779694 -0.13659321941735436 -0.3992016745670872 -0.0760779346348826 0.03971224438050475
235.0 -0.08151525154559155 0.021521582350316006 -0.2493174004286555 -0.38076771214863997 -0.12957926302881573 -0.4032463417329157 -0.07759412279472384 0.036842074953702286
236.0 -0.08243346087342225 0.01891128094397794 -0.24269752013149495 -0.38523308142685797 -0.12244726795364932 -0.404847228375235 -0.07828685408525106 0.033959376259541464
237.0 -0.08256177866521064 0.015680218003741826 -0.23552134428155777 -0.3865282213733661 -0.11569673815487948 -0.40467375385357496 -0.07925616933716985 0.031203377963066044
238.0 -0.08486832543229972 0.00989120783553092 -0.2313168330606849 -0.39437407356219656 -0.10687746360232693 -0.40560112442501056 -0.08340716261515557 0.029695197839020953
239.0 -0.0827591291184308 0.010522860198277958 -0.22293819856757996 -0.39727444681949614 -0.09969461125734413 -0.4113373081671958 -0.08052756156957612 0.025597142260450224
240.0 -0.08252020559341985 0.007512250507891603 -0.22206935002251482 -0.3992602404060814 -0.09183624849760724 -0.41319867553069933 -0.08109788526591773 0.022856078655765607
241.0 -0.08217294265971403 0.006401206590592834 -0.20892553306656403 -0.4033476341085933 -0.08459234236145015 -0.4161006073635992 -0.0821149304153311 0.019868878239994586
242.0 -0.07979168978824214 0.00584245400725904 -0.21020380739353406 -0.4027896860260934 -0.0692846799459577 -0.417691363749035 -0.08569101349200722 0.01684561447876081
243.0 -0.0818182027206508 0.0009088146813242227 -0.1967249789736314 -0.41186331294253276 -0.06951604770579545 -0.4171062617195624 -0.08257506885365308 0.013725302164063709
244.0 -0.08147703475010026 -0.0014507788713153582 -0.18812641412439582 -0.417677712313883 -0.06314748934190573 -0.4230752252692918 -0.0829808757843652 0.011149263648360474
245.0 -0.08095901962917128 -0.004521634441168311 -0.1814917896529201 -0.41924818865343083 -0.05400137456618658 -0.42196739405557254 -0.08350735041033265 0.008095126242741002
246.0 -0.08055913738214779 -0.006961312136855959 -0.17441754710042745 -0.4222877089417572 -0.04481271078474446 -0.4232517693213736 -0.08345471331558411 0.004592498576381795
247.0 -0.07948261629462708 -0.009367581236049199 -0.1657554441577096 -0.42757101217207744 -0.036997603198716034 -0.42390708150684725 -0.08394064429893054 0.00200807459921691
248.0 -0.07896808484535556 -0.012252850336845136 -0.15811917626440736 -0.4315954026811983 -0.02862513985399194 -0.42535857230998453 -0.08326420486035607 -0.0013684888290214341
249.0 -0.07821718218072544 -0.014662534659604607 -0.14939373250331683 -0.43514851089538187 -0.01881408032819128 -0.4290060619948539 -0.08378092284588136 -0.004227446166727072
250.0 -0.0770586588955825 -0.017544781946412572 -0.13970305101562394 -0.43712579236653387 -0.008696893470665759 -0.4284716865987337 -0.08282068491287903 -0.007728824078895375
251.0 -0.0759714222086612 -0.02001521831522811 -0.13024574162662772 -0.44194750492991597 0.00038921040172416356 -0.4296745137215603 -0.08297100819644823 -0.010414447537364679
252.0 -0.07449571821130987 -0.023270029696429554 -0.12144499242257982 -0.44552248479697676 0.006755828497152091 -0.43072415129912783 -0.08186709169277791 -0.013871474725056955
253.0 -0.07335552931782163 -0.02551151079643482 -0.11320462396847417 -0.4512364394578057 0.018762388008860067 -0.4293338464725433 -0.08138102235929383 -0.01706009117082962
254.0 -0.07237438259593243 -0.027428145666850926 -0.10320241111840572 -0.4510177397365319 0.02833443110708903 -0.42939452422466595 -0.08067954493986611 -0.020382853332311542
255.0 -0.07124099079566548 -0.029551675580472662 -0.09393011149699966 -0.45502693374988656 0.037836197856191786 -0.43227854813733785 -0.07961558354167542 -0.023365266263002483
256.0 -0.06973225135858549 -0.032170179844320926 -0.08425207866782336 -0.45892265033099694 0.04816592195489003 -0.4298151867291778 -0.07898116552409563 -0.026690022790509298
