# MHz S MA R 50.0
1000.0000   0.31252077   -178.9481 
1010.0000   0.31031730   -178.6833 
1020.0000   0.30914964   -175.3487 
1030.0000   0.31104673   -173.0689 
1040.0000   0.31263549   -169.1418 
1050.0000   0.31417534   -167.3506 
1060.0000   0.31650118   -166.2207 
1070.0000   0.31753474   -161.8063 
1080.0000   0.32019731   -156.9359 
1090.0000   0.32268749   -153.1180 
1100.0000   0.33216977   -148.1923 
1110.0000   0.33640458   -144.8927 
1120.0000   0.33932501   -139.0498 
1130.0000   0.34374609   -134.3992 
1140.0000   0.34632067   -129.2979 
1150.0000   0.35073187   -122.9814 
1160.0000   0.35623079   -116.7506 
1170.0000   0.36013638   -109.7479 
1180.0000   0.36486243   -100.4948 
1190.0000   0.36989063   -93.2525 
1200.0000   0.37069852   -89.2685 
1210.0000   0.37616541   -78.0569 
1220.0000   0.38138037   -73.2233 
1230.0000   0.38614804   -66.6489 
1240.0000   0.38901218   -61.5792 
1250.0000   0.39361330   -60.4277 
1260.0000   0.39589665   -51.5384 
1270.0000   0.39829716   -47.9626 
1280.0000   0.40142144   -43.4370 
1290.0000   0.40296458   -38.2963 
1300.0000   0.40360718   -30.9310 
1310.0000   0.40459583   -25.8017 
1320.0000   0.40404557   -23.6448 
1330.0000   0.40070332   -23.2485 
1340.0000   0.39937534   -15.4742 
1350.0000   0.39843576   -13.9694 
1360.0000   0.39412720   -8.4544 
1370.0000   0.39213348   -5.1610 
1380.0000   0.38862756   1.3427 
1390.0000   0.38374292   3.3247 
1400.0000   0.38106604   5.6140 
1410.0000   0.37764646   10.9033 
1420.0000   0.37768972   17.8628 
1430.0000   0.37769493   21.2490 
1440.0000   0.37532786   26.6255 
1450.0000   0.37751681   31.9437 
1460.0000   0.38204587   35.4966 
1470.0000   0.38597165   40.3605 
1480.0000   0.39159354   45.8772 
1490.0000   0.39493728   51.5140 
1500.0000   0.39661105   55.7843 
1510.0000   0.39660743   61.0031 
1520.0000   0.39543937   66.6457 
1530.0000   0.39506534   70.3964 
1540.0000   0.39490603   76.3675 
1550.0000   0.39578193   79.6895 
1560.0000   0.39583585   82.7295 
1570.0000   0.39358566   88.3657 
1580.0000   0.39439980   91.0749 
1590.0000   0.39329015   96.1715 
1600.0000   0.39461502   99.5329 
1610.0000   0.39508734   104.0664 
1620.0000   0.39481142   106.4286 
1630.0000   0.39724395   111.6819 
1640.0000   0.39824719   112.0322 
1650.0000   0.40022908   117.1595 
1660.0000   0.40181700   119.2622 
1670.0000   0.40338042   123.4164 
1680.0000   0.40484804   123.8365 
1690.0000   0.40652860   128.6015 
1700.0000   0.40856241   129.9992 
1710.0000   0.41051352   132.5721 
1720.0000   0.41148559   137.4719 
1730.0000   0.41350262   137.4508 
1740.0000   0.41392144   143.1898 
1750.0000   0.41395462   147.7965 
1760.0000   0.41448068   148.0749 
1770.0000   0.41174876   151.4794 
1780.0000   0.41022231   155.3598 
1790.0000   0.41034118   158.5384 
1800.0000   0.40935684   164.2650 
1810.0000   0.40479548   166.9695 
1820.0000   0.39851978   170.8163 
1830.0000   0.39549255   179.9024 
1840.0000   0.39601149   -176.5280 
1850.0000   0.39377468   -172.1249 
1860.0000   0.39169131   -166.4308 
1870.0000   0.38927468   -159.2063 
1880.0000   0.38544300   -156.8547 
1890.0000   0.38377874   -153.0124 
1900.0000   0.38226699   -145.2009 
1910.0000   0.38316705   -141.6652 
1920.0000   0.38218484   -138.8380 
1930.0000   0.37654885   -133.3351 
1940.0000   0.37673032   -131.5694 
1950.0000   0.37743005   -130.7951 
1960.0000   0.37006567   -123.1487 
1970.0000   0.37292502   -120.7799 
1980.0000   0.37472543   -113.5743 
1990.0000   0.36993479   -114.0929 
2000.0000   0.35102070   -109.0800 
2010.0000   0.34690357   -107.4047 
2020.0000   0.34148206   -106.3077 
2030.0000   0.33521480   -104.4297 
2040.0000   0.32683846   -100.5913 
2050.0000   0.32268991   -95.3067 
2060.0000   0.31762206   -93.6110 
2070.0000   0.31180143   -89.4979 
2080.0000   0.30796331   -87.2428 
2090.0000   0.30547512   -79.8787 
2100.0000   0.30666781   -80.4146 
2110.0000   0.30870215   -74.5408 
2120.0000   0.30945075   -73.6611 
2130.0000   0.30789492   -64.3201 
2140.0000   0.31911113   -63.2888 
2150.0000   0.31943860   -66.2504 
2160.0000   0.32393549   -65.4218 
2170.0000   0.32595181   -59.7390 
2180.0000   0.33026695   -49.9564 
2190.0000   0.33173193   -47.2627 
2200.0000   0.33385572   -43.0310 
2210.0000   0.33078527   -37.0892 
2220.0000   0.32875814   -31.1640 
2230.0000   0.32082356   -25.9991 
2240.0000   0.32659385   -16.9355 
2250.0000   0.32572255   -11.5698 
2260.0000   0.32418907   -6.0413 
2270.0000   0.32019495   -0.7646 
2280.0000   0.31822448   5.9547 
2290.0000   0.31349478   13.8113 
2300.0000   0.30433080   18.4575 
2310.0000   0.29030552   23.9732 
2320.0000   0.28008445   27.8782 
2330.0000   0.26345532   37.5370 
2340.0000   0.23855121   45.3619 
2350.0000   0.18424030   51.5490 
2360.0000   0.16265304   59.9860 
2370.0000   0.14224510   63.1126 
2380.0000   0.12334399   72.4055 
2390.0000   0.15269572   69.0924 
2400.0000   0.17857787   72.4754 
2410.0000   0.16353112   74.2055 
2420.0000   0.15374643   85.3641 
2430.0000   0.14552539   90.9275 
2440.0000   0.13997064   96.6945 
2450.0000   0.13381484   99.4213 
2460.0000   0.12857065   108.8836 
2470.0000   0.12231227   108.1841 
2480.0000   0.11843715   116.3379 
2490.0000   0.11334678   122.4008 
2500.0000   0.10557514   127.4982 
2510.0000   0.08653381   149.4383 
2520.0000   0.09626615   -179.3382 
2530.0000   0.10023736   -177.7183 
2540.0000   0.10478985   -167.5755 
2550.0000   0.11076839   -162.3021 
2560.0000   0.11760476   -164.1893 
2570.0000   0.12498808   -163.7492 
2580.0000   0.12960585   -164.8187 
2590.0000   0.13563158   -165.8391 
2600.0000   0.14208387   -164.7229 
2610.0000   0.14825887   -160.5877 
2620.0000   0.15223886   -165.7806 
2630.0000   0.15487545   -163.1688 
2640.0000   0.15716161   -163.9277 
2650.0000   0.16009427   -168.1943 
2660.0000   0.16191347   -165.6463 
2670.0000   0.16075183   -165.9928 
2680.0000   0.16224650   -172.1088 
2690.0000   0.16323512   -166.7213 
2700.0000   0.16308348   -166.4095 
2710.0000   0.16242028   -169.8371 
2720.0000   0.16184337   -166.9451 
2730.0000   0.16061265   -162.5827 
2740.0000   0.15702739   -158.8292 
2750.0000   0.15934542   -157.6035 
2760.0000   0.15598635   -152.6140 
2770.0000   0.15559564   -154.7575 
2780.0000   0.15557561   -145.5699 
2790.0000   0.15380745   -152.9592 
2800.0000   0.15311517   -145.0224 
2810.0000   0.15533149   -140.8163 
2820.0000   0.15471458   -141.3888 
2830.0000   0.15638559   -139.1462 
2840.0000   0.15402473   -136.4549 
2850.0000   0.15719339   -129.9369 
2860.0000   0.15788601   -129.0282 
2870.0000   0.14975886   -124.7485 
2880.0000   0.15146294   -122.3719 
2890.0000   0.15094986   -121.1473 
2900.0000   0.14797527   -115.9206 
2910.0000   0.14773593   -108.8560 
2920.0000   0.14794353   -104.6747 
2930.0000   0.14884431   -102.5060 
2940.0000   0.14579637   -95.6739 
2950.0000   0.14614451   -93.6129 
2960.0000   0.14435830   -94.5089 
2970.0000   0.14074294   -86.0653 
2980.0000   0.13926254   -82.2851 
2990.0000   0.13782371   -74.9250 
3000.0000   0.13491353   -69.1049 
3010.0000   0.13304704   -65.4278 
3020.0000   0.13264733   -64.1022 
3030.0000   0.12973643   -55.7987 
3040.0000   0.12692450   -50.5424 
3050.0000   0.12519443   -44.8562 
3060.0000   0.12067430   -39.3959 
3070.0000   0.11881196   -33.9588 
3080.0000   0.11717170   -30.0745 
3090.0000   0.11589848   -22.4865 
3100.0000   0.11361559   -18.3051 
3110.0000   0.11134424   -16.6639 
3120.0000   0.10905430   -7.8657 
3130.0000   0.10597380   -3.7174 
3140.0000   0.10442743   4.2076 
3150.0000   0.10241290   1.2078 
3160.0000   0.10000989   7.1643 
3170.0000   0.09863433   11.8691 
3180.0000   0.09619186   21.0200 
3190.0000   0.09433634   23.7590 
3200.0000   0.09213216   22.5431 
3210.0000   0.09066226   28.3361 
3220.0000   0.08920744   40.0188 
3230.0000   0.08728414   34.6149 
3240.0000   0.08478722   39.8513 
3250.0000   0.08450314   41.2529 
3260.0000   0.08254918   46.4844 
3270.0000   0.08063105   46.6113 
3280.0000   0.07774456   50.1951 
3290.0000   0.07731419   52.2604 
3300.0000   0.07525711   56.9084 
3310.0000   0.07509785   59.8076 
3320.0000   0.07152508   61.1307 
3330.0000   0.06976091   63.5793 
3340.0000   0.06945834   66.8827 
3350.0000   0.06822413   76.0560 
3360.0000   0.06716758   84.9220 
3370.0000   0.06561318   83.2660 
3380.0000   0.06479666   89.4897 
3390.0000   0.06461470   93.0163 
3400.0000   0.06401163   104.7040 
3410.0000   0.06496069   102.2206 
3420.0000   0.06533330   112.3680 
3430.0000   0.06642900   116.6392 
3440.0000   0.06683975   118.2391 
3450.0000   0.06705036   128.9604 
3460.0000   0.06907264   137.2595 
3470.0000   0.07040029   148.0731 
3480.0000   0.07054976   144.3764 
3490.0000   0.07156905   159.0602 
3500.0000   0.07190108   155.8900 
3510.0000   0.07145735   163.8245 
3520.0000   0.07217792   170.4217 
3530.0000   0.07187751   176.5583 
3540.0000   0.07223917   -179.8252 
3550.0000   0.07086936   -177.7645 
3560.0000   0.07267289   -178.6431 
3570.0000   0.07043609   -177.0815 
3580.0000   0.07280273   -171.9518 
3590.0000   0.07437549   -164.7662 
3600.0000   0.07530996   -164.0432 
3610.0000   0.07492936   -160.1388 
3620.0000   0.07745761   -154.8948 
3630.0000   0.07694941   -161.2488 
3640.0000   0.08209413   -159.7131 
3650.0000   0.08521536   -157.8671 
3660.0000   0.08649708   -157.9137 
3670.0000   0.09003162   -158.0445 
3680.0000   0.09546512   -156.0981 
3690.0000   0.10054676   -158.7180 
3700.0000   0.10088840   -154.4412 
3710.0000   0.10615305   -161.1790 
3720.0000   0.10807475   -156.2092 
3730.0000   0.11167275   -156.7005 
3740.0000   0.11310515   -156.6740 
3750.0000   0.11639323   -163.1612 
3760.0000   0.11628403   -159.4240 
3770.0000   0.11975425   -154.3713 
3780.0000   0.11953240   -156.6657 
3790.0000   0.11902863   -161.0646 
3800.0000   0.12051874   -155.6925 
3810.0000   0.11794315   -152.4474 
3820.0000   0.11865141   -146.7767 
3830.0000   0.11816859   -141.4937 
3840.0000   0.11479078   -132.2800 
3850.0000   0.11384922   -130.7042 
3860.0000   0.11266637   -121.4897 
3870.0000   0.10927104   -115.3100 
3880.0000   0.10554112   -103.5360 
3890.0000   0.10427744   -99.8951 
3900.0000   0.10134186   -93.3555 
3910.0000   0.09900317   -86.3601 
3920.0000   0.09540561   -80.3545 
3930.0000   0.09382932   -73.9795 
3940.0000   0.09074043   -73.9903 
3950.0000   0.08676317   -75.3701 
3960.0000   0.08618057   -67.2448 
3970.0000   0.08284382   -67.4538 
3980.0000   0.08021411   -62.7826 
3990.0000   0.07675316   -62.0163 
