# MHz S MA R 50.0
2000.0000   0.73701315   -58.9028 
2004.0000   0.73744449   -54.5179 
2008.0000   0.72441295   -57.9037 
2012.0000   0.72719831   -53.8936 
2016.0000   0.72770433   -52.1993 
2020.0000   0.72129775   -51.1477 
2024.0000   0.71935269   -52.5493 
2028.0000   0.70986936   -50.9059 
2032.0000   0.70582404   -46.3073 
2036.0000   0.70679308   -47.0416 
2040.0000   0.70590713   -47.9547 
2044.0000   0.69729740   -44.5971 
2048.0000   0.69434329   -43.2888 
2052.0000   0.68771789   -42.8659 
2056.0000   0.68940614   -42.2388 
2060.0000   0.68424954   -39.5409 
2064.0000   0.67933007   -40.9298 
2068.0000   0.67204053   -44.6751 
2072.0000   0.67423637   -42.7328 
2076.0000   0.67053279   -39.8228 
2080.0000   0.66588174   -39.0944 
2084.0000   0.65664053   -35.2974 
2088.0000   0.66066602   -35.0537 
2092.0000   0.65841289   -37.5192 
2096.0000   0.65552012   -40.4213 
2100.0000   0.65353826   -37.0328 
2104.0000   0.65078881   -36.9515 
2108.0000   0.65177602   -30.3115 
2112.0000   0.65408445   -30.6976 
2116.0000   0.65245596   -27.1333 
2120.0000   0.64817310   -29.2201 
2124.0000   0.65352853   -28.5903 
2128.0000   0.64513253   -26.9321 
2132.0000   0.65409778   -23.7763 
2136.0000   0.64834035   -25.8260 
2140.0000   0.64764056   -24.3618 
2144.0000   0.65493781   -23.1876 
2148.0000   0.65567960   -17.4428 
2152.0000   0.65623185   -15.7592 
2156.0000   0.65720545   -19.8880 
2160.0000   0.65522429   -19.5339 
2164.0000   0.65266818   -8.6884 
2168.0000   0.65702235   -17.6662 
2172.0000   0.65112124   -14.2322 
2176.0000   0.64670181   -11.5391 
2180.0000   0.64913359   -7.4159 
2184.0000   0.65423939   -4.7297 
2188.0000   0.64189274   -11.2430 
2192.0000   0.64061969   -7.0411 
2196.0000   0.64595140   -2.1908 
2200.0000   0.63556466   -2.7671 
2204.0000   0.62442136   1.8676 
2208.0000   0.60282275   3.2358 
2212.0000   0.60440999   6.9884 
2216.0000   0.58968848   8.7062 
2220.0000   0.58446416   6.9795 
2224.0000   0.57326913   10.8606 
2228.0000   0.55969180   13.9091 
2232.0000   0.54452199   15.5539 
2236.0000   0.53292609   20.2114 
2240.0000   0.52674621   20.2807 
2244.0000   0.50919298   22.1460 
2248.0000   0.50346894   25.5820 
2252.0000   0.49540679   26.9992 
2256.0000   0.48688585   31.1439 
2260.0000   0.48432008   29.5519 
2264.0000   0.47731735   36.0609 
2268.0000   0.47133955   38.7522 
2272.0000   0.45933913   41.7083 
2276.0000   0.45712447   44.8266 
2280.0000   0.45171221   46.7142 
2284.0000   0.44130679   49.1588 
2288.0000   0.44036401   50.2565 
2292.0000   0.42617137   56.9926 
2296.0000   0.42929603   56.1061 
2300.0000   0.41876425   55.3143 
2304.0000   0.42066197   59.0322 
2308.0000   0.41749629   64.6319 
2312.0000   0.40868679   64.6865 
2316.0000   0.40337788   65.2146 
2320.0000   0.39139005   68.0100 
2324.0000   0.39175525   71.4079 
2328.0000   0.37969132   70.1748 
2332.0000   0.37294678   72.6387 
2336.0000   0.34921874   81.0797 
2340.0000   0.34174080   86.9385 
2344.0000   0.33762473   95.0403 
2348.0000   0.34094630   94.6248 
2352.0000   0.33739152   95.9676 
2356.0000   0.33528114   96.3615 
2360.0000   0.32756226   96.5663 
2364.0000   0.31957140   100.7079 
2368.0000   0.33101025   94.5660 
2372.0000   0.34845022   96.7780 
2376.0000   0.43770943   84.6202 
2380.0000   0.43821225   85.2265 
2384.0000   0.43827758   84.9723 
2388.0000   0.43291849   86.0859 
2392.0000   0.44057917   84.4682 
2396.0000   0.43788633   85.2901 
2400.0000   0.43591592   85.7228 
2404.0000   0.43923938   88.2483 
2408.0000   0.44237094   88.6416 
2412.0000   0.44505661   83.2727 
2416.0000   0.44383758   88.8096 
2420.0000   0.44796038   88.4172 
2424.0000   0.44931194   87.2419 
2428.0000   0.44674141   85.7945 
2432.0000   0.44793578   90.8615 
2436.0000   0.44342402   85.9925 
2440.0000   0.44787223   91.4254 
2444.0000   0.44732279   92.4683 
2448.0000   0.45126056   90.6136 
2452.0000   0.44991464   92.4826 
2456.0000   0.44576143   88.8481 
2460.0000   0.44370051   90.9467 
2464.0000   0.44983974   90.6749 
2468.0000   0.44813410   93.9553 
2472.0000   0.43901664   88.3574 
2476.0000   0.44882548   90.0695 
2480.0000   0.43953957   95.9855 
2484.0000   0.43669006   94.3739 
2488.0000   0.44146240   94.2137 
2492.0000   0.43386987   97.4631 
2496.0000   0.42321790   96.5983 
2500.0000   0.41619940   95.8378 
2504.0000   0.35686802   124.9264 
2508.0000   0.35951153   126.1073 
2512.0000   0.36071255   128.8282 
2516.0000   0.36179761   130.2181 
2520.0000   0.36257361   131.3299 
2524.0000   0.36161030   131.8070 
2528.0000   0.35991180   131.2322 
2532.0000   0.36084230   131.5267 
2536.0000   0.36035429   139.2088 
2540.0000   0.35525717   138.0494 
2544.0000   0.36246094   138.5061 
2548.0000   0.36180842   143.8150 
2552.0000   0.36251729   143.8365 
2556.0000   0.36295125   142.6278 
2560.0000   0.36137177   153.0408 
2564.0000   0.36252663   150.1139 
2568.0000   0.36599301   147.2780 
2572.0000   0.36726086   149.0283 
2576.0000   0.35560418   149.9421 
2580.0000   0.36306732   151.8444 
2584.0000   0.36272726   153.8037 
2588.0000   0.36249934   154.5379 
2592.0000   0.36460062   154.8181 
2596.0000   0.36292226   155.3920 
2600.0000   0.35809919   158.6387 
2604.0000   0.36313143   154.2911 
2608.0000   0.36055786   158.8086 
2612.0000   0.36262045   162.2113 
2616.0000   0.36345721   160.3782 
2620.0000   0.35322570   163.6703 
2624.0000   0.35145438   165.5759 
2628.0000   0.35228059   158.5389 
2632.0000   0.35902464   162.2462 
2636.0000   0.35700886   167.9543 
2640.0000   0.35604467   167.9962 
2644.0000   0.35400374   173.0743 
2648.0000   0.35578488   171.8406 
2652.0000   0.34826813   169.6605 
2656.0000   0.34802118   171.6116 
2660.0000   0.36104377   170.8931 
2664.0000   0.36145944   174.9661 
2668.0000   0.35709009   172.8830 
2672.0000   0.35965766   179.0021 
2676.0000   0.35472092   179.9632 
2680.0000   0.35193334   178.2709 
2684.0000   0.34826681   -176.2940 
2688.0000   0.33957283   -175.8851 
2692.0000   0.34849854   -179.2562 
2696.0000   0.35747977   -175.6985 
2700.0000   0.34824383   -173.3261 
2704.0000   0.35104078   -173.8773 
2708.0000   0.35353825   -168.8463 
2712.0000   0.35391925   -174.1212 
2716.0000   0.34631407   -166.6195 
2720.0000   0.35026153   -164.7830 
2724.0000   0.35167457   -165.3627 
2728.0000   0.35002926   -162.1944 
2732.0000   0.34877617   -160.9011 
2736.0000   0.33961294   -158.0499 
2740.0000   0.33834163   -158.9069 
2744.0000   0.34233533   -158.9791 
2748.0000   0.33954679   -153.2629 
2752.0000   0.34117536   -149.6620 
2756.0000   0.33987400   -148.4305 
2760.0000   0.33668460   -149.8364 
2764.0000   0.33815972   -150.8063 
2768.0000   0.32784655   -147.6359 
2772.0000   0.33179168   -152.9487 
2776.0000   0.33026949   -140.0770 
2780.0000   0.32858738   -140.0402 
2784.0000   0.32732125   -150.5504 
2788.0000   0.31827332   -146.8633 
2792.0000   0.32442909   -139.4533 
2796.0000   0.32330658   -139.2688 
2800.0000   0.31794446   -140.6470 
2804.0000   0.31728422   -142.6030 
2808.0000   0.32217094   -135.1642 
2812.0000   0.31584038   -133.5361 
2816.0000   0.31377210   -134.1974 
2820.0000   0.31792987   -127.4839 
2824.0000   0.31860249   -133.2975 
2828.0000   0.31215804   -127.6226 
2832.0000   0.30322870   -125.6868 
2836.0000   0.30909423   -131.2905 
2840.0000   0.31267885   -132.2614 
2844.0000   0.30820359   -123.6940 
2848.0000   0.31094562   -120.6831 
2852.0000   0.30614683   -119.2839 
2856.0000   0.30646127   -122.9761 
2860.0000   0.31020555   -120.0699 
2864.0000   0.30701392   -116.8538 
2868.0000   0.30427177   -118.2153 
2872.0000   0.28537987   -114.0656 
2876.0000   0.28843997   -112.8920 
2880.0000   0.28801823   -114.9706 
2884.0000   0.28625357   -110.0481 
2888.0000   0.28240032   -109.0210 
2892.0000   0.27868796   -106.1377 
2896.0000   0.28374607   -107.1764 
2900.0000   0.27965693   -106.0816 
2904.0000   0.28174582   -103.9442 
2908.0000   0.27645301   -102.1432 
2912.0000   0.27431621   -100.8436 
2916.0000   0.27626726   -101.5060 
2920.0000   0.27688628   -95.1395 
2924.0000   0.27639456   -92.8191 
2928.0000   0.27059502   -97.9973 
2932.0000   0.27410433   -97.4511 
2936.0000   0.27271749   -92.3958 
2940.0000   0.27029991   -90.0835 
2944.0000   0.27101869   -88.4816 
2948.0000   0.27143218   -85.8083 
2952.0000   0.27022831   -85.8718 
2956.0000   0.26928120   -82.4468 
2960.0000   0.26734089   -84.3403 
2964.0000   0.26615168   -82.8020 
2968.0000   0.26385582   -75.0765 
2972.0000   0.26489392   -74.1548 
2976.0000   0.26338156   -77.0423 
2980.0000   0.26213472   -75.9269 
2984.0000   0.25931423   -75.8265 
2988.0000   0.25837874   -74.1848 
2992.0000   0.25915516   -72.0617 
2996.0000   0.25524552   -67.9159 
