# MHz S MA R 50.0
2000.0000   0.69353422   -146.8922 
2004.0000   0.68335901   -144.6803 
2008.0000   0.67992406   -144.3037 
2012.0000   0.68111198   -144.0194 
2016.0000   0.67867367   -139.1292 
2020.0000   0.66008645   -137.6358 
2024.0000   0.67267928   -136.1838 
2028.0000   0.66910088   -133.9822 
2032.0000   0.65438909   -139.2450 
2036.0000   0.65969494   -131.7112 
2040.0000   0.65734266   -131.2328 
2044.0000   0.64966210   -127.1664 
2048.0000   0.64388925   -129.3743 
2052.0000   0.64407203   -123.3852 
2056.0000   0.63923843   -121.2995 
2060.0000   0.63688907   -114.2044 
2064.0000   0.62994152   -116.3268 
2068.0000   0.62545972   -116.7779 
2072.0000   0.62472500   -114.8271 
2076.0000   0.61738919   -113.7806 
2080.0000   0.61983223   -112.1815 
2084.0000   0.61741296   -108.3535 
2088.0000   0.61675965   -106.9870 
2092.0000   0.61617555   -104.3499 
2096.0000   0.61700487   -100.6974 
2100.0000   0.61997794   -102.7300 
2104.0000   0.61147254   -101.1285 
2108.0000   0.62286074   -95.5715 
2112.0000   0.62519126   -95.2532 
2116.0000   0.62288655   -93.6711 
2120.0000   0.63050083   -91.0608 
2124.0000   0.63128805   -92.5219 
2128.0000   0.63359895   -88.2412 
2132.0000   0.63907352   -88.3229 
2136.0000   0.64076083   -85.2326 
2140.0000   0.64312579   -82.5110 
2144.0000   0.63813109   -85.7984 
2148.0000   0.64640781   -77.5371 
2152.0000   0.63204957   -76.5615 
2156.0000   0.64907885   -79.2813 
2160.0000   0.65397459   -72.3149 
2164.0000   0.65659168   -69.8244 
2168.0000   0.65396750   -68.3976 
2172.0000   0.65545433   -66.5291 
2176.0000   0.65526328   -62.8576 
2180.0000   0.66570843   -62.9823 
2184.0000   0.66869397   -62.7584 
2188.0000   0.66934932   -58.9504 
2192.0000   0.67559412   -50.5212 
2196.0000   0.67350844   -52.9501 
2200.0000   0.67489411   -49.3125 
2204.0000   0.66839963   -48.9797 
2208.0000   0.66988729   -46.7935 
2212.0000   0.67523136   -42.8912 
2216.0000   0.67802101   -44.2846 
2220.0000   0.66838683   -36.9784 
2224.0000   0.67544418   -38.0411 
2228.0000   0.67383872   -33.7774 
2232.0000   0.67568287   -31.6219 
2236.0000   0.67460322   -26.6794 
2240.0000   0.67311674   -25.7450 
2244.0000   0.67532219   -26.4982 
2248.0000   0.66840235   -21.1252 
2252.0000   0.67070588   -19.7259 
2256.0000   0.67101487   -18.8414 
2260.0000   0.65748496   -15.8246 
2264.0000   0.66592960   -12.4974 
2268.0000   0.65773890   -10.6754 
2272.0000   0.65611808   -4.3002 
2276.0000   0.66037660   -5.9666 
2280.0000   0.65698493   0.5974 
2284.0000   0.65066790   0.0557 
2288.0000   0.62740431   6.7797 
2292.0000   0.63971138   10.3591 
2296.0000   0.63531773   15.4709 
2300.0000   0.62692866   12.8989 
2304.0000   0.60973399   14.1591 
2308.0000   0.60582090   18.4355 
2312.0000   0.59867792   21.3319 
2316.0000   0.58451028   24.0080 
2320.0000   0.57018175   26.5256 
2324.0000   0.55873689   28.1131 
2328.0000   0.53795310   29.2959 
2332.0000   0.52582824   32.1834 
2336.0000   0.49208049   36.5372 
2340.0000   0.42386272   45.0570 
2344.0000   0.40773876   43.1589 
2348.0000   0.39419098   48.9902 
2352.0000   0.37939026   50.5715 
2356.0000   0.36200615   56.9282 
2360.0000   0.34140826   57.7004 
2364.0000   0.32784392   60.6485 
2368.0000   0.31651737   65.9925 
2372.0000   0.29917588   68.9209 
2376.0000   0.28346464   71.4119 
2380.0000   0.27127833   76.2960 
2384.0000   0.27594198   77.4830 
2388.0000   0.40075098   68.8386 
2392.0000   0.39416002   68.2294 
2396.0000   0.38618016   69.4599 
2400.0000   0.37473780   74.1146 
2404.0000   0.36344469   72.6071 
2408.0000   0.35722322   78.6526 
2412.0000   0.35198728   78.5863 
2416.0000   0.34479689   87.4335 
2420.0000   0.34249563   88.9953 
2424.0000   0.33918427   88.7839 
2428.0000   0.33609286   91.5191 
2432.0000   0.33106568   96.1428 
2436.0000   0.32220079   106.5833 
2440.0000   0.32805810   102.1125 
2444.0000   0.32490120   105.1476 
2448.0000   0.32078577   100.3755 
2452.0000   0.31942651   98.0292 
2456.0000   0.31535429   104.1135 
2460.0000   0.31299242   103.4115 
2464.0000   0.31104770   107.3972 
2468.0000   0.30519173   103.7311 
2472.0000   0.30609241   116.5348 
2476.0000   0.30115440   114.2728 
2480.0000   0.29452476   111.1945 
2484.0000   0.29029386   118.6370 
2488.0000   0.28978357   118.3807 
2492.0000   0.28436593   121.3205 
2496.0000   0.27805779   119.0653 
2500.0000   0.26566908   123.9275 
2504.0000   0.26308548   123.2803 
2508.0000   0.23700975   146.1117 
2512.0000   0.24128433   161.7748 
2516.0000   0.24973900   170.7486 
2520.0000   0.25193496   174.4556 
2524.0000   0.25420974   174.9261 
2528.0000   0.25593064   176.1405 
2532.0000   0.25873096   174.3725 
2536.0000   0.25494205   178.6316 
2540.0000   0.26710295   177.3730 
2544.0000   0.26545886   -176.4650 
2548.0000   0.26459901   -178.2591 
2552.0000   0.27430921   179.8737 
2556.0000   0.27198023   -173.7312 
2560.0000   0.28206983   179.1457 
2564.0000   0.28110364   178.8934 
2568.0000   0.28801633   176.7772 
2572.0000   0.29069990   173.7319 
2576.0000   0.29157592   176.5487 
2580.0000   0.29639480   173.9272 
2584.0000   0.29961530   177.9898 
2588.0000   0.29952866   178.0797 
2592.0000   0.31145444   177.9741 
2596.0000   0.30762306   177.4461 
2600.0000   0.31464992   -177.4079 
2604.0000   0.31635564   179.0333 
2608.0000   0.31850344   178.3462 
2612.0000   0.31691923   178.7443 
2616.0000   0.32427130   -179.3831 
2620.0000   0.32501603   178.1980 
2624.0000   0.32180072   170.6098 
2628.0000   0.32268022   178.2367 
2632.0000   0.32793822   176.4049 
2636.0000   0.32634774   179.8457 
2640.0000   0.32783276   -178.4873 
2644.0000   0.33357183   179.0921 
2648.0000   0.32801325   175.9563 
2652.0000   0.33408958   178.3738 
2656.0000   0.33562451   178.8156 
2660.0000   0.33453287   -178.8060 
2664.0000   0.33595477   -178.5368 
2668.0000   0.33599733   177.2970 
2672.0000   0.33073033   176.8348 
2676.0000   0.33084727   177.9637 
2680.0000   0.32984736   175.8780 
2684.0000   0.32913546   174.6746 
2688.0000   0.33306003   -179.5483 
2692.0000   0.33010005   178.2758 
2696.0000   0.33324191   -175.4815 
2700.0000   0.32892007   174.8104 
2704.0000   0.32835086   178.3737 
2708.0000   0.32930249   -176.4122 
2712.0000   0.32971418   -178.9802 
2716.0000   0.33138703   -174.7394 
2720.0000   0.32824281   -171.4876 
2724.0000   0.32780466   -173.6905 
2728.0000   0.31464748   -172.2319 
2732.0000   0.31943235   -175.1912 
2736.0000   0.32062299   -168.3969 
2740.0000   0.31676264   -171.0384 
2744.0000   0.32275195   -170.0346 
2748.0000   0.32142416   -161.5774 
2752.0000   0.32151846   -164.8449 
2756.0000   0.31822510   -167.7462 
2760.0000   0.31623903   -164.0025 
2764.0000   0.31899588   -166.1628 
2768.0000   0.31843716   -151.8874 
2772.0000   0.31645491   -158.5590 
2776.0000   0.31804575   -151.8345 
2780.0000   0.31753732   -158.6093 
2784.0000   0.31438043   -156.9408 
2788.0000   0.31303811   -151.8269 
2792.0000   0.31388731   -151.5731 
2796.0000   0.31829106   -150.8097 
2800.0000   0.30637202   -145.9224 
2804.0000   0.29902643   -149.0695 
2808.0000   0.30575043   -149.6519 
2812.0000   0.31695191   -144.6533 
2816.0000   0.31585078   -145.7509 
2820.0000   0.31295150   -140.8039 
2824.0000   0.30812607   -145.2712 
2828.0000   0.30593093   -142.8749 
2832.0000   0.31617904   -144.5529 
2836.0000   0.31922095   -145.2702 
2840.0000   0.30181433   -139.8931 
2844.0000   0.31801482   -133.7152 
2848.0000   0.31883620   -136.5643 
2852.0000   0.31589488   -140.4138 
2856.0000   0.31795498   -132.1344 
2860.0000   0.30667096   -137.7780 
2864.0000   0.31733799   -135.0576 
2868.0000   0.30902648   -129.9052 
2872.0000   0.29523980   -126.7902 
2876.0000   0.29768746   -126.0985 
2880.0000   0.28977501   -123.5666 
2884.0000   0.29192941   -124.4380 
2888.0000   0.29490556   -124.5812 
2892.0000   0.29538600   -121.3447 
2896.0000   0.29179181   -120.5545 
2900.0000   0.29479259   -116.7537 
2904.0000   0.29385715   -119.3159 
2908.0000   0.29261172   -121.2992 
2912.0000   0.29032629   -114.4219 
2916.0000   0.27987089   -109.7737 
2920.0000   0.28851641   -109.5662 
2924.0000   0.28565311   -106.0054 
2928.0000   0.28694078   -110.6956 
2932.0000   0.28405347   -106.3400 
2936.0000   0.28195520   -104.5069 
2940.0000   0.28146077   -104.5208 
2944.0000   0.28112272   -98.4963 
2948.0000   0.28115011   -99.7131 
2952.0000   0.27514698   -98.6458 
2956.0000   0.27465656   -93.5313 
2960.0000   0.27607934   -91.2832 
2964.0000   0.27552749   -89.7602 
2968.0000   0.26980425   -85.2570 
2972.0000   0.27319984   -81.8982 
2976.0000   0.27092685   -86.3843 
2980.0000   0.26929422   -84.8671 
2984.0000   0.26828433   -83.5473 
2988.0000   0.26721618   -80.5025 
2992.0000   0.26612121   -78.7385 
2996.0000   0.26531982   -73.3587 
