# MHz S MA R 50.0
2000.0000   0.78181089   45.5200 
2004.0000   0.76674200   40.7177 
2008.0000   0.75842634   36.6893 
2012.0000   0.75115975   35.5683 
2016.0000   0.74964670   45.8134 
2020.0000   0.74440841   45.3922 
2024.0000   0.73427027   42.3262 
2028.0000   0.73537070   47.5095 
2032.0000   0.72868441   50.2097 
2036.0000   0.72653408   50.9124 
2040.0000   0.72419586   48.5615 
2044.0000   0.71252461   47.5908 
2048.0000   0.71426485   53.1773 
2052.0000   0.71113557   52.5461 
2056.0000   0.70607946   52.0633 
2060.0000   0.69552711   52.1455 
2064.0000   0.69727754   55.9429 
2068.0000   0.69281612   55.5796 
2072.0000   0.68763415   55.9098 
2076.0000   0.68018334   57.0260 
2080.0000   0.66459880   58.8197 
2084.0000   0.67154727   61.1154 
2088.0000   0.66433229   61.3091 
2092.0000   0.66285265   62.3443 
2096.0000   0.65855107   62.6462 
2100.0000   0.65037707   62.9639 
2104.0000   0.64365801   64.7402 
2108.0000   0.64161204   62.6196 
2112.0000   0.64656846   66.0615 
2116.0000   0.64109970   65.7481 
2120.0000   0.64117109   70.7823 
2124.0000   0.63116894   68.3746 
2128.0000   0.63605916   68.6701 
2132.0000   0.64109684   72.8765 
2136.0000   0.63778141   72.9009 
2140.0000   0.63908305   74.9762 
2144.0000   0.63520228   78.3827 
2148.0000   0.63578045   76.8239 
2152.0000   0.63547774   79.4740 
2156.0000   0.63112353   83.1352 
2160.0000   0.63358046   81.1129 
2164.0000   0.62551270   79.0092 
2168.0000   0.63016497   84.6387 
2172.0000   0.62348407   85.7249 
2176.0000   0.62306197   85.0269 
2180.0000   0.61736935   86.3266 
2184.0000   0.60194258   91.4239 
2188.0000   0.61723203   91.9799 
2192.0000   0.61069664   91.9239 
2196.0000   0.61195812   97.1803 
2200.0000   0.54328553   99.8532 
2204.0000   0.52816214   101.3095 
2208.0000   0.51065231   106.9811 
2212.0000   0.49280160   107.3964 
2216.0000   0.48745018   107.2007 
2220.0000   0.48225745   111.0510 
2224.0000   0.46765058   116.4682 
2228.0000   0.45825032   117.5644 
2232.0000   0.44950258   119.4036 
2236.0000   0.44286009   124.0402 
2240.0000   0.43991643   126.4551 
2244.0000   0.42877660   124.9942 
2248.0000   0.42583009   130.8324 
2252.0000   0.42343348   132.9797 
2256.0000   0.41691428   133.9675 
2260.0000   0.41963533   133.5458 
2264.0000   0.41339558   138.5948 
2268.0000   0.41293092   140.7130 
2272.0000   0.40782028   143.4682 
2276.0000   0.40931819   141.8895 
2280.0000   0.40820372   145.8588 
2284.0000   0.40467344   146.5442 
2288.0000   0.40459168   145.3321 
2292.0000   0.40653746   145.1996 
2296.0000   0.40448027   147.1498 
2300.0000   0.40099393   148.1529 
2304.0000   0.40349953   143.8910 
2308.0000   0.40086997   148.1657 
2312.0000   0.40000419   139.1269 
2316.0000   0.39506903   137.0823 
2320.0000   0.38898397   130.5500 
2324.0000   0.39171608   139.1412 
2328.0000   0.38750057   134.5940 
2332.0000   0.38236439   134.2307 
2336.0000   0.37742652   133.6297 
2340.0000   0.36928905   130.7087 
2344.0000   0.34712953   139.2529 
2348.0000   0.34469637   137.9927 
2352.0000   0.34340938   137.8304 
2356.0000   0.33867639   141.4704 
2360.0000   0.33611507   142.2241 
2364.0000   0.33372022   139.8057 
2368.0000   0.33127530   141.5474 
2372.0000   0.33073362   144.1387 
2376.0000   0.32670336   148.1200 
2380.0000   0.42212617   131.1760 
2384.0000   0.42340755   133.6561 
2388.0000   0.42457148   131.5112 
2392.0000   0.42470692   132.2912 
2396.0000   0.42111134   169.4304 
2400.0000   0.42145554   166.3036 
2404.0000   0.42172193   168.3618 
2408.0000   0.42358553   167.7219 
2412.0000   0.41354086   163.9678 
2416.0000   0.42083447   171.7008 
2420.0000   0.42577495   172.4802 
2424.0000   0.41979687   171.5047 
2428.0000   0.42098596   171.9483 
2432.0000   0.42359246   173.0882 
2436.0000   0.41133055   169.2232 
2440.0000   0.42045480   172.3561 
2444.0000   0.41709209   174.8331 
2448.0000   0.42203611   176.3887 
2452.0000   0.42217857   173.9092 
2456.0000   0.41277215   172.0875 
2460.0000   0.41952011   174.4886 
2464.0000   0.42163864   176.6567 
2468.0000   0.41617718   179.1488 
2472.0000   0.41920395   -178.5173 
2476.0000   0.41350035   -178.1786 
2480.0000   0.40896998   -178.7987 
2484.0000   0.41228771   -169.5402 
2488.0000   0.39899703   -171.7887 
2492.0000   0.35528980   -146.8173 
2496.0000   0.34796123   -146.0550 
2500.0000   0.35187333   -144.3658 
2504.0000   0.35160105   -144.4022 
2508.0000   0.35921161   -134.4846 
2512.0000   0.36157351   -138.4083 
2516.0000   0.36095747   -141.0263 
2520.0000   0.36239605   -134.8068 
2524.0000   0.36468333   -132.0525 
2528.0000   0.36399482   -132.7555 
2532.0000   0.36260086   -127.6776 
2536.0000   0.36830079   -129.6859 
2540.0000   0.37254439   -129.9725 
2544.0000   0.37058768   -123.6981 
2548.0000   0.37453669   -124.9011 
2552.0000   0.37018984   -117.9976 
2556.0000   0.37324516   -119.8858 
2560.0000   0.37696880   -113.5398 
2564.0000   0.37721707   -116.3536 
2568.0000   0.37971825   -114.4289 
2572.0000   0.38066392   -111.9815 
2576.0000   0.37777274   -106.8114 
2580.0000   0.37467178   -110.9602 
2584.0000   0.38156638   -104.1675 
2588.0000   0.36970323   -104.2617 
2592.0000   0.38352612   -105.4271 
2596.0000   0.38344700   -98.7675 
2600.0000   0.38300328   -100.5741 
2604.0000   0.37580555   -99.3718 
2608.0000   0.38476255   -97.4753 
2612.0000   0.37859686   -93.9001 
2616.0000   0.38177095   -93.3774 
2620.0000   0.37693307   -91.4787 
2624.0000   0.38243011   -94.6247 
2628.0000   0.37580960   -94.6603 
2632.0000   0.38492032   -86.1553 
2636.0000   0.38271850   -85.8830 
2640.0000   0.38229811   -87.5281 
2644.0000   0.37679472   -85.6275 
2648.0000   0.37665631   -83.1409 
2652.0000   0.37828502   -77.4172 
2656.0000   0.38140937   -75.3606 
2660.0000   0.36915679   -75.5793 
2664.0000   0.37970758   -70.7001 
2668.0000   0.37906505   -70.3283 
2672.0000   0.37802801   -66.6672 
2676.0000   0.37036068   -65.4124 
2680.0000   0.37538087   -65.3038 
2684.0000   0.37005831   -58.8616 
2688.0000   0.37502543   -57.6476 
2692.0000   0.36954785   -56.4300 
2696.0000   0.36390772   -51.4181 
2700.0000   0.36686485   -50.4719 
2704.0000   0.36219582   -49.1222 
2708.0000   0.35414977   -45.2072 
2712.0000   0.35741404   -38.8617 
2716.0000   0.35717330   -40.1346 
2720.0000   0.34644744   -32.5247 
2724.0000   0.34997013   -36.0214 
2728.0000   0.34507692   -27.8677 
2732.0000   0.34282870   -22.1800 
2736.0000   0.33631824   -18.8592 
2740.0000   0.33186521   -17.0930 
2744.0000   0.32898618   -19.9671 
2748.0000   0.32471149   -16.4602 
2752.0000   0.31573277   -7.0111 
2756.0000   0.32165483   -9.1644 
2760.0000   0.31713135   -5.0758 
2764.0000   0.31649766   2.5711 
2768.0000   0.30826575   4.2682 
2772.0000   0.30795964   1.4525 
2776.0000   0.30407950   9.3423 
2780.0000   0.30411796   9.8564 
2784.0000   0.28886410   7.1778 
2788.0000   0.28861729   10.6842 
2792.0000   0.29197202   19.9873 
2796.0000   0.28792744   23.1019 
2800.0000   0.28628354   27.2370 
2804.0000   0.28566023   29.2558 
2808.0000   0.28551429   28.3212 
2812.0000   0.27828467   28.8859 
2816.0000   0.27566702   35.1721 
2820.0000   0.27848360   34.6623 
2824.0000   0.27388878   31.6064 
2828.0000   0.27218726   40.1998 
2832.0000   0.26500112   49.3077 
2836.0000   0.26813716   50.4779 
2840.0000   0.27315002   51.5592 
2844.0000   0.27357261   60.1091 
2848.0000   0.27060192   66.2763 
2852.0000   0.27156760   60.1285 
2856.0000   0.27193904   65.1957 
2860.0000   0.27220372   69.5288 
2864.0000   0.26904108   77.3597 
2868.0000   0.26683073   73.4198 
2872.0000   0.25504234   91.9959 
2876.0000   0.25641642   94.0259 
2880.0000   0.25682393   96.2624 
2884.0000   0.25403844   102.4486 
2888.0000   0.25762343   108.7745 
2892.0000   0.25429029   108.4267 
2896.0000   0.25241635   111.6188 
2900.0000   0.25249117   115.8911 
2904.0000   0.25320475   119.6681 
2908.0000   0.25533171   122.7917 
2912.0000   0.25280562   126.2514 
2916.0000   0.25426232   124.9192 
2920.0000   0.24848680   130.4704 
2924.0000   0.25055662   131.9355 
2928.0000   0.25364485   135.6577 
2932.0000   0.25348117   138.5417 
2936.0000   0.25068427   146.0513 
2940.0000   0.25169603   146.1943 
2944.0000   0.25012313   149.4270 
2948.0000   0.24928104   151.7241 
2952.0000   0.24896153   148.3735 
2956.0000   0.25013906   153.2562 
2960.0000   0.24913035   156.2253 
2964.0000   0.25002856   161.3469 
2968.0000   0.24797646   160.7114 
2972.0000   0.24934942   162.6836 
2976.0000   0.24371328   158.8814 
2980.0000   0.24834952   157.4879 
2984.0000   0.24526028   158.5153 
2988.0000   0.24717539   163.7241 
2992.0000   0.24591875   160.4234 
2996.0000   0.24623138   159.9229 
